(1662146718.449998) can0 201#0F003700400D0300
(1662146718.450208) can0 080#00
(1662146718.450436) can0 181#270027000000
(1662146718.450632) can0 281#13227E040000
(1662146718.450845) can0 381#300309000600
(1662146718.455804) can0 6D0#44FFF6047B0233C5
(1662146718.457789) can0 201#0F003700400D0300
(1662146718.457968) can0 080#00
(1662146718.458192) can0 181#270027000000
(1662146718.458395) can0 281#13227E040000
(1662146718.458600) can0 381#30030A000600
(1662146718.463735) can0 003#00
(1662146718.465599) can0 201#0F003700400D0300
(1662146718.465773) can0 080#00
(1662146718.465997) can0 181#27002B000000
(1662146718.466200) can0 281#13227E040000
(1662146718.466404) can0 381#30030A000600
(1662146718.471808) can0 6D0#45FFF5047B00B343
(1662146718.473407) can0 201#0F003700400D0300
(1662146718.473581) can0 080#00
(1662146718.473811) can0 181#270027000000
(1662146718.474008) can0 281#13227E040000
(1662146718.474210) can0 381#310309000600
(1662146718.481146) can0 201#0F003700400D0300
(1662146718.481293) can0 080#00
(1662146718.481542) can0 181#27002B000000
(1662146718.481750) can0 281#13227E040000
(1662146718.481952) can0 381#310309000600
(1662146718.486584) can0 036#33A00A00BEA01E97
(1662146718.487666) can0 003#00
(1662146718.487900) can0 6D0#46FFF5047B007809
(1662146718.489167) can0 201#0F003700400D0300
(1662146718.489345) can0 080#00
(1662146718.489594) can0 181#270029000000
(1662146718.489806) can0 281#13227E040000
(1662146718.490000) can0 381#310309000600
(1662146718.495774) can0 001#000B047B000022D8
(1662146718.496844) can0 201#0F003700400D0300
(1662146718.497028) can0 080#00
(1662146718.497249) can0 181#270029000000
(1662146718.497453) can0 281#13227E040000
(1662146718.497655) can0 381#31030A000600
(1662146718.504578) can0 201#0F003700400D0300
(1662146718.504727) can0 080#00
(1662146718.504977) can0 181#270027000000
(1662146718.505183) can0 281#13227E040000
(1662146718.505386) can0 381#31030A000600
(1662146718.511664) can0 003#00
(1662146718.511901) can0 6D0#47FFF6047B07DD77
(1662146718.512540) can0 201#0F003700400D0300
(1662146718.512715) can0 080#00
(1662146718.512965) can0 181#270027000000
(1662146718.513178) can0 281#13227E040000
(1662146718.513372) can0 381#310309000600
(1662146718.517565) can0 080#062100AB
(1662146718.517846) can0 1838F380#000B210B21210303
(1662146718.518129) can0 1839F380#00212121040303AE
(1662146718.519809) can0 6D0#48FFF6047B07FF9A
(1662146718.520576) can0 201#0F003700400D0300
(1662146718.520752) can0 080#00
(1662146718.520978) can0 181#270027000000
(1662146718.521182) can0 281#11227E040000
(1662146718.521384) can0 381#310309000600
(1662146718.527875) can0 6D0#49FFF6047B000095
(1662146718.528114) can0 201#0F003700400D0300
(1662146718.528271) can0 080#00
(1662146718.528526) can0 181#270027000000
(1662146718.528730) can0 281#13227E040000
(1662146718.528932) can0 381#310309000600
(1662146718.535662) can0 003#00
(1662146718.535903) can0 201#0F003700400D0300
(1662146718.536142) can0 6D0#4AFFF6047B0830CE
(1662146718.536252) can0 080#00
(1662146718.536460) can0 181#270027000000
(1662146718.536665) can0 281#13227E040000
(1662146718.536866) can0 381#31030A000600
(1662146718.543651) can0 201#0F003700400D0300
(1662146718.543826) can0 080#00
(1662146718.544056) can0 181#270027000000
(1662146718.544260) can0 281#13227E040000
(1662146718.544463) can0 381#31030C000600
(1662146718.551462) can0 201#0F003700400D0300
(1662146718.551636) can0 080#00
(1662146718.551882) can0 002#A03A9FFBBC000000
(1662146718.552123) can0 001#000A047B000022D8
(1662146718.552330) can0 181#270029000000
(1662146718.552534) can0 281#13227E040000
(1662146718.552737) can0 381#300309000600
(1662146718.552973) can0 6D0#4BFFF6047B0F8228
(1662146718.559321) can0 201#0F003700400D0300
(1662146718.559499) can0 080#00
(1662146718.559722) can0 181#270029000000
(1662146718.559839) can0 003#00
(1662146718.560045) can0 281#13227E040000
(1662146718.560250) can0 381#300309000600
(1662146718.560484) can0 6D0#4CFFF7047B11943E
(1662146718.567095) can0 201#0F003700400D0300
(1662146718.567272) can0 080#00
(1662146718.567525) can0 181#27002B000000
(1662146718.567736) can0 281#13227E040000
(1662146718.567932) can0 381#30030A000600
(1662146718.568168) can0 6D0#4DFFF6047B076C0C
(1662146718.574911) can0 201#0F003700400D0300
(1662146718.575088) can0 080#00
(1662146718.575342) can0 181#27002B000000
(1662146718.575544) can0 281#13227E040000
(1662146718.575749) can0 381#2F0309000600
(1662146718.575985) can0 6D0#4EFFF6047B00019B
(1662146718.582716) can0 201#0F003600400D0300
(1662146718.582888) can0 080#00
(1662146718.583151) can0 181#270027000000
(1662146718.583353) can0 281#13227E040000
(1662146718.583558) can0 381#30030A000600
(1662146718.583676) can0 003#00
(1662146718.583911) can0 6D0#4FFFF6047B90A1CC
(1662146718.586589) can0 036#34A00900BEA01C95
(1662146718.590507) can0 201#0F003700400D0300
(1662146718.590684) can0 080#00
(1662146718.590913) can0 181#270029000000
(1662146718.591110) can0 281#13227E040000
(1662146718.591313) can0 381#30030A000700
(1662146718.598318) can0 201#0F003700400D0300
(1662146718.598497) can0 080#00
(1662146718.598720) can0 181#270029000000
(1662146718.598923) can0 281#13227E040000
(1662146718.599129) can0 381#30030A000600
(1662146718.599866) can0 6D0#50FFF6047B4F311C
(1662146718.606141) can0 201#0F003700400D0300
(1662146718.606317) can0 080#00
(1662146718.606547) can0 181#270027000000
(1662146718.606745) can0 281#13227E040000
(1662146718.606949) can0 381#300309000600
(1662146718.607770) can0 001#000A047B000022D8
(1662146718.607887) can0 003#00
(1662146718.608118) can0 6D0#51FFF6047B2131EF
(1662146718.613949) can0 201#0F003700400D0300
(1662146718.614129) can0 080#00
(1662146718.614351) can0 181#270029000000
(1662146718.614555) can0 281#13227E040000
(1662146718.614756) can0 381#2F030A000600
(1662146718.615870) can0 6D0#52FFF6047B00009E
(1662146718.617615) can0 080#052100AA
(1662146718.617903) can0 1838F380#0000210021210303
(1662146718.618182) can0 18EEFF80#F30080F300401E90
(1662146718.618464) can0 1839F380#00212121040303AE
(1662146718.621715) can0 201#0F003600400D0300
(1662146718.621889) can0 080#00
(1662146718.622143) can0 181#270027000000
(1662146718.622349) can0 281#13227E040000
(1662146718.622552) can0 381#31030A000600
(1662146718.623798) can0 6D0#53FFF5047B00009E
(1662146718.629559) can0 201#0F003700400D0300
(1662146718.629734) can0 080#00
(1662146718.629967) can0 181#270029000000
(1662146718.630161) can0 281#13227E040000
(1662146718.630363) can0 381#310309000600
(1662146718.631728) can0 003#00
(1662146718.631963) can0 6D0#54FFF5047B0236D7
(1662146718.637368) can0 201#0F003700400D0300
(1662146718.637513) can0 080#00
(1662146718.637764) can0 181#27002B000000
(1662146718.637977) can0 281#13227E040000
(1662146718.638171) can0 381#310309000600
(1662146718.639811) can0 6D0#55FFF6047B0000A1
(1662146718.645191) can0 201#0F003700400D0300
(1662146718.645366) can0 080#00
(1662146718.645590) can0 181#27002B000000
(1662146718.645793) can0 281#13227E040000
(1662146718.645997) can0 381#31030A000600
(1662146718.647868) can0 6D0#56FFF5047B0000A1
(1662146718.652990) can0 201#0F003700400D0300
(1662146718.653171) can0 080#00
(1662146718.653393) can0 181#270029000000
(1662146718.653598) can0 281#13227E040000
(1662146718.653802) can0 381#30030A000600
(1662146718.655775) can0 002#A03C9FFBBC000000
(1662146718.655898) can0 003#00
(1662146718.656132) can0 6D0#57FFF6047B0000A3
(1662146718.660803) can0 201#0F003700400D0300
(1662146718.660982) can0 080#00
(1662146718.661209) can0 181#270027000000
(1662146718.661410) can0 281#13227E040000
(1662146718.661613) can0 381#310309000600
(1662146718.663775) can0 001#000A047B000022D8
(1662146718.668610) can0 201#0F003700400D0300
(1662146718.668761) can0 080#00
(1662146718.669011) can0 181#270027000000
(1662146718.669213) can0 281#13227E040000
(1662146718.669416) can0 381#31030A000600
(1662146718.676507) can0 201#0F003700400D0300
(1662146718.676685) can0 080#00
(1662146718.676940) can0 181#270027000000
(1662146718.677142) can0 281#13227E040000
(1662146718.677348) can0 381#330308000600
(1662146718.679727) can0 003#00
(1662146718.684252) can0 201#0F003800400D0300
(1662146718.684430) can0 080#00
(1662146718.684656) can0 181#270025000000
(1662146718.684858) can0 281#13227E040000
(1662146718.685066) can0 381#310309000400
(1662146718.686583) can0 036#35A00400BEA01B90
(1662146718.687798) can0 6D0#58FFF6047BFFD87B
(1662146718.692074) can0 201#0F003700400D0300
(1662146718.692251) can0 080#00
(1662146718.692506) can0 181#270027000000
(1662146718.692710) can0 281#13227E040000
(1662146718.692914) can0 381#30030D000600
(1662146718.695799) can0 6D0#59FFF6047B0000A5
(1662146718.699865) can0 201#0F003700400D0300
(1662146718.700048) can0 080#00
(1662146718.700281) can0 181#270025000000
(1662146718.700479) can0 281#13227E040000
(1662146718.700687) can0 381#30030A000600
(1662146718.703726) can0 003#00
(1662146718.703963) can0 6D0#5AFFF7047B0000A7
(1662146718.707677) can0 201#0F003700400D0300
(1662146718.707852) can0 080#00
(1662146718.708089) can0 181#270025000000
(1662146718.708291) can0 281#13227E040000
(1662146718.708494) can0 381#2F0309000600
(1662146718.711797) can0 6D0#5BFFF7047B0000A8
(1662146718.715490) can0 201#0F003600400D0300
(1662146718.715665) can0 080#00
(1662146718.715896) can0 181#270029000000
(1662146718.716093) can0 281#13227E040000
(1662146718.716297) can0 381#300309000600
(1662146718.717565) can0 080#062100AB
(1662146718.717845) can0 1838F380#0003210321210303
(1662146718.718130) can0 1839F380#00212121040303AE
(1662146718.719839) can0 001#0009047B000022D8
(1662146718.723301) can0 201#0F003700400D0300
(1662146718.723479) can0 080#00
(1662146718.723703) can0 181#270027000000
(1662146718.723907) can0 281#13227E040000
(1662146718.724112) can0 381#300309000600
(1662146718.727653) can0 003#00
(1662146718.727891) can0 6D0#5CFFF7047B0000A9
(1662146718.731121) can0 201#0F003700400D0300
(1662146718.731289) can0 080#00
(1662146718.731515) can0 181#270029000000
(1662146718.731718) can0 281#13227E040000
(1662146718.731923) can0 381#30030A000600
(1662146718.738924) can0 201#0F003700400D0300
(1662146718.739098) can0 080#00
(1662146718.739324) can0 181#270027000000
(1662146718.739527) can0 281#13227E040000
(1662146718.739732) can0 381#300309000600
(1662146718.746733) can0 201#0F003700400D0300
(1662146718.746910) can0 080#00
(1662146718.747142) can0 181#270029000000
(1662146718.747346) can0 281#13227E040000
(1662146718.747550) can0 381#30030A000600
(1662146718.751652) can0 003#00
(1662146718.751890) can0 6D0#5DFFF6047B0000A9
(1662146718.754497) can0 201#0F003700400D0300
(1662146718.754672) can0 080#00
(1662146718.754922) can0 181#270029000000
(1662146718.755129) can0 281#13227E040000
(1662146718.755334) can0 381#300309000600
(1662146718.759845) can0 002#A03B9FFBBC000000
(1662146718.760083) can0 6D0#5EFFF6047B0000AA
(1662146718.762478) can0 201#0F003700400D0300
(1662146718.762651) can0 080#00
(1662146718.762875) can0 181#270029000000
(1662146718.763080) can0 281#13227E040000
(1662146718.763286) can0 381#30030C000700
(1662146718.767794) can0 6D0#5FFFF5047B0000AA
(1662146718.770237) can0 201#0F003700400D0300
(1662146718.770412) can0 080#00
(1662146718.770634) can0 181#270027000000
(1662146718.770842) can0 281#13227E040000
(1662146718.771041) can0 381#310309000600
(1662146718.775760) can0 001#000A047B000022D8
(1662146718.775880) can0 003#00
(1662146718.776121) can0 6D0#60FFF6047B0000AC
(1662146718.778169) can0 201#0F003700400D0300
(1662146718.778347) can0 080#00
(1662146718.778569) can0 181#270027000000
(1662146718.778773) can0 281#13227E040000
(1662146718.778975) can0 381#310309000600
(1662146718.783860) can0 6D0#61FFF6047B0000AD
(1662146718.785847) can0 201#0F003700400D0300
(1662146718.786026) can0 080#00
(1662146718.786251) can0 181#270029000000
(1662146718.786455) can0 281#13227E040000
(1662146718.786692) can0 036#00A00D00BEA01F68
(1662146718.786894) can0 381#310309000600
(1662146718.791799) can0 6D0#62FFF5047B0000AD
(1662146718.793664) can0 201#0F003700400D0300
(1662146718.793837) can0 080#00
(1662146718.794067) can0 181#270027000000
(1662146718.794270) can0 281#13227E040000
(1662146718.794474) can0 381#31030A000600
(1662146718.799730) can0 003#00
(1662146718.801483) can0 201#0F003700400D0300
(1662146718.801657) can0 080#00
(1662146718.801884) can0 181#270027000000
(1662146718.802085) can0 281#13227E040000
(1662146718.802287) can0 381#310309000600
(1662146718.807794) can0 6D0#63FFF6047B0000AF
(1662146718.809300) can0 201#0F003700400D0300
(1662146718.809475) can0 080#00
(1662146718.809727) can0 181#270027000000
(1662146718.809933) can0 281#13227E040000
(1662146718.810136) can0 381#310309000600
(1662146718.817021) can0 201#0F003700400D0300
(1662146718.817205) can0 080#00
(1662146718.817437) can0 181#270027000000
(1662146718.817632) can0 281#13227E040000
(1662146718.817834) can0 381#310309000600
(1662146718.818118) can0 1839F380#00212121040303AE
(1662146718.818398) can0 1838F380#0006210621210303
(1662146718.818562) can0 080#052100AA
(1662146718.820191) can0 18EEFF80#F30080F300401E90
(1662146718.823657) can0 003#00
(1662146718.824921) can0 201#0F003700400D0300
(1662146718.825101) can0 080#00
(1662146718.825354) can0 181#270027000000
(1662146718.825566) can0 281#13227E040000
(1662146718.825760) can0 381#31030A000600
(1662146718.831829) can0 001#000A047B000022D8
(1662146718.832069) can0 6D0#64FFF6047B0000B0
(1662146718.832847) can0 201#0F003700400D0300
(1662146718.833032) can0 080#00
(1662146718.833284) can0 181#270025000000
(1662146718.833488) can0 281#13227E040000
(1662146718.833690) can0 381#31030A000400
(1662146718.839793) can0 6D0#65FFF6047B0000B1
(1662146718.840576) can0 201#0F003700400D0300
(1662146718.840755) can0 080#00
(1662146718.840982) can0 181#270025000000
(1662146718.841185) can0 281#13227E040000
(1662146718.841387) can0 381#310309000600
(1662146718.847717) can0 003#00
(1662146718.848356) can0 201#0F003700400D0300
(1662146718.848530) can0 080#00
(1662146718.848782) can0 181#270025000000
(1662146718.848985) can0 281#13227E040000
(1662146718.849190) can0 381#30030A000600
(1662146718.855792) can0 6D0#66FFF7047B0000B3
(1662146718.856167) can0 201#0F003700400D0300
(1662146718.856344) can0 080#00
(1662146718.856595) can0 181#270025000000
(1662146718.856802) can0 281#13227E040000
(1662146718.857005) can0 381#2F030A000600
(1662146718.863766) can0 002#A03B9FFCBC000000
(1662146718.864008) can0 201#0F003600400D0300
(1662146718.864248) can0 6D0#67FFF7047BFFFFB2
(1662146718.864361) can0 080#00
(1662146718.864570) can0 181#270025000000
(1662146718.864775) can0 281#13227E040000
(1662146718.864979) can0 381#30030A000600
(1662146718.871716) can0 201#0F003700400D0300
(1662146718.871830) can0 003#00
(1662146718.871943) can0 080#00
(1662146718.872220) can0 181#270027000000
(1662146718.872423) can0 281#13227E040000
(1662146718.872625) can0 381#2F0309000600
(1662146718.879519) can0 201#0F003600400D0300
(1662146718.879796) can0 6D0#6EFFF7047B0040FB
(1662146718.879909) can0 080#00
(1662146718.880117) can0 181#270027000000
(1662146718.880323) can0 281#13227E040000
(1662146718.880526) can0 381#30030A000600
(1662146718.886576) can0 036#01A00D00BEA01F69
(1662146718.887405) can0 201#0F003700400D0300
(1662146718.887583) can0 080#00
(1662146718.887824) can0 001#000A047B000022D8
(1662146718.888030) can0 181#270027000000
(1662146718.888235) can0 281#13227E040000
(1662146718.888439) can0 381#30030A000600
(1662146718.888675) can0 6D0#73FFF6047B0801C8
(1662146718.895198) can0 201#0F003700400D0300
(1662146718.895341) can0 080#00
(1662146718.895595) can0 181#270029000000
(1662146718.895712) can0 003#00
(1662146718.895918) can0 281#13227E040000
(1662146718.896122) can0 381#30030A000600
(1662146718.902973) can0 201#0F003700400D0300
(1662146718.903145) can0 080#00
(1662146718.903399) can0 181#270029000000
(1662146718.903603) can0 281#13227E040000
(1662146718.903805) can0 381#2F030A000600
(1662146718.904038) can0 6D0#74FFF6047B0800C8
(1662146718.910776) can0 201#0F003600400D0300
(1662146718.910948) can0 080#00
(1662146718.911174) can0 181#270027000000
(1662146718.911377) can0 281#13227E040000
(1662146718.911584) can0 381#300309000600
(1662146718.911819) can0 6D0#75FFF6047B0000C1
(1662146718.917556) can0 080#062100AB
(1662146718.917838) can0 1838F380#000B210B21210303
(1662146718.918120) can0 1839F380#00212121040303AE
(1662146718.918946) can0 201#0F003700400D0300
(1662146718.919124) can0 080#00
(1662146718.919351) can0 181#270027000000
(1662146718.919553) can0 281#13227E040000
(1662146718.919757) can0 381#31030A000600
(1662146718.919874) can0 003#00
(1662146718.920119) can0 6D0#76FFF5047B0000C1
(1662146718.926391) can0 201#0F003700400D0300
(1662146718.926565) can0 080#00
(1662146718.926788) can0 181#270027000000
(1662146718.926992) can0 281#13227E040000
(1662146718.927193) can0 381#310309000600
(1662146718.927795) can0 6D0#77FFF6047B0000C3
(1662146718.934200) can0 201#0F003700400D0300
(1662146718.934403) can0 080#00
(1662146718.934597) can0 181#270029000000
(1662146718.934802) can0 281#13227E040000
(1662146718.935005) can0 381#31030A000600
(1662146718.935865) can0 6D0#78FFF6047B0000C4
(1662146718.942008) can0 201#0F003700400D0300
(1662146718.942190) can0 080#00
(1662146718.942422) can0 181#27002B000000
(1662146718.942619) can0 281#13227E040000
(1662146718.942822) can0 381#31030A000600
(1662146718.943752) can0 001#000B047B000022D8
(1662146718.943873) can0 003#00
(1662146718.944113) can0 6D0#79FFF5047B0000C4
(1662146718.949825) can0 201#0F003700400D0300
(1662146718.950003) can0 080#00
(1662146718.950231) can0 181#270029000000
(1662146718.950431) can0 281#13227E040000
(1662146718.950633) can0 381#310309000600
(1662146718.951856) can0 6D0#7AFFF6047B0000C6
(1662146718.957638) can0 201#0F003700400D0300
(1662146718.957814) can0 080#00
(1662146718.958048) can0 181#270029000000
(1662146718.958246) can0 281#13227E040000
(1662146718.958448) can0 381#310309000600
(1662146718.959787) can0 6D0#7BFFF6047B0003CA
(1662146718.965435) can0 201#0F003700400D0300
(1662146718.965580) can0 080#00
(1662146718.965833) can0 181#270029000000
(1662146718.966039) can0 281#13227E040000
(1662146718.966237) can0 381#310309000700
(1662146718.967768) can0 002#A03B9FFCBC000000
(1662146718.967887) can0 003#00
(1662146718.973257) can0 201#0F003700400D0300
(1662146718.973432) can0 080#00
(1662146718.973663) can0 181#270029000000
(1662146718.973861) can0 281#13227E040000
(1662146718.974063) can0 381#31030A000600
(1662146718.981082) can0 201#0F003700400D0300
(1662146718.981254) can0 080#00
(1662146718.981509) can0 181#270027000000
(1662146718.981711) can0 281#13227E040000
(1662146718.981915) can0 381#31030A000600
(1662146718.986578) can0 036#02A00C00BEA0206A
(1662146718.988990) can0 201#0F003700400D0300
(1662146718.989172) can0 080#00
(1662146718.989396) can0 181#270027000000
(1662146718.989601) can0 281#13227E040000
(1662146718.989803) can0 381#31030C000600
(1662146718.991641) can0 003#00
(1662146718.991877) can0 6D0#7CFFF6047B0006CE
(1662146718.996695) can0 201#0F003700400D0300
(1662146718.996866) can0 080#00
(1662146718.997098) can0 181#270025000000
(1662146718.997301) can0 281#13227E040000
(1662146718.997506) can0 381#300309000600
(1662146718.999825) can0 001#000A047B000022D8
(1662146719.004498) can0 201#0F003700400D0300
(1662146719.004678) can0 080#00
(1662146719.004911) can0 181#270025000000
(1662146719.005106) can0 281#13227E040000
(1662146719.005310) can0 381#300309000600
(1662146719.007785) can0 6D0#7DFFF7047B0030FA
(1662146719.012308) can0 201#0F003700400D0300
(1662146719.012486) can0 080#00
(1662146719.012719) can0 181#270027000000
(1662146719.012915) can0 281#13227E040000
(1662146719.013120) can0 381#30030A000600
(1662146719.015644) can0 003#00
(1662146719.015880) can0 6D0#7EFFF7047B0000CB
(1662146719.017553) can0 080#052100AA
(1662146719.017834) can0 1838F380#0000210021210303
(1662146719.018118) can0 1839F380#00212121040303AE
(1662146719.019809) can0 18EEFF80#F30080F300401E90
(1662146719.020484) can0 201#0F003700400D0300
(1662146719.020662) can0 080#00
(1662146719.020892) can0 181#270027000000
(1662146719.021089) can0 281#13227E040000
(1662146719.021293) can0 381#30030A000600
(1662146719.023858) can0 6D0#7FFFF7047B02EEBC
(1662146719.027926) can0 201#0F003700400D0300
(1662146719.028106) can0 080#00
(1662146719.028335) can0 181#270027000000
(1662146719.028535) can0 281#13227E040000
(1662146719.028739) can0 381#300309000600
(1662146719.031781) can0 6D0#80FFF7047B0000CD
(1662146719.035739) can0 201#0F003700400D0300
(1662146719.035912) can0 080#00
(1662146719.036141) can0 181#270027000000
(1662146719.036346) can0 281#13227E040000
(1662146719.036550) can0 381#300309000600
(1662146719.039641) can0 003#00
(1662146719.043552) can0 201#0F003700400D0300
(1662146719.043721) can0 080#00
(1662146719.043946) can0 181#270029000000
(1662146719.044148) can0 281#13227E040000
(1662146719.044352) can0 381#310309000600
(1662146719.051370) can0 201#0F003700400D0300
(1662146719.051543) can0 080#00
(1662146719.051765) can0 181#270029000000
(1662146719.051970) can0 281#13227E040000
(1662146719.052174) can0 381#30030A000600
(1662146719.055822) can0 001#000A047B000022D8
(1662146719.056064) can0 6D0#00FFF6047B010350
(1662146719.059173) can0 201#0F003700400D0300
(1662146719.059343) can0 080#00
(1662146719.059570) can0 181#270029000000
(1662146719.059772) can0 281#13227E040000
(1662146719.059977) can0 381#300309000600
(1662146719.063640) can0 003#00
(1662146719.063879) can0 6D0#01FFF5047B060355
(1662146719.066941) can0 201#0F003700400D0300
(1662146719.067120) can0 080#00
(1662146719.067373) can0 181#27002B000000
(1662146719.067577) can0 281#13227E040000
(1662146719.067782) can0 381#300309000600
(1662146719.071823) can0 002#A03B9FFCBC000000
(1662146719.074752) can0 201#0F003700400D0300
(1662146719.074930) can0 080#00
(1662146719.075182) can0 181#27002B000000
(1662146719.075386) can0 281#13227E040000
(1662146719.075589) can0 381#310309000600
(1662146719.079779) can0 6D0#02FFF5047B057ACC
(1662146719.082567) can0 201#0F003700400D0300
(1662146719.082739) can0 080#00
(1662146719.082988) can0 181#270029000000
(1662146719.083194) can0 281#13227E040000
(1662146719.083399) can0 381#300309000600
(1662146719.086575) can0 036#039FFC00BEA00E48
(1662146719.087707) can0 003#00
(1662146719.087941) can0 6D0#03FFF5047B240375
(1662146719.090485) can0 201#0F003700400D0300
(1662146719.090661) can0 080#00
(1662146719.090884) can0 181#27002D000000
(1662146719.091087) can0 281#13227E040000
(1662146719.091290) can0 381#31030A000600
(1662146719.095776) can0 6D0#04FFF5047B0063B2
(1662146719.098301) can0 201#0F003700400D0300
(1662146719.098478) can0 080#00
(1662146719.098708) can0 181#27002B000000
(1662146719.098905) can0 281#13227E040000
(1662146719.099107) can0 381#31030A000600
(1662146719.103859) can0 6D0#05FFF5047B000050
(1662146719.106111) can0 201#0F003700400D0300
(1662146719.106289) can0 080#00
(1662146719.106524) can0 181#270027000000
(1662146719.106718) can0 281#13227E040000
(1662146719.106920) can0 381#310309000600
(1662146719.111744) can0 001#000A047B000022D8
(1662146719.111865) can0 003#00
(1662146719.112104) can0 6D0#06FFF6047B003082
(1662146719.114089) can0 201#0F003700400D0300
(1662146719.114266) can0 080#00
(1662146719.114488) can0 181#270029000000
(1662146719.114692) can0 281#14227E040000
(1662146719.114893) can0 381#31030A000700
(1662146719.117554) can0 080#062100AB
(1662146719.117837) can0 1838F380#0003210321210303
(1662146719.118120) can0 1839F380#00212121040303AE
(1662146719.121657) can0 201#0F003700400D0300
(1662146719.121835) can0 080#00
(1662146719.122070) can0 181#270029000000
(1662146719.122269) can0 281#13227E040000
(1662146719.122473) can0 381#300309000600
(1662146719.129480) can0 201#0F003700400D0300
(1662146719.129656) can0 080#00
(1662146719.129880) can0 181#270029000000
(1662146719.130085) can0 281#13227E040000
(1662146719.130290) can0 381#300309000600
(1662146719.135704) can0 003#00
(1662146719.135942) can0 6D0#07FFF6047B001C6F
(1662146719.137460) can0 201#0F003700400D0300
(1662146719.137607) can0 080#00
(1662146719.137861) can0 181#27002B000000
(1662146719.138064) can0 281#13227E040000
(1662146719.138266) can0 381#330309000600
(1662146719.143776) can0 6D0#08FFF6047B0089DD
(1662146719.145213) can0 201#0F003800400D0300
(1662146719.145391) can0 080#00
(1662146719.145616) can0 181#270029000000
(1662146719.145820) can0 281#13227E040000
(1662146719.146022) can0 381#340309000600
(1662146719.152906) can0 201#0F003800400D0300
(1662146719.153090) can0 080#00
(1662146719.153323) can0 181#270029000000
(1662146719.153519) can0 281#13227E040000
(1662146719.153720) can0 381#340309000600
(1662146719.159635) can0 003#00
(1662146719.159871) can0 6D0#09FFF6047B000055
(1662146719.160863) can0 201#0F003800400D0300
(1662146719.161075) can0 080#00
(1662146719.161305) can0 181#27002B000000
(1662146719.161501) can0 281#13227E040000
(1662146719.161704) can0 381#360309000600
(1662146719.167811) can0 001#000A047B000022D8
(1662146719.168606) can0 201#0F003900400D0300
(1662146719.168782) can0 080#00
(1662146719.169041) can0 181#27002D000000
(1662146719.169245) can0 281#13227E040000
(1662146719.169445) can0 381#370309000600
(1662146719.175751) can0 002#A03A9FFABC000000
(1662146719.175989) can0 6D0#0AFFF6047B002A80
(1662146719.176478) can0 201#0F003900400D0300
(1662146719.176647) can0 080#00
(1662146719.176873) can0 181#270029000000
(1662146719.177079) can0 281#13227E040000
(1662146719.177277) can0 381#36030A000600
(1662146719.183702) can0 003#00
(1662146719.183945) can0 6D0#0BFFF6047B02BC15
(1662146719.184325) can0 201#0F003900400D0300
(1662146719.184507) can0 080#00
(1662146719.184731) can0 181#270029000000
(1662146719.184935) can0 281#16227E040000
(1662146719.185136) can0 381#370309000600
(1662146719.186565) can0 036#04A03100BEA043B4
(1662146719.191774) can0 6D0#0CFFF6047B000A62
(1662146719.192013) can0 201#0F003900400D0300
(1662146719.192143) can0 080#00
(1662146719.192363) can0 181#270029000000
(1662146719.192567) can0 281#13227E040000
(1662146719.192773) can0 381#390309000600
(1662146719.199731) can0 201#0F003A00400D0300
(1662146719.199911) can0 080#00
(1662146719.200161) can0 181#270027000000
(1662146719.200365) can0 281#13227E040000
(1662146719.200569) can0 381#390309000600
(1662146719.207571) can0 201#0F003A00400D0300
(1662146719.207692) can0 003#00
(1662146719.207808) can0 080#00
(1662146719.208045) can0 181#270029000000
(1662146719.208247) can0 281#13227E040000
(1662146719.208450) can0 381#39030A000600
(1662146719.215350) can0 201#0F003A00400D0300
(1662146719.215526) can0 080#00
(1662146719.215776) can0 181#270029000000
(1662146719.215983) can0 281#11227E040000
(1662146719.216187) can0 381#3B0309000600
(1662146719.216420) can0 6D0#0DFFF5047B047BD7
(1662146719.217545) can0 080#052100AA
(1662146719.217824) can0 1838F380#0006210621210303
(1662146719.218108) can0 1839F380#00212121040303AE
(1662146719.219810) can0 18EEFF80#F30080F300401E90
(1662146719.223197) can0 201#0F003B00400D0300
(1662146719.223341) can0 080#00
(1662146719.223594) can0 181#270029000000
(1662146719.223836) can0 001#000B047B000022D8
(1662146719.224040) can0 281#13227E040000
(1662146719.224243) can0 381#3B0309000600
(1662146719.224481) can0 6D0#0EFFF5047B047BD8
(1662146719.231022) can0 201#0F003B00400D0300
(1662146719.231204) can0 080#00
(1662146719.231426) can0 181#27002B000000
(1662146719.231630) can0 281#13227E040000
(1662146719.231749) can0 003#00
(1662146719.231954) can0 381#3C0309000600
(1662146719.238849) can0 201#0F003C00400D0300
(1662146719.239026) can0 080#00
(1662146719.239277) can0 181#270027000000
(1662146719.239481) can0 281#13227E040000
(1662146719.239683) can0 381#3E030A000600
(1662146719.239921) can0 6D0#0FFFF5047B008FE9
(1662146719.246649) can0 201#0F003C00400D0300
(1662146719.246821) can0 080#00
(1662146719.247082) can0 181#270029000000
(1662146719.247285) can0 281#13227E040000
(1662146719.247488) can0 381#3E0309000600
(1662146719.254459) can0 201#0F003C00400D0300
(1662146719.254587) can0 080#00
(1662146719.254838) can0 181#270027000000
(1662146719.255047) can0 281#13227E040000
(1662146719.255248) can0 381#3F0309000600
(1662146719.255639) can0 003#00
(1662146719.255876) can0 6D0#10FFF5047B021875
(1662146719.262279) can0 201#0F003D00400D0300
(1662146719.262452) can0 080#00
(1662146719.262703) can0 181#270029000000
(1662146719.262909) can0 281#13227E040000
(1662146719.263112) can0 381#3F0309000600
(1662146719.263769) can0 6D0#11FFF5047B003591
(1662146719.270135) can0 201#0F003D00400D0300
(1662146719.270309) can0 080#00
(1662146719.270542) can0 181#270027000000
(1662146719.270738) can0 281#13227E040000
(1662146719.270940) can0 381#3F0309000600
(1662146719.277894) can0 201#0F003D00400D0300
(1662146719.278074) can0 080#00
(1662146719.278299) can0 181#270025000000
(1662146719.278503) can0 281#13227E040000
(1662146719.278705) can0 381#3F030A000600
(1662146719.279808) can0 001#000B047B000022D8
(1662146719.279925) can0 003#00
(1662146719.280170) can0 002#A0399FFBBC000000
(1662146719.285725) can0 201#0F003D00400D0300
(1662146719.285891) can0 080#00
(1662146719.286151) can0 181#270029000000
(1662146719.286355) can0 281#13227E040000
(1662146719.286591) can0 036#05A03900BEA04FC9
(1662146719.286798) can0 381#3F030D000600
(1662146719.287768) can0 6D0#12FFF5047B0046A3
(1662146719.293559) can0 201#0F003D00400D0300
(1662146719.293704) can0 080#00
(1662146719.293960) can0 181#270027000000
(1662146719.294163) can0 281#13227E040000
(1662146719.294366) can0 381#3E0309000600
(1662146719.294722) can0 200#05009B009B000000
(1662146719.295846) can0 6D0#13FFF6047B0064C3
(1662146719.301331) can0 201#0F003C00400D0300
(1662146719.301499) can0 080#00
(1662146719.301725) can0 181#27002B000000
(1662146719.301928) can0 281#13227E040000
(1662146719.302130) can0 381#3E0309000600
(1662146719.303637) can0 003#00
(1662146719.303879) can0 6D0#14FFF5047B2CD05B
(1662146719.309144) can0 201#0F003C00400D0300
(1662146719.309314) can0 080#00
(1662146719.309538) can0 181#27002D000000
(1662146719.309741) can0 281#13227E040000
(1662146719.309943) can0 381#3F0309000600
(1662146719.311850) can0 6D0#15FFF5047B7FF4D3
(1662146719.316944) can0 201#0F003D00400D0300
(1662146719.317123) can0 080#00
(1662146719.317346) can0 181#270029000000
(1662146719.317549) can0 281#13227E040000
(1662146719.317752) can0 381#3F030A000600
(1662146719.318035) can0 1839F380#00212121040303AE
(1662146719.318315) can0 1838F380#000B210B21210303
(1662146719.318480) can0 080#062100AB
(1662146719.319770) can0 6D0#16FFF5047B0498FD
(1662146719.324751) can0 201#0F003D00400D0300
(1662146719.324928) can0 080#00
(1662146719.325154) can0 181#27002B000000
(1662146719.325357) can0 281#13227E040000
(1662146719.325559) can0 381#3E030A000600
(1662146719.327695) can0 003#00
(1662146719.332570) can0 201#0F003C00400D0300
(1662146719.332740) can0 080#00
(1662146719.332961) can0 181#27002B000000
(1662146719.333168) can0 281#13227E040000
(1662146719.333370) can0 381#3F0309000600
(1662146719.335735) can0 001#000B047B000022D8
(1662146719.335974) can0 6D0#17FFF5047B02BC20
(1662146719.340368) can0 201#0F003D00400D0300
(1662146719.340543) can0 080#00
(1662146719.340766) can0 181#270027000000
(1662146719.340971) can0 281#13227E040000
(1662146719.341173) can0 381#3F0309000600
(1662146719.348182) can0 201#0F003D00400D0300
(1662146719.348358) can0 080#00
(1662146719.348579) can0 181#270027000000
(1662146719.348783) can0 281#13227E040000
(1662146719.348986) can0 381#470309000600
(1662146719.351628) can0 003#00
(1662146719.355957) can0 201#0F004000400D0300
(1662146719.356133) can0 080#00
(1662146719.356384) can0 181#270027000000
(1662146719.356590) can0 281#11227E040000
(1662146719.356792) can0 381#520309000600
(1662146719.359848) can0 6D0#18FFF5047B000B6E
(1662146719.363792) can0 201#0F004500400D0300
(1662146719.363975) can0 080#00
(1662146719.364199) can0 181#270025000000
(1662146719.364428) can0 281#13227E040000
(1662146719.364606) can0 381#5F0309000600
(1662146719.367763) can0 6D0#19FFF5047B04026A
(1662146719.371569) can0 201#0F004A00400D0300
(1662146719.371744) can0 080#00
(1662146719.371969) can0 181#270029000000
(1662146719.372170) can0 281#13227E040000
(1662146719.372372) can0 381#680309000600
(1662146719.375624) can0 003#00
(1662146719.375860) can0 6D0#1AFFF4047B003195
(1662146719.379419) can0 201#0F004E00400D0300
(1662146719.379565) can0 080#00
(1662146719.379819) can0 181#27002B000000
(1662146719.380022) can0 281#13227E040000
(1662146719.380224) can0 381#720309000600
(1662146719.383813) can0 002#A0399FFABC000000
(1662146719.384049) can0 6D0#1BFFF2047B01EE52
(1662146719.386563) can0 036#06A00300BEA0185D
(1662146719.387317) can0 201#0F005200400D0300
(1662146719.387493) can0 080#00
(1662146719.387745) can0 181#27002D000000
(1662146719.387949) can0 281#13227E040000
(1662146719.388154) can0 381#7B0309000600
(1662146719.391731) can0 001#000E047B000022D8
(1662146719.391965) can0 6D0#1CFFF2047B03B61D
(1662146719.395050) can0 201#0F005600400D0300
(1662146719.395227) can0 080#00
(1662146719.395451) can0 181#270029000000
(1662146719.395654) can0 281#13227E040000
(1662146719.395855) can0 381#84030A000600
(1662146719.399703) can0 003#00
(1662146719.402859) can0 201#0F005A00400D0300
(1662146719.403038) can0 080#00
(1662146719.403261) can0 181#270029000000
(1662146719.403468) can0 281#13227E040000
(1662146719.403669) can0 381#8D030C000700
(1662146719.407761) can0 6D0#1DFFF1047B0078DC
(1662146719.410664) can0 201#0F005D00400D0300
(1662146719.410846) can0 080#00
(1662146719.411077) can0 181#270029000000
(1662146719.411283) can0 281#13227E040000
(1662146719.411484) can0 381#950309000600
(1662146719.415778) can0 6D0#1EFFF0047B000064
(1662146719.417589) can0 080#052100AA
(1662146719.417876) can0 1838F380#0000210021210303
(1662146719.418154) can0 18EEFF80#F30080F300401E90
(1662146719.418435) can0 1839F380#00212121040303AE
(1662146719.418922) can0 201#0F006100400D0300
(1662146719.419107) can0 080#00
(1662146719.419359) can0 181#270029000000
(1662146719.419563) can0 281#13227E040000
(1662146719.419768) can0 381#A00309000600
(1662146719.423633) can0 003#00
(1662146719.426298) can0 201#0F006500400D0300
(1662146719.426477) can0 080#00
(1662146719.426702) can0 181#27002B000000
(1662146719.426907) can0 281#13227E040000
(1662146719.427110) can0 381#A9030A000600
(1662146719.431833) can0 6D0#1FFFEE047B001477
(1662146719.434223) can0 201#0F006900400D0300
(1662146719.434401) can0 080#00
(1662146719.434627) can0 181#270027000000
(1662146719.434832) can0 281#13227E040000
(1662146719.435036) can0 381#B0030A000600
(1662146719.439779) can0 6D0#20FFEE047B00086C
(1662146719.441998) can0 201#0F006C00400D0300
(1662146719.442177) can0 080#00
(1662146719.442436) can0 181#270029000000
(1662146719.442635) can0 281#13227E040000
(1662146719.442840) can0 381#B6030A000600
(1662146719.447797) can0 001#0013047B000022D8
(1662146719.447916) can0 003#00
(1662146719.448156) can0 6D0#21FFED047B000064
(1662146719.449962) can0 201#0F006E00400D0300
(1662146719.450145) can0 080#00
(1662146719.450370) can0 181#27002B000000
(1662146719.450576) can0 281#13227E040000
(1662146719.450773) can0 381#B80309000600
(1662146719.455772) can0 6D0#22FFEB047B000063
(1662146719.457613) can0 201#0F006F00400D0300
(1662146719.457794) can0 080#00
(1662146719.458054) can0 181#27002E000000
(1662146719.458259) can0 281#13227E040000
(1662146719.458458) can0 381#B80309000600
(1662146719.463836) can0 6D0#23FFEB047B047BE3
(1662146719.465421) can0 201#0F006F00400D0300
(1662146719.465602) can0 080#00
(1662146719.465856) can0 181#27002D000000
(1662146719.466061) can0 281#13227E040000
(1662146719.466261) can0 381#B60309000600
(1662146719.471623) can0 003#00
(1662146719.473241) can0 201#0F006E00400D0300
(1662146719.473418) can0 080#00
(1662146719.473672) can0 181#27002E000000
(1662146719.473877) can0 281#13227E040000
(1662146719.474079) can0 381#B6030A000600
(1662146719.479759) can0 6D0#24FFE9047B0085E8
(1662146719.481052) can0 201#0F006E00400D0300
(1662146719.481231) can0 080#00
(1662146719.481483) can0 181#27002D000000
(1662146719.481688) can0 281#13227E040000
(1662146719.481887) can0 381#B60309000600
(1662146719.486562) can0 036#07A00000BEA01A5D
(1662146719.487750) can0 002#A0349FF5BC000000
(1662146719.488922) can0 201#0F006E00400D0300
(1662146719.489096) can0 080#00
(1662146719.489353) can0 181#27002D000000
(1662146719.489552) can0 281#13227E040000
(1662146719.489753) can0 381#B60309000700
(1662146719.495689) can0 003#00
(1662146719.496653) can0 201#0F006E00400D0300
(1662146719.496830) can0 080#00
(1662146719.497059) can0 181#27002B000000
(1662146719.497262) can0 281#13227E040000
(1662146719.497464) can0 381#B60309000600
(1662146719.503724) can0 001#0018047B000022D8
(1662146719.503960) can0 6D0#25FFE8047B00096C
(1662146719.504535) can0 201#0F006E00400D0300
(1662146719.504709) can0 080#00
(1662146719.504934) can0 181#27002B000000
(1662146719.505137) can0 281#13227E040000
(1662146719.505337) can0 381#B80309000600
(1662146719.512201) can0 201#0F006F00400D0300
(1662146719.512356) can0 080#00
(1662146719.512603) can0 181#270029000000
(1662146719.512806) can0 281#13227E040000
(1662146719.513007) can0 381#B80309000600
(1662146719.517551) can0 080#062100AB
(1662146719.517824) can0 1838F380#0003210321210303
(1662146719.518105) can0 1839F380#00212121040303AE
(1662146719.519616) can0 003#00
(1662146719.519851) can0 6D0#26FFE9047B534C04
(1662146719.520512) can0 201#0F006F00400D0300
(1662146719.520695) can0 080#00
(1662146719.520923) can0 181#27002B000000
(1662146719.521121) can0 281#13227E040000
(1662146719.521323) can0 381#B80309000700
(1662146719.527758) can0 6D0#27FFE9047B000A70
(1662146719.527995) can0 201#0F006F00400D0300
(1662146719.528112) can0 080#00
(1662146719.528319) can0 181#27002B000000
(1662146719.528521) can0 281#13227E040000
(1662146719.528721) can0 381#B80309000600
(1662146719.535608) can0 201#0F006F00400D0300
(1662146719.535842) can0 6D0#28FFEA047B00228A
(1662146719.535959) can0 080#00
(1662146719.536165) can0 181#27002B000000
(1662146719.536369) can0 281#13227E040000
(1662146719.536569) can0 381#B80309000600
(1662146719.543452) can0 201#0F006F00400D0300
(1662146719.543616) can0 003#00
(1662146719.543732) can0 080#00
(1662146719.543940) can0 181#27002D000000
(1662146719.544144) can0 281#13227E040000
(1662146719.544342) can0 381#B80309000600
(1662146719.544582) can0 6D0#29FFE9047B002088
(1662146719.551280) can0 201#0F006F00400D0300
(1662146719.551462) can0 080#00
(1662146719.551684) can0 181#27002D000000
(1662146719.551890) can0 281#13227E040000
(1662146719.552088) can0 381#B80309000600
(1662146719.559093) can0 201#0F006F00400D0300
(1662146719.559272) can0 080#00
(1662146719.559528) can0 181#27002D000000
(1662146719.559766) can0 001#0017047B000022D8
(1662146719.559970) can0 281#13227E040000
(1662146719.560171) can0 381#B80309000600
(1662146719.560408) can0 6D0#2AFFE9047B00218A
(1662146719.566910) can0 201#0F006F00400D0300
(1662146719.567123) can0 080#00
(1662146719.567353) can0 181#27002D000000
(1662146719.567551) can0 281#13227E040000
(1662146719.567672) can0 003#00
(1662146719.567875) can0 381#B60309000600
(1662146719.568114) can0 6D0#2BFFE9047B00006A
(1662146719.574722) can0 201#0F006E00400D0300
(1662146719.574937) can0 080#00
(1662146719.575159) can0 181#27002D000000
(1662146719.575364) can0 281#13227E040000
(1662146719.575562) can0 381#B60309000700
(1662146719.582520) can0 201#0F006E00400D0300
(1662146719.582698) can0 080#00
(1662146719.582921) can0 181#27002E000000
(1662146719.583126) can0 281#13227E040000
(1662146719.583327) can0 381#B60309000600
(1662146719.586557) can0 036#0C9FFE00BEA02368
(1662146719.590322) can0 201#0F006E00400D0300
(1662146719.590502) can0 080#00
(1662146719.590730) can0 181#270030000000
(1662146719.590932) can0 281#13227E040000
(1662146719.591134) can0 381#B60309000600
(1662146719.591730) can0 002#A0339FF3BD000000
(1662146719.591852) can0 003#00
(1662146719.592089) can0 6D0#2CFFE9047B00006B
(1662146719.598154) can0 201#0F006E00400D0300
(1662146719.598330) can0 080#00
(1662146719.598589) can0 181#270032000000
(1662146719.598789) can0 281#11227E040000
(1662146719.598991) can0 381#B60309000600
(1662146719.599828) can0 6D0#2DFFE9047B00218D
(1662146719.605962) can0 201#0F006E00400D0300
(1662146719.606145) can0 080#00
(1662146719.606397) can0 181#27002E000000
(1662146719.606601) can0 281#14227E040000
(1662146719.606806) can0 381#B6030A000600
(1662146719.607757) can0 6D0#2EFFE9047B00026F
(1662146719.613777) can0 201#0F006E00400D0300
(1662146719.613959) can0 080#00
(1662146719.614219) can0 181#270030000000
(1662146719.614418) can0 281#13227E040000
(1662146719.614622) can0 381#B60309000600
(1662146719.615796) can0 001#0017047B000022D8
(1662146719.615916) can0 003#00
(1662146719.616155) can0 6D0#2FFFE9047B000573
(1662146719.617583) can0 080#052100AA
(1662146719.617866) can0 1838F380#0006210621210303
(1662146719.618145) can0 18EEFF80#F30080F300401E90
(1662146719.618425) can0 1839F380#00212121040303AE
(1662146719.621529) can0 201#0F006E00400D0300
(1662146719.621706) can0 080#00
(1662146719.621958) can0 181#27002E000000
(1662146719.622162) can0 281#11227E040000
(1662146719.622363) can0 381#B60309000600
(1662146719.623755) can0 6D0#30FFE7047B00016E
(1662146719.629344) can0 201#0F006E00400D0300
(1662146719.629512) can0 080#00
(1662146719.629769) can0 181#270030000000
(1662146719.629970) can0 281#11227E040000
(1662146719.630173) can0 381#B60309000600
(1662146719.637186) can0 201#0F006E00400D0300
(1662146719.637332) can0 080#00
(1662146719.637587) can0 181#27002E000000
(1662146719.637787) can0 281#13227E040000
(1662146719.637993) can0 381#B80309000600
(1662146719.639610) can0 003#00
(1662146719.639853) can0 6D0#31FFE7047B00006E
(1662146719.644951) can0 201#0F006F00400D0300
(1662146719.645131) can0 080#00
(1662146719.645354) can0 181#27002E000000
(1662146719.645560) can0 281#11227E040000
(1662146719.645757) can0 381#B80309000600
(1662146719.652808) can0 201#0F006F00400D0300
(1662146719.652990) can0 080#00
(1662146719.653214) can0 181#270030000000
(1662146719.653419) can0 281#13227E040000
(1662146719.653619) can0 381#B80309000600
(1662146719.660614) can0 201#0F006F00400D0300
(1662146719.660764) can0 080#00
(1662146719.661024) can0 181#27002E000000
(1662146719.661228) can0 281#13227E040000
(1662146719.661430) can0 381#B80308000600
(1662146719.663678) can0 003#00
(1662146719.663916) can0 6D0#32FFE8047B9FF100
(1662146719.668428) can0 201#0F006F00400D0300
(1662146719.668609) can0 080#00
(1662146719.668830) can0 181#27002E000000
(1662146719.669038) can0 281#13227E040000
(1662146719.669234) can0 381#B80309000600
(1662146719.671724) can0 001#0018047B000022D8
(1662146719.671961) can0 6D0#33FFE8047BA03243
(1662146719.676310) can0 201#0F006F00400D0300
(1662146719.676492) can0 080#00
(1662146719.676718) can0 181#270030000000
(1662146719.676921) can0 281#13227E040000
(1662146719.677121) can0 381#B80309000600
(1662146719.679828) can0 6D0#34FFE9047BA00518
(1662146719.684071) can0 201#0F006F00400D0300
(1662146719.684251) can0 080#00
(1662146719.684513) can0 181#27002E000000
(1662146719.684714) can0 281#13227E040000
(1662146719.684916) can0 381#B60309000400
(1662146719.686552) can0 036#0D9FFF00BEA02D74
(1662146719.687615) can0 003#00
(1662146719.687851) can0 6D0#35FFE8047BA01F32
(1662146719.691876) can0 201#0F006E00400D0300
(1662146719.692063) can0 080#00
(1662146719.692317) can0 181#27002E000000
(1662146719.692524) can0 281#13227E040000
(1662146719.692726) can0 381#B60309000600
(1662146719.695797) can0 002#A0329FF1BD000000
(1662146719.696032) can0 6D0#36FFE9047BA05F74
(1662146719.699685) can0 201#0F006E00400D0300
(1662146719.699859) can0 080#00
(1662146719.700092) can0 181#27002D000000
(1662146719.700295) can0 281#13227E040000
(1662146719.700501) can0 381#B6030A000600
(1662146719.703750) can0 6D0#37FFE9047BA03248
(1662146719.707497) can0 201#0F006E00400D0300
(1662146719.707676) can0 080#00
(1662146719.707901) can0 181#270030000000
(1662146719.708106) can0 281#13227E040000
(1662146719.708307) can0 381#B60309000600
(1662146719.711686) can0 003#00
(1662146719.711921) can0 6D0#38FFE9047B00BE35
(1662146719.715311) can0 201#0F006E00400D0300
(1662146719.715481) can0 080#00
(1662146719.715706) can0 181#27002E000000
(1662146719.715911) can0 281#13227E040000
(1662146719.716111) can0 381#B60309000600
(1662146719.717535) can0 080#062100AB
(1662146719.717820) can0 1838F380#000B210B21210303
(1662146719.718100) can0 1839F380#00212121040303AE
(1662146719.719748) can0 6D0#39FFEA047B00BE37
(1662146719.723119) can0 201#0F006E00400D0300
(1662146719.723298) can0 080#00
(1662146719.723525) can0 181#270030000000
(1662146719.723729) can0 281#13227E040000
(1662146719.723930) can0 381#B60309000600
(1662146719.727714) can0 001#0016047B000022D8
(1662146719.730920) can0 201#0F006E00400D0300
(1662146719.731107) can0 080#00
(1662146719.731334) can0 181#27002E000000
(1662146719.731533) can0 281#13227E040000
(1662146719.731736) can0 381#B60309000600
(1662146719.735614) can0 003#00
(1662146719.738737) can0 201#0F006E00400D0300
(1662146719.738919) can0 080#00
(1662146719.739144) can0 181#27002D000000
(1662146719.739348) can0 281#13227E040000
(1662146719.739550) can0 381#B60309000600
(1662146719.743824) can0 6D0#3AFFE9047B00BE37
(1662146719.746505) can0 201#0F006E00400D0300
(1662146719.746680) can0 080#00
(1662146719.746933) can0 181#27002E000000
(1662146719.747138) can0 281#11227E040000
(1662146719.747338) can0 381#B60309000600
(1662146719.751749) can0 6D0#3BFFE7047BA4102C
(1662146719.754312) can0 201#0F006E00400D0300
(1662146719.754487) can0 080#00
(1662146719.754712) can0 181#270032000000
(1662146719.754918) can0 281#13227E040000
(1662146719.755120) can0 381#B6030A000600
(1662146719.759676) can0 003#00
(1662146719.762222) can0 201#0F006E00400D0300
(1662146719.762369) can0 080#00
(1662146719.762619) can0 181#27002E000000
(1662146719.762825) can0 281#13227E040000
(1662146719.763025) can0 381#B80309000600
(1662146719.767748) can0 6D0#3CFFE7047B61A882
(1662146719.770036) can0 201#0F006F00400D0300
(1662146719.770216) can0 080#00
(1662146719.770442) can0 181#270030000000
(1662146719.770645) can0 281#13227E040000
(1662146719.770845) can0 381#B80309000600
(1662146719.775755) can0 6D0#3DFFE7047B000680
(1662146719.777855) can0 201#0F006F00400D0300
(1662146719.778040) can0 080#00
(1662146719.778263) can0 181#270032000000
(1662146719.778469) can0 281#11227E040000
(1662146719.778670) can0 381#B80309000600
(1662146719.783785) can0 001#0019047B000022D8
(1662146719.783905) can0 003#00
(1662146719.784152) can0 6D0#3EFFE7047B00047F
(1662146719.785797) can0 201#0F006F00400D0300
(1662146719.785981) can0 080#00
(1662146719.786236) can0 181#270030000000
(1662146719.786438) can0 281#13227E040000
(1662146719.786676) can0 036#0EA00200BEA02F7B
(1662146719.786874) can0 381#B8030A000600
(1662146719.791753) can0 6D0#3FFFE8047B000683
(1662146719.793486) can0 201#0F006F00400D0300
(1662146719.793666) can0 080#00
(1662146719.793888) can0 181#27002E000000
(1662146719.794091) can0 281#13227E040000
(1662146719.794292) can0 381#B80309000600
(1662146719.799721) can0 002#A0309FF0BD000000
(1662146719.799958) can0 6D0#40FFE8047B000482
(1662146719.801398) can0 201#0F006F00400D0300
(1662146719.801548) can0 080#00
(1662146719.801802) can0 181#270030000000
(1662146719.802007) can0 281#13227E040000
(1662146719.802206) can0 381#B80309000600
(1662146719.807680) can0 003#00
(1662146719.807915) can0 6D0#41FFE9047B002AAA
(1662146719.809218) can0 201#0F006F00400D0300
(1662146719.809399) can0 080#00
(1662146719.809623) can0 181#27002E000000
(1662146719.809828) can0 281#13227E040000
(1662146719.810033) can0 381#B60309000400
(1662146719.815743) can0 6D0#42FFE8047B000282
(1662146719.816923) can0 201#0F006E00400D0300
(1662146719.817108) can0 080#00
(1662146719.817370) can0 181#270032000000
(1662146719.817569) can0 281#13227E040000
(1662146719.817769) can0 381#B60309000600
(1662146719.818049) can0 1839F380#00212121040303AE
(1662146719.818339) can0 1838F380#0000210021210303
(1662146719.818502) can0 080#052100AA
(1662146719.820135) can0 18EEFF80#F30080F300401E90
(1662146719.824660) can0 201#0F006E00400D0300
(1662146719.824836) can0 080#00
(1662146719.825068) can0 181#270030000000
(1662146719.825272) can0 281#13227E040000
(1662146719.825478) can0 381#B60309000600
(1662146719.831604) can0 003#00
(1662146719.831840) can0 6D0#43FFE9047B01FA7D
(1662146719.832654) can0 201#0F006E00400D0300
(1662146719.832834) can0 080#00
(1662146719.833064) can0 181#270030000000
(1662146719.833270) can0 281#13227E040000
(1662146719.833471) can0 381#B6030A000600
(1662146719.839778) can0 001#0017047B000022D8
(1662146719.840348) can0 201#0F006E00400D0300
(1662146719.840525) can0 080#00
(1662146719.840751) can0 181#270032000000
(1662146719.840966) can0 281#13227E040000
(1662146719.841155) can0 381#B60309000600
(1662146719.847741) can0 6D0#44FFE9047B0233B8
(1662146719.848160) can0 201#0F006E00400D0300
(1662146719.848340) can0 080#00
(1662146719.848565) can0 181#270032000000
(1662146719.848769) can0 281#11227E040000
(1662146719.848976) can0 381#B6030A000600
(1662146719.855674) can0 003#00
(1662146719.855913) can0 201#0F006E00400D0300
(1662146719.856145) can0 6D0#45FFE8047B00B336
(1662146719.856260) can0 080#00
(1662146719.856479) can0 181#270032000000
(1662146719.856683) can0 281#13227E040000
(1662146719.856885) can0 381#B6030C000600
(1662146719.863707) can0 201#0F006E00400D0300
(1662146719.863941) can0 6D0#46FFE8047B0078FC
(1662146719.864056) can0 080#00
(1662146719.864264) can0 181#270032000000
(1662146719.864468) can0 281#13227E040000
(1662146719.864668) can0 381#B60309000700
(1662146719.871514) can0 201#0F006E00400D0300
(1662146719.871661) can0 080#00
(1662146719.871898) can0 6D0#47FFE7047B07AD38
(1662146719.872102) can0 181#270034000000
(1662146719.872307) can0 281#13227E040000
(1662146719.872510) can0 381#B6030A000600
(1662146719.879294) can0 201#0F006E00400D0300
(1662146719.879468) can0 080#00
(1662146719.879601) can0 003#00
(1662146719.879807) can0 181#270034000000
(1662146719.880012) can0 281#13227E040000
(1662146719.880213) can0 381#B60309000600
(1662146719.880451) can0 6D0#48FFE5047B07FA84
(1662146719.886563) can0 036#0FA00100BEA0307C
(1662146719.887222) can0 201#0F006E00400D0300
(1662146719.887394) can0 080#00
(1662146719.887616) can0 181#270036000000
(1662146719.887820) can0 281#13227E040000
(1662146719.888019) can0 381#B80309000600
(1662146719.894945) can0 201#0F006F00400D0300
(1662146719.895130) can0 080#00
(1662146719.895355) can0 181#270036000000
(1662146719.895558) can0 281#13227E040000
(1662146719.895800) can0 001#001A047A000022D8
(1662146719.896001) can0 381#B80309000600
(1662146719.896238) can0 6D0#49FFE6047A000084
(1662146719.902778) can0 201#0F006F00400D0300
(1662146719.902961) can0 080#00
(1662146719.903219) can0 181#270034000000
(1662146719.903417) can0 281#13227E040000
(1662146719.903618) can0 381#B80309000600
(1662146719.903737) can0 003#00
(1662146719.903977) can0 002#A0319FF0BD000000
(1662146719.910584) can0 201#0F006F00400D0300
(1662146719.910763) can0 080#00
(1662146719.910995) can0 181#270034000000
(1662146719.911197) can0 281#13227E040000
(1662146719.911397) can0 381#B80309000600
(1662146719.911743) can0 6D0#4AFFE7047A0833C1
(1662146719.917533) can0 080#062100AB
(1662146719.917816) can0 1838F380#0003210321210303
(1662146719.918095) can0 1839F380#00212121040303AE
(1662146719.918761) can0 201#0F006F00400D0300
(1662146719.918947) can0 080#00
(1662146719.919170) can0 181#270034000000
(1662146719.919372) can0 281#13227E040000
(1662146719.919574) can0 381#B80309000600
(1662146719.919820) can0 6D0#4BFFE7047A0F6F05
(1662146719.926255) can0 201#0F006F00400D0300
(1662146719.926436) can0 080#00
(1662146719.926661) can0 181#270032000000
(1662146719.926864) can0 281#13227E040000
(1662146719.927066) can0 381#B80309000400
(1662146719.927670) can0 003#00
(1662146719.927905) can0 6D0#4CFFE8047B11942F
(1662146719.934064) can0 201#0F006F00400D0300
(1662146719.934247) can0 080#00
(1662146719.934470) can0 181#270032000000
(1662146719.934673) can0 281#14227E040000
(1662146719.934878) can0 381#B60309000600
(1662146719.935738) can0 6D0#4DFFE7047B076CFD
(1662146719.941840) can0 201#0F006E00400D0300
(1662146719.942024) can0 080#00
(1662146719.942276) can0 181#270032000000
(1662146719.942481) can0 281#13227E040000
(1662146719.942682) can0 381#B60309000600
(1662146719.949630) can0 201#0F006E00400D0300
(1662146719.949811) can0 080#00
(1662146719.950042) can0 181#270036000000
(1662146719.950243) can0 281#13227E040000
(1662146719.950448) can0 381#B6030A000600
(1662146719.951707) can0 001#0018047B000022D8
(1662146719.951824) can0 003#00
(1662146719.952062) can0 6D0#4EFFE8047B00018D
(1662146719.957472) can0 201#0F006E00400D0300
(1662146719.957642) can0 080#00
(1662146719.957896) can0 181#270036000000
(1662146719.958097) can0 281#13227E040000
(1662146719.958301) can0 381#B60309000600
(1662146719.959737) can0 6D0#4FFFE8047B90A1BE
(1662146719.965260) can0 201#0F006E00400D0300
(1662146719.965430) can0 080#00
(1662146719.965655) can0 181#270036000000
(1662146719.965861) can0 281#11227E040000
(1662146719.966061) can0 381#B60309000600
(1662146719.967801) can0 6D0#50FFE8047B4F310E
(1662146719.973076) can0 201#0F006E00400D0300
(1662146719.973255) can0 080#00
(1662146719.973481) can0 181#270034000000
(1662146719.973684) can0 281#11227E040000
(1662146719.973886) can0 381#B60309000600
(1662146719.975604) can0 003#00
(1662146719.975837) can0 6D0#51FFE7047B2131E0
(1662146719.980838) can0 201#0F006E00400D0300
(1662146719.981050) can0 080#00
(1662146719.981273) can0 181#270036000000
(1662146719.981478) can0 281#13227E040000
(1662146719.981685) can0 381#B6030A000600
(1662146719.983740) can0 6D0#52FFE7047B00008F
(1662146719.986545) can0 036#10A00200BEA02E7C
(1662146719.988758) can0 201#0F006E00400D0300
(1662146719.988941) can0 080#00
(1662146719.989164) can0 181#270036000000
(1662146719.989370) can0 281#13227E040000
(1662146719.989571) can0 381#B6030A000600
(1662146719.991809) can0 6D0#53FFE5047B00008E
(1662146719.996452) can0 201#0F006E00400D0300
(1662146719.996631) can0 080#00
(1662146719.996854) can0 181#270038000000
(1662146719.997060) can0 281#11227E040000
(1662146719.997256) can0 381#B80309000600
(1662146719.999596) can0 003#00
(1662146719.999827) can0 6D0#54FFE6047B0236C8
(1662146720.004267) can0 201#0F006F00400D0300
(1662146720.004448) can0 080#00
(1662146720.004703) can0 181#270038000000
(1662146720.004904) can0 281#11227E040000
(1662146720.005107) can0 381#B80308000600
(1662146720.007776) can0 001#001B047B000022D8
(1662146720.008014) can0 002#A0319FEFBD000000
(1662146720.012122) can0 201#0F006F00400D0300
(1662146720.012300) can0 080#00
(1662146720.012525) can0 181#270038000000
(1662146720.012732) can0 281#13227E040000
(1662146720.012928) can0 381#B80309000600
(1662146720.015738) can0 6D0#55FFE6047A000090
(1662146720.017579) can0 080#052100AA
(1662146720.017859) can0 1838F380#0006210621210303
(1662146720.018136) can0 18EEFF80#F30080F300401E90
(1662146720.018422) can0 1839F380#00212121040303AE
(1662146720.020318) can0 201#0F006F00400D0300
(1662146720.020495) can0 080#00
(1662146720.020752) can0 181#270036000000
(1662146720.020951) can0 281#13227E040000
(1662146720.021152) can0 381#B80309000600
(1662146720.023596) can0 003#00
(1662146720.023832) can0 6D0#56FFE6047A000091
(1662146720.027735) can0 201#0F006F00400D0300
(1662146720.027921) can0 080#00
(1662146720.028142) can0 181#270034000000
(1662146720.028351) can0 281#13227E040000
(1662146720.028546) can0 381#B80309000600
(1662146720.031809) can0 6D0#57FFE7047B000094
(1662146720.035564) can0 201#0F006F00400D0300
(1662146720.035738) can0 080#00
(1662146720.035967) can0 181#270034000000
(1662146720.036172) can0 281#13227E040000
(1662146720.036372) can0 381#B80309000400
(1662146720.039736) can0 6D0#58FFE7047BFFD86C
(1662146720.043372) can0 201#0F006F00400D0300
(1662146720.043552) can0 080#00
(1662146720.043776) can0 181#270036000000
(1662146720.043980) can0 281#13227E040000
(1662146720.044179) can0 381#B8030A000600
(1662146720.047667) can0 003#00
(1662146720.051193) can0 201#0F006F00400D0300
(1662146720.051374) can0 080#00
(1662146720.051633) can0 181#270034000000
(1662146720.051830) can0 281#13227E040000
(1662146720.052033) can0 381#B60309000600
(1662146720.055740) can0 6D0#59FFE8047A000096
(1662146720.058996) can0 201#0F006E00400D0300
(1662146720.059177) can0 080#00
(1662146720.059401) can0 181#270036000000
(1662146720.059608) can0 281#13227E040000
(1662146720.059807) can0 381#B60309000600
(1662146720.063704) can0 001#0018047A000022D8
(1662146720.063937) can0 6D0#5AFFE8047A000097
(1662146720.066799) can0 201#0F006E00400D0300
(1662146720.066981) can0 080#00
(1662146720.067206) can0 181#270036000000
(1662146720.067410) can0 281#13227E040000
(1662146720.067613) can0 381#B6030A000600
(1662146720.071662) can0 003#00
(1662146720.074613) can0 201#0F006E00400D0300
(1662146720.074788) can0 080#00
(1662146720.075019) can0 181#27003A000000
(1662146720.075223) can0 281#13227E040000
(1662146720.075429) can0 381#B60309000600
(1662146720.079735) can0 6D0#5BFFE6047B000097
(1662146720.082429) can0 201#0F006E00400D0300
(1662146720.082605) can0 080#00
(1662146720.082828) can0 181#270038000000
(1662146720.083032) can0 281#13227E040000
(1662146720.083233) can0 381#B60309000600
(1662146720.086540) can0 036#119FFF00BEA02F7A
(1662146720.087809) can0 6D0#5CFFE6047B000098
(1662146720.090301) can0 201#0F006E00400D0300
(1662146720.090476) can0 080#00
(1662146720.090700) can0 181#270038000000
(1662146720.090904) can0 281#13227E040000
(1662146720.091107) can0 381#B6030A000600
(1662146720.095593) can0 003#00
(1662146720.095831) can0 6D0#5DFFE5047A000097
(1662146720.098181) can0 201#0F006E00400D0300
(1662146720.098355) can0 080#00
(1662146720.098583) can0 181#270038000000
(1662146720.098786) can0 281#13227E040000
(1662146720.098986) can0 381#B60309000600
(1662146720.103799) can0 6D0#5EFFE5047A000098
(1662146720.105914) can0 201#0F006E00400D0300
(1662146720.106094) can0 080#00
(1662146720.106317) can0 181#270036000000
(1662146720.106521) can0 281#13227E040000
(1662146720.106720) can0 381#B80309000600
(1662146720.111714) can0 002#A02F9FEFBD000000
(1662146720.111949) can0 6D0#5FFFE5047A000099
(1662146720.113799) can0 201#0F006F00400D0300
(1662146720.113985) can0 080#00
(1662146720.114238) can0 181#270038000000
(1662146720.114441) can0 281#13227E040000
(1662146720.114642) can0 381#B80309000600
(1662146720.117526) can0 080#062100AB
(1662146720.117810) can0 1838F380#000B210B21210303
(1662146720.118091) can0 1839F380#00212121040303AE
(1662146720.119699) can0 001#001B047A000022D8
(1662146720.119819) can0 003#00
(1662146720.121612) can0 201#0F006F00400D0300
(1662146720.121793) can0 080#00
(1662146720.122049) can0 181#270036000000
(1662146720.122254) can0 281#13227E040000
(1662146720.122453) can0 381#B80309000600
(1662146720.129282) can0 201#0F006F00400D0300
(1662146720.129430) can0 080#00
(1662146720.129685) can0 181#270036000000
(1662146720.129887) can0 281#13227E040000
(1662146720.130089) can0 381#B80309000600
(1662146720.135812) can0 6D0#60FFE6047A00009B
(1662146720.137173) can0 201#0F006F00400D0300
(1662146720.137351) can0 080#00
(1662146720.137576) can0 181#270038000000
(1662146720.137781) can0 281#13227E040000
(1662146720.137980) can0 381#B80309000600
(1662146720.143592) can0 003#00
(1662146720.143826) can0 6D0#61FFE7047A00009D
(1662146720.145098) can0 201#0F006F00400D0300
(1662146720.145273) can0 080#00
(1662146720.145499) can0 181#270036000000
(1662146720.145704) can0 281#13227E040000
(1662146720.145903) can0 381#B80309000600
(1662146720.151799) can0 6D0#62FFE6047A00009D
(1662146720.152804) can0 201#0F006F00400D0300
(1662146720.153019) can0 080#00
(1662146720.153244) can0 181#270036000000
(1662146720.153450) can0 281#13227E040000
(1662146720.153651) can0 381#B6030A000600
(1662146720.159732) can0 6D0#63FFE7047A00009F
(1662146720.160612) can0 201#0F006E00400D0300
(1662146720.160791) can0 080#00
(1662146720.161053) can0 181#270038000000
(1662146720.161257) can0 281#13227E040000
(1662146720.161459) can0 381#B60309000600
(1662146720.167661) can0 003#00
(1662146720.168422) can0 201#0F006E00400D0300
(1662146720.168601) can0 080#00
(1662146720.168853) can0 181#270036000000
(1662146720.169057) can0 281#13227E040000
(1662146720.169258) can0 381#B60309000600
(1662146720.175691) can0 001#0019047B000022D8
(1662146720.175930) can0 6D0#64FFE7047B0000A1
(1662146720.176332) can0 201#0F006E00400D0300
(1662146720.176525) can0 080#00
(1662146720.176735) can0 181#27003A000000
(1662146720.176941) can0 281#13227E040000
(1662146720.177145) can0 381#B60309000600
(1662146720.183803) can0 6D0#65FFE7047B0000A2
(1662146720.184043) can0 201#0F006E00400D0300
(1662146720.184210) can0 080#00
(1662146720.184437) can0 181#27003A000000
(1662146720.184642) can0 281#13227E040000
(1662146720.184844) can0 381#B6030A000600
(1662146720.186539) can0 036#24A00300BEA03396
(1662146720.191586) can0 003#00
(1662146720.191827) can0 201#0F006E00400D0300
(1662146720.192064) can0 6D0#66FFE6047B0000A2
(1662146720.192178) can0 080#00
(1662146720.192411) can0 181#27003A000000
(1662146720.192616) can0 281#13227E040000
(1662146720.192815) can0 381#B6030A000700
(1662146720.199548) can0 201#0F006E00400D0300
(1662146720.199802) can0 6D0#67FFE5047BFFFFA0
(1662146720.199917) can0 080#00
(1662146720.200126) can0 181#27003A000000
(1662146720.200330) can0 281#11227E040000
(1662146720.200531) can0 381#B60309000600
(1662146720.207358) can0 201#0F006E00400D0300
(1662146720.207534) can0 080#00
(1662146720.207780) can0 6D0#6EFFE5047A0040E8
(1662146720.207978) can0 181#270038000000
(1662146720.208182) can0 281#11227E040000
(1662146720.208386) can0 381#B60309000600
(1662146720.215214) can0 201#0F006E00400D0300
(1662146720.215391) can0 080#00
(1662146720.215614) can0 181#270036000000
(1662146720.215733) can0 003#00
(1662146720.215973) can0 002#A0319FF1BD000000
(1662146720.216177) can0 281#13227E040000
(1662146720.216383) can0 381#B80309000600
(1662146720.216616) can0 6D0#73FFE5047A0801B6
(1662146720.217520) can0 080#052100AA
(1662146720.217804) can0 1838F380#0000210021210303
(1662146720.218090) can0 1839F380#00212121040303AE
(1662146720.219791) can0 18EEFF80#F30080F300401E90
(1662146720.223022) can0 201#0F006F00400D0300
(1662146720.223199) can0 080#00
(1662146720.223423) can0 181#270038000000
(1662146720.223628) can0 281#13227E040000
(1662146720.223828) can0 381#B80309000600
(1662146720.224064) can0 6D0#74FFE5047A0800B6
(1662146720.230835) can0 201#0F006F00400D0300
(1662146720.231023) can0 080#00
(1662146720.231247) can0 181#270038000000
(1662146720.231455) can0 281#13227E040000
(1662146720.231649) can0 381#B80309000600
(1662146720.231891) can0 001#001B047A000022D8
(1662146720.238654) can0 201#0F006F00400D0300
(1662146720.238832) can0 080#00
(1662146720.239091) can0 181#270038000000
(1662146720.239297) can0 281#13227E040000
(1662146720.239497) can0 381#B80309000600
(1662146720.239616) can0 003#00
(1662146720.239855) can0 6D0#75FFE6047A0000B0
(1662146720.246468) can0 201#0F006F00400D0300
(1662146720.246650) can0 080#00
(1662146720.246907) can0 181#27003A000000
(1662146720.247110) can0 281#13227E040000
(1662146720.247312) can0 381#B80309000600
(1662146720.254265) can0 201#0F006F00400D0300
(1662146720.254448) can0 080#00
(1662146720.254682) can0 181#27003A000000
(1662146720.254877) can0 281#13227E040000
(1662146720.255082) can0 381#B60309000600
(1662146720.255732) can0 6D0#76FFE6047A0000B1
(1662146720.262131) can0 201#0F006E00400D0300
(1662146720.262309) can0 080#00
(1662146720.262535) can0 181#270038000000
(1662146720.262739) can0 281#13227E040000
(1662146720.262944) can0 381#B6030A000600
(1662146720.263581) can0 003#00
(1662146720.263819) can0 6D0#77FFE6047A0000B2
(1662146720.269946) can0 201#0F006E00400D0300
(1662146720.270130) can0 080#00
(1662146720.270367) can0 181#27003C000000
(1662146720.270576) can0 281#11227E040000
(1662146720.270764) can0 381#B60309000600
(1662146720.277701) can0 201#0F006E00400D0300
(1662146720.277881) can0 080#00
(1662146720.278108) can0 181#27003A000000
(1662146720.278312) can0 281#11227E040000
(1662146720.278513) can0 381#B60309000600
(1662146720.279731) can0 6D0#78FFE6047A0000B3
(1662146720.285523) can0 201#0F006E00400D0300
(1662146720.285702) can0 080#00
(1662146720.285929) can0 181#27003A000000
(1662146720.286134) can0 281#11227E040000
(1662146720.286332) can0 381#B60309000600
(1662146720.286579) can0 036#25A00400BEA0359A
(1662146720.287689) can0 001#001A047A000022D8
(1662146720.287808) can0 003#00
(1662146720.288045) can0 6D0#79FFE6047A0000B4
(1662146720.293322) can0 201#0F006E00400D0300
(1662146720.293500) can0 080#00
(1662146720.293735) can0 181#27003A000000
(1662146720.293930) can0 281#13227E040000
(1662146720.294135) can0 381#B6030A000600
(1662146720.295603) can0 200#05009B009B000000
(1662146720.295850) can0 6D0#7AFFE6047A0000B5
(1662146720.301131) can0 201#0F006E00400D0300
(1662146720.301305) can0 080#00
(1662146720.301532) can0 181#27003A000000
(1662146720.301737) can0 281#13227E040000
(1662146720.301944) can0 381#B6030A000600
(1662146720.303724) can0 6D0#7BFFE6047A0003B9
(1662146720.308903) can0 201#0F006E00400D0300
(1662146720.309086) can0 080#00
(1662146720.309337) can0 181#270038000000
(1662146720.309541) can0 281#11227E040000
(1662146720.309746) can0 381#B60309000600
(1662146720.311655) can0 003#00
(1662146720.316718) can0 201#0F006E00400D0300
(1662146720.316891) can0 080#00
(1662146720.317143) can0 181#270038000000
(1662146720.317345) can0 281#13227E040000
(1662146720.317548) can0 381#B80308000600
(1662146720.317829) can0 1838F380#0003210321210303
(1662146720.318113) can0 1839F380#00212121040303AE
(1662146720.318277) can0 080#062100AB
(1662146720.319705) can0 002#A0309FF0BD000000
(1662146720.319942) can0 6D0#7CFFE5047A0006BC
(1662146720.324523) can0 201#0F006F00400D0300
(1662146720.324701) can0 080#00
(1662146720.324967) can0 181#27003A000000
(1662146720.325164) can0 281#11227E040000
(1662146720.325365) can0 381#B80309000600
(1662146720.327720) can0 6D0#7DFFE5047A0030E7
(1662146720.332374) can0 201#0F006F00400D0300
(1662146720.332553) can0 080#00
(1662146720.332779) can0 181#27003A000000
(1662146720.332984) can0 281#13227E040000
(1662146720.333183) can0 381#B90309000600
(1662146720.335647) can0 003#00
(1662146720.335888) can0 6D0#7EFFE5047A0000B8
(1662146720.340191) can0 201#0F007000400D0300
(1662146720.340366) can0 080#00
(1662146720.340588) can0 181#270038000000
(1662146720.340791) can0 281#13227E040000
(1662146720.340993) can0 381#B90309000600
(1662146720.343691) can0 001#001B047A000022D8
(1662146720.343923) can0 6D0#7FFFE5047A02EEA9
(1662146720.348006) can0 201#0F007000400D0300
(1662146720.348179) can0 080#00
(1662146720.348407) can0 181#27003A000000
(1662146720.348612) can0 281#13227E040000
(1662146720.348811) can0 381#B80309000600
(1662146720.355811) can0 201#0F006F00400D0300
(1662146720.355999) can0 080#00
(1662146720.356234) can0 181#27003A000000
(1662146720.356430) can0 281#13227E040000
(1662146720.356633) can0 381#B80308000400
(1662146720.359579) can0 003#00
(1662146720.359820) can0 6D0#80FFE5047A0000BA
(1662146720.363645) can0 201#0F006F00400D0300
(1662146720.363816) can0 080#00
(1662146720.364082) can0 181#27003C000000
(1662146720.364283) can0 281#13227E040000
(1662146720.364487) can0 381#B60309000600
(1662146720.367723) can0 6D0#00FFE5047A01033E
(1662146720.371449) can0 201#0F006E00400D0300
(1662146720.371625) can0 080#00
(1662146720.371881) can0 181#27003C000000
(1662146720.372087) can0 281#11227E040000
(1662146720.372292) can0 381#B6030A000600
(1662146720.379253) can0 201#0F006E00400D0300
(1662146720.379432) can0 080#00
(1662146720.379661) can0 181#27003C000000
(1662146720.379867) can0 281#13227E040000
(1662146720.380070) can0 381#B6030A000600
(1662146720.383578) can0 003#00
(1662146720.383819) can0 6D0#01FFE6047A060345
(1662146720.386533) can0 036#26A00400BEA0359B
(1662146720.387170) can0 201#0F006E00400D0300
(1662146720.387318) can0 080#00
(1662146720.387579) can0 181#27003C000000
(1662146720.387779) can0 281#13227E040000
(1662146720.387982) can0 381#B60309000600
(1662146720.391796) can0 6D0#02FFE6047A057ABC
(1662146720.394875) can0 201#0F006E00400D0300
(1662146720.395057) can0 080#00
(1662146720.395284) can0 181#27003C000000
(1662146720.395487) can0 281#13227E040000
(1662146720.395688) can0 381#B60309000700
(1662146720.399692) can0 001#001B047A000022D8
(1662146720.399929) can0 6D0#03FFE5047A240364
(1662146720.402666) can0 201#0F006E00400D0300
(1662146720.402814) can0 080#00
(1662146720.403078) can0 181#27003A000000
(1662146720.403280) can0 281#13227E040000
(1662146720.403483) can0 381#B60309000600
(1662146720.407656) can0 003#00
(1662146720.407894) can0 6D0#04FFE5047A0063A1
(1662146720.410486) can0 201#0F006E00400D0300
(1662146720.410626) can0 080#00
(1662146720.410880) can0 181#27003A000000
(1662146720.411085) can0 281#13227E040000
(1662146720.411286) can0 381#B80309000700
(1662146720.415722) can0 6D0#05FFE4047A00003E
(1662146720.417511) can0 080#052100AA
(1662146720.417793) can0 1838F380#0006210621210303
(1662146720.418078) can0 1839F380#00212121040303AE
(1662146720.418662) can0 201#0F006F00400D0300
(1662146720.418842) can0 080#00
(1662146720.419069) can0 181#27003C000000
(1662146720.419274) can0 281#13227E040000
(1662146720.419476) can0 381#B80309000600
(1662146720.420113) can0 18EEFF80#F30080F300401E90
(1662146720.423771) can0 002#A0319FF0BD000000
(1662146720.424012) can0 6D0#06FFE4047A00306F
(1662146720.426289) can0 201#0F006F00400D0300
(1662146720.426466) can0 080#00
(1662146720.426692) can0 181#27003C000000
(1662146720.426897) can0 281#13227E040000
(1662146720.427095) can0 381#B80309000600
(1662146720.431585) can0 003#00
(1662146720.431813) can0 6D0#07FFE4047A001C5C
(1662146720.434107) can0 201#0F006F00400D0300
(1662146720.434282) can0 080#00
(1662146720.434511) can0 181#27003C000000
(1662146720.434714) can0 281#13227E040000
(1662146720.434916) can0 381#B80309000600
(1662146720.441733) can0 201#0F006F00400D0300
(1662146720.441921) can0 080#00
(1662146720.442148) can0 181#27003C000000
(1662146720.442351) can0 281#13227E040000
(1662146720.442552) can0 381#B80309000600
(1662146720.447714) can0 6D0#08FFE5047A0096D8
(1662146720.449656) can0 201#0F006F00400D0300
(1662146720.449805) can0 080#00
(1662146720.450072) can0 181#27003C000000
(1662146720.450274) can0 281#13227E040000
(1662146720.450475) can0 381#B80309000600
(1662146720.455749) can0 001#001A047A000022D8
(1662146720.455870) can0 003#00
(1662146720.457539) can0 201#0F006F00400D0300
(1662146720.457712) can0 080#00
(1662146720.457943) can0 181#27003A000000
(1662146720.458148) can0 281#13227E040000
(1662146720.458354) can0 381#B80309000400
(1662146720.463718) can0 6D0#09FFE5047A000043
(1662146720.465287) can0 201#0F006F00400D0300
(1662146720.465470) can0 080#00
(1662146720.465698) can0 181#27003C000000
(1662146720.465903) can0 281#13227E040000
(1662146720.466108) can0 381#B60309000600
(1662146720.471714) can0 6D0#0AFFE6047A00296E
(1662146720.473097) can0 201#0F006E00400D0300
(1662146720.473271) can0 080#00
(1662146720.473497) can0 181#27003A000000
(1662146720.473702) can0 281#13227E040000
(1662146720.473905) can0 381#B60309000600
(1662146720.479644) can0 003#00
(1662146720.480904) can0 201#0F006E00400D0300
(1662146720.481090) can0 080#00
(1662146720.481317) can0 181#27003F000000
(1662146720.481520) can0 281#13227E040000
(1662146720.481721) can0 381#B60309000600
(1662146720.486529) can0 036#27A00200BEA03499
(1662146720.488716) can0 201#0F006E00400D0300
(1662146720.488905) can0 080#00
(1662146720.489129) can0 181#27003D000000
(1662146720.489330) can0 281#11227E040000
(1662146720.489535) can0 381#B6030A000600
(1662146720.496426) can0 201#0F006E00400D0300
(1662146720.496601) can0 080#00
(1662146720.496825) can0 181#27003D000000
(1662146720.497030) can0 281#13227E040000
(1662146720.497236) can0 381#B6030A000600
(1662146720.503571) can0 003#00
(1662146720.503810) can0 6D0#0BFFE5047A02BD04
(1662146720.504348) can0 201#0F006E00400D0300
(1662146720.504528) can0 080#00
(1662146720.504755) can0 181#27003C000000
(1662146720.504960) can0 281#13227E040000
(1662146720.505161) can0 381#B6030A000600
(1662146720.511681) can0 001#001B047A000022D8
(1662146720.512104) can0 201#0F006E00400D0300
(1662146720.512284) can0 080#00
(1662146720.512511) can0 181#27003C000000
(1662146720.512717) can0 281#11227E040000
(1662146720.512916) can0 381#B60309000600
(1662146720.517518) can0 080#062100AB
(1662146720.517793) can0 1838F380#000B210B21210303
(1662146720.518073) can0 1839F380#00212121040303AE
(1662146720.520202) can0 201#0F006E00400D0300
(1662146720.520346) can0 080#00
(1662146720.520605) can0 181#27003C000000
(1662146720.520808) can0 281#13227E040000
(1662146720.521011) can0 381#B80308000600
(1662146720.527673) can0 201#0F006F00400D0300
(1662146720.527791) can0 003#00
(1662146720.528033) can0 002#A0319FEEBD000000
(1662146720.528147) can0 080#00
(1662146720.528355) can0 181#27003D000000
(1662146720.528559) can0 281#13227E040000
(1662146720.528758) can0 381#B80309000600
(1662146720.535464) can0 201#0F006F00400D0300
(1662146720.535713) can0 6D0#0CFFE4047A001C61
(1662146720.535829) can0 080#00
(1662146720.536036) can0 181#27003D000000
(1662146720.536239) can0 281#13227E040000
(1662146720.536439) can0 381#B80309000600
(1662146720.543280) can0 201#0F006F00400D0300
(1662146720.543460) can0 080#00
(1662146720.543684) can0 181#27003F000000
(1662146720.543889) can0 281#13227E040000
(1662146720.544093) can0 381#B80309000600
(1662146720.551146) can0 201#0F006F00400D0300
(1662146720.551325) can0 080#00
(1662146720.551549) can0 181#27003D000000
(1662146720.551668) can0 003#00
(1662146720.551873) can0 281#13227E040000
(1662146720.552072) can0 381#B80309000600
(1662146720.552308) can0 6D0#0DFFE5047A047AC5
(1662146720.558963) can0 201#0F006F00400D0300
(1662146720.559146) can0 080#00
(1662146720.559369) can0 181#27003D000000
(1662146720.559573) can0 281#13227E040000
(1662146720.559772) can0 381#B8030A000600
(1662146720.560010) can0 6D0#0EFFE5047A047CC8
(1662146720.566766) can0 201#0F006F00400D0300
(1662146720.566952) can0 080#00
(1662146720.567176) can0 181#27003D000000
(1662146720.567384) can0 281#13227E040000
(1662146720.567583) can0 381#B60309000600
(1662146720.567824) can0 001#001B047A000022D8
(1662146720.568060) can0 6D0#0FFFE5047A008FD8
(1662146720.574578) can0 201#0F006E00400D0300
(1662146720.574757) can0 080#00
(1662146720.574988) can0 181#27003D000000
(1662146720.575191) can0 281#13227E040000
(1662146720.575396) can0 381#B60309000600
(1662146720.575568) can0 003#00
(1662146720.575814) can0 6D0#10FFE5047A021864
(1662146720.582390) can0 201#0F006E00400D0300
(1662146720.582566) can0 080#00
(1662146720.582789) can0 181#270041000000
(1662146720.582993) can0 281#13227E040000
(1662146720.583195) can0 381#B60309000600
(1662146720.586539) can0 036#28A00000BEA03397
(1662146720.590162) can0 201#0F006E00400D0300
(1662146720.590339) can0 080#00
(1662146720.590596) can0 181#27003F000000
(1662146720.590800) can0 281#13227E040000
(1662146720.591000) can0 381#B60309000600
(1662146720.597964) can0 201#0F006E00400D0300
(1662146720.598139) can0 080#00
(1662146720.598365) can0 181#27003D000000
(1662146720.598569) can0 281#11227E040000
(1662146720.598770) can0 381#B60309000600
(1662146720.599638) can0 003#00
(1662146720.599881) can0 6D0#11FFE5047A003580
(1662146720.605783) can0 201#0F006E00400D0300
(1662146720.605964) can0 080#00
(1662146720.606222) can0 181#27003F000000
(1662146720.606418) can0 281#13227E040000
(1662146720.606621) can0 381#B8030C000700
(1662146720.607709) can0 6D0#12FFE4047A004691
(1662146720.613584) can0 201#0F006F00400D0300
(1662146720.613762) can0 080#00
(1662146720.613991) can0 181#27003D000000
(1662146720.614195) can0 281#13227E040000
(1662146720.614444) can0 381#B80309000600
(1662146720.617570) can0 080#052100AA
(1662146720.617850) can0 1838F380#0000210021210303
(1662146720.618128) can0 18EEFF80#F30080F300401E90
(1662146720.618414) can0 1839F380#00212121040303AE
(1662146720.621390) can0 201#0F006F00400D0300
(1662146720.621570) can0 080#00
(1662146720.621796) can0 181#27003F000000
(1662146720.621999) can0 281#11227E040000
(1662146720.622199) can0 381#B80309000600
(1662146720.623750) can0 001#001D047A000022D8
(1662146720.623867) can0 003#00
(1662146720.624105) can0 6D0#13FFE3047A0064AF
(1662146720.629210) can0 201#0F006F00400D0300
(1662146720.629390) can0 080#00
(1662146720.629641) can0 181#27003D000000
(1662146720.629860) can0 281#13227E040000
(1662146720.630047) can0 381#B80309000600
(1662146720.631686) can0 002#A02E9FEFBD000000
(1662146720.631919) can0 6D0#14FFE4047A2CCD46
(1662146720.637021) can0 201#0F006F00400D0300
(1662146720.637197) can0 080#00
(1662146720.637423) can0 181#27003D000000
(1662146720.637628) can0 281#13227E040000
(1662146720.637828) can0 381#B80309000600
(1662146720.644828) can0 201#0F006F00400D0300
(1662146720.645015) can0 080#00
(1662146720.645273) can0 181#27003C000000
(1662146720.645476) can0 281#13227E040000
(1662146720.645676) can0 381#B80309000600
(1662146720.647564) can0 003#00
(1662146720.647805) can0 6D0#15FFE5047A7FE4B2
(1662146720.652648) can0 201#0F006F00400D0300
(1662146720.652863) can0 080#00
(1662146720.653090) can0 181#27003D000000
(1662146720.653290) can0 281#13227E040000
(1662146720.653491) can0 381#B80309000600
(1662146720.660455) can0 201#0F006F00400D0300
(1662146720.660634) can0 080#00
(1662146720.660889) can0 181#27003D000000
(1662146720.661091) can0 281#13227E040000
(1662146720.661299) can0 381#B6030A000600
(1662146720.668270) can0 201#0F006E00400D0300
(1662146720.668446) can0 080#00
(1662146720.668704) can0 181#27003F000000
(1662146720.668906) can0 281#13227E040000
(1662146720.669111) can0 381#B50309000600
(1662146720.671641) can0 003#00
(1662146720.676188) can0 201#0F006E00400D0300
(1662146720.676358) can0 080#00
(1662146720.676584) can0 181#270041000000
(1662146720.676786) can0 281#11227E040000
(1662146720.676991) can0 381#B60309000600
(1662146720.679670) can0 001#001B047A000022D8
(1662146720.679906) can0 6D0#16FFE5047A0498EC
(1662146720.683885) can0 201#0F006E00400D0300
(1662146720.684071) can0 080#00
(1662146720.684320) can0 181#270043000000
(1662146720.684523) can0 281#11227E040000
(1662146720.684726) can0 381#B60309000600
(1662146720.686522) can0 036#29A01B00BEA050D0
(1662146720.687777) can0 6D0#17FFE4047A02BC0E
(1662146720.691704) can0 201#0F006E00400D0300
(1662146720.691882) can0 080#00
(1662146720.692137) can0 181#270043000000
(1662146720.692336) can0 281#13227E040000
(1662146720.692536) can0 381#B6030A000700
(1662146720.695576) can0 003#00
(1662146720.695814) can0 6D0#18FFE4047A000B5C
(1662146720.699494) can0 201#0F006E00400D0300
(1662146720.699671) can0 080#00
(1662146720.699898) can0 181#270045000000
(1662146720.700099) can0 281#11227E040000
(1662146720.700302) can0 381#B80309000700
(1662146720.703781) can0 6D0#19FFE1047A040255
(1662146720.707302) can0 201#0F006F00400D0300
(1662146720.707480) can0 080#00
(1662146720.707699) can0 181#270043000000
(1662146720.707903) can0 281#14227E040000
(1662146720.708105) can0 381#B90309000600
(1662146720.711706) can0 6D0#1AFFE2047A003081
(1662146720.715135) can0 201#0F007000400D0300
(1662146720.715310) can0 080#00
(1662146720.715535) can0 181#27003F000000
(1662146720.715739) can0 281#13227E040000
(1662146720.715941) can0 381#B80308000600
(1662146720.717517) can0 080#062100AB
(1662146720.717797) can0 1838F380#0003210321210303
(1662146720.718077) can0 1839F380#00212121040303AE
(1662146720.719637) can0 003#00
(1662146720.719870) can0 6D0#1BFFE3047A01EF43
(1662146720.722945) can0 201#0F006F00400D0300
(1662146720.723124) can0 080#00
(1662146720.723380) can0 181#27003F000000
(1662146720.723582) can0 281#13227E040000
(1662146720.723782) can0 381#B80309000600
(1662146720.727710) can0 6D0#1CFFE4047A03B60E
(1662146720.730743) can0 201#0F006F00400D0300
(1662146720.730931) can0 080#00
(1662146720.731158) can0 181#27003C000000
(1662146720.731361) can0 281#13227E040000
(1662146720.731560) can0 381#B8030A000600
(1662146720.735677) can0 001#001C047A000022D8
(1662146720.735913) can0 002#A02E9FEDBD000000
(1662146720.738566) can0 201#0F006F00400D0300
(1662146720.738746) can0 080#00
(1662146720.739007) can0 181#27003D000000
(1662146720.739211) can0 281#13227E040000
(1662146720.739412) can0 381#B90309000600
(1662146720.743562) can0 003#00
(1662146720.746383) can0 201#0F007000400D0300
(1662146720.746559) can0 080#00
(1662146720.746819) can0 181#27003D000000
(1662146720.747020) can0 281#13227E040000
(1662146720.747220) can0 381#B80309000400
(1662146720.751780) can0 6D0#1DFFE4047A0078CE
(1662146720.754293) can0 201#0F006F00400D0300
(1662146720.754471) can0 080#00
(1662146720.754701) can0 181#27003C000000
(1662146720.754905) can0 281#13227E040000
(1662146720.755109) can0 381#B60309000600
(1662146720.759703) can0 6D0#1EFFE5047A000058
(1662146720.762120) can0 201#0F006E00400D0300
(1662146720.762297) can0 080#00
(1662146720.762520) can0 181#27003D000000
(1662146720.762724) can0 281#13227E040000
(1662146720.762928) can0 381#B50309000600
(1662146720.767630) can0 003#00
(1662146720.769915) can0 201#0F006E00400D0300
(1662146720.770101) can0 080#00
(1662146720.770326) can0 181#27003F000000
(1662146720.770533) can0 281#13227E040000
(1662146720.770732) can0 381#B60309000600
(1662146720.775712) can0 6D0#1FFFE6047A00146E
(1662146720.777724) can0 201#0F006E00400D0300
(1662146720.777909) can0 080#00
(1662146720.778135) can0 181#27003F000000
(1662146720.778339) can0 281#13227E040000
(1662146720.778543) can0 381#B6030A000600
(1662146720.783770) can0 6D0#20FFE4047A000861
(1662146720.785533) can0 201#0F006E00400D0300
(1662146720.785683) can0 080#00
(1662146720.785938) can0 181#270043000000
(1662146720.786142) can0 281#13227E040000
(1662146720.786345) can0 381#B6030A000600
(1662146720.786583) can0 036#2A9FFD00BEA03193
(1662146720.791668) can0 001#001D047A000022D8
(1662146720.791788) can0 003#00
(1662146720.792032) can0 6D0#21FFE3047A000059
(1662146720.793436) can0 201#0F006E00400D0300
(1662146720.793610) can0 080#00
(1662146720.793863) can0 181#270047000000
(1662146720.794073) can0 281#13227E040000
(1662146720.794267) can0 381#B60309000700
(1662146720.799780) can0 6D0#22FFE1047A000058
(1662146720.801125) can0 201#0F006E00400D0300
(1662146720.801299) can0 080#00
(1662146720.801551) can0 181#270045000000
(1662146720.801755) can0 281#13227E040000
(1662146720.801954) can0 381#B80309000600
(1662146720.807700) can0 6D0#23FFE1047A047AD7
(1662146720.808964) can0 201#0F006F00400D0300
(1662146720.809116) can0 080#00
(1662146720.809370) can0 181#270047000000
(1662146720.809571) can0 281#13227E040000
(1662146720.809772) can0 381#B80309000600
(1662146720.815558) can0 003#00
(1662146720.815796) can0 6D0#24FFE1047A0085DF
(1662146720.816804) can0 201#0F006F00400D0300
(1662146720.817018) can0 080#00
(1662146720.817243) can0 181#270047000000
(1662146720.817446) can0 281#13227E040000
(1662146720.817646) can0 381#B80309000600
(1662146720.817926) can0 1839F380#00212121040303AE
(1662146720.818209) can0 1838F380#0006210621210303
(1662146720.818373) can0 080#052100AA
(1662146720.820108) can0 18EEFF80#F30080F300401E90
(1662146720.824476) can0 201#0F006F00400D0300
(1662146720.824658) can0 080#00
(1662146720.824877) can0 181#270043000000
(1662146720.825079) can0 281#13227E040000
(1662146720.825280) can0 381#B80309000600
(1662146720.831779) can0 6D0#25FFE3047A000966
(1662146720.832402) can0 201#0F006F00400D0300
(1662146720.832584) can0 080#00
(1662146720.832806) can0 181#270041000000
(1662146720.833010) can0 281#11227E040000
(1662146720.833211) can0 381#B60309000600
(1662146720.839674) can0 002#A02D9FECBD000000
(1662146720.839794) can0 003#00
(1662146720.840029) can0 6D0#26FFE3047A534DFE
(1662146720.840393) can0 201#0F006E00400D0300
(1662146720.840540) can0 080#00
(1662146720.840793) can0 181#270041000000
(1662146720.841000) can0 281#13227E040000
(1662146720.841202) can0 381#B50309000600
(1662146720.847733) can0 001#001D047A000022D8
(1662146720.847972) can0 201#0F006E00400D0300
(1662146720.848088) can0 080#00
(1662146720.848330) can0 6D0#27FFE4047A001070
(1662146720.848535) can0 181#270045000000
(1662146720.848739) can0 281#13227E040000
(1662146720.848945) can0 381#B6030A000600
(1662146720.855700) can0 6D0#28FFE4047A002283
(1662146720.855940) can0 201#0F006E00400D0300
(1662146720.856134) can0 080#00
(1662146720.856340) can0 181#270043000000
(1662146720.856544) can0 281#11227E040000
(1662146720.856748) can0 381#B6030A000600
(1662146720.863540) can0 201#0F006E00400D0300
(1662146720.863659) can0 003#00
(1662146720.863775) can0 080#00
(1662146720.864046) can0 181#270043000000
(1662146720.864249) can0 281#11227E040000
(1662146720.864447) can0 381#B60309000600
(1662146720.871353) can0 201#0F006E00400D0300
(1662146720.871530) can0 080#00
(1662146720.871779) can0 6D0#29FFE4047A002082
(1662146720.871977) can0 181#270041000000
(1662146720.872179) can0 281#13227E040000
(1662146720.872384) can0 381#B6030A000600
(1662146720.879205) can0 201#0F006E00400D0300
(1662146720.879351) can0 080#00
(1662146720.879602) can0 181#270041000000
(1662146720.879806) can0 281#13227E040000
(1662146720.880005) can0 381#B6030A000700
(1662146720.880248) can0 6D0#2AFFE4047A002184
(1662146720.886527) can0 036#2B9FFC00BEA03597
(1662146720.887076) can0 201#0F006E00400D0300
(1662146720.887221) can0 080#00
(1662146720.887474) can0 181#270045000000
(1662146720.887593) can0 003#00
(1662146720.887799) can0 281#13227E040000
(1662146720.887998) can0 381#B80309000600
(1662146720.888238) can0 6D0#2BFFE2047A000062
(1662146720.894830) can0 201#0F006F00400D0300
(1662146720.895013) can0 080#00
(1662146720.895236) can0 181#270047000000
(1662146720.895441) can0 281#13227E040000
(1662146720.895642) can0 381#B60309000600
(1662146720.895890) can0 6D0#2CFFE1047A000062
(1662146720.902636) can0 201#0F006E00400D0300
(1662146720.902785) can0 080#00
(1662146720.903041) can0 181#270047000000
(1662146720.903248) can0 281#13227E040000
(1662146720.903447) can0 381#B80309000600
(1662146720.903687) can0 001#001E047A000022D8
(1662146720.910414) can0 201#0F006F00400D0300
(1662146720.910592) can0 080#00
(1662146720.910850) can0 181#270043000000
(1662146720.911047) can0 281#11227E040000
(1662146720.911248) can0 381#B80309000600
(1662146720.911625) can0 003#00
(1662146720.911862) can0 6D0#2DFFE2047A002185
(1662146720.917511) can0 080#062100AB
(1662146720.917790) can0 1838F380#000B210B21210303
(1662146720.918072) can0 1839F380#00212121040303AE
(1662146720.918632) can0 201#0F006F00400D0300
(1662146720.918812) can0 080#00
(1662146720.919034) can0 181#270043000000
(1662146720.919239) can0 281#13227E040000
(1662146720.919438) can0 381#B80309000600
(1662146720.919704) can0 6D0#2EFFE4047A000269
(1662146720.926088) can0 201#0F006F00400D0300
(1662146720.926269) can0 080#00
(1662146720.926490) can0 181#270043000000
(1662146720.926695) can0 281#13227E040000
(1662146720.926896) can0 381#B9030A000600
(1662146720.927768) can0 6D0#2FFFE3047A00056C
(1662146720.933888) can0 201#0F007000400D0300
(1662146720.934075) can0 080#00
(1662146720.934297) can0 181#270045000000
(1662146720.934501) can0 281#13227E040000
(1662146720.934703) can0 381#B60309000600
(1662146720.935555) can0 003#00
(1662146720.935794) can0 6D0#30FFE4047A00016A
(1662146720.941702) can0 201#0F006E00400D0300
(1662146720.941886) can0 080#00
(1662146720.942107) can0 181#270047000000
(1662146720.942310) can0 281#13227E040000
(1662146720.942517) can0 381#B5030A000600
(1662146720.943747) can0 002#A02F9FEDBD000000
(1662146720.943988) can0 6D0#31FFE3047A000069
(1662146720.949505) can0 201#0F006E00400D0300
(1662146720.949688) can0 080#00
(1662146720.949915) can0 181#270047000000
(1662146720.950119) can0 281#13227E040000
(1662146720.950319) can0 381#B60309000600
(1662146720.951691) can0 6D0#32FFE4047A9FEBF5
(1662146720.957274) can0 201#0F006E00400D0300
(1662146720.957453) can0 080#00
(1662146720.957677) can0 181#270045000000
(1662146720.957881) can0 281#13227E040000
(1662146720.958085) can0 381#B60309000600
(1662146720.959731) can0 001#001C047A000022D8
(1662146720.959852) can0 003#00
(1662146720.960090) can0 6D0#33FFE3047AA02F3A
(1662146720.965081) can0 201#0F006E00400D0300
(1662146720.965254) can0 080#00
(1662146720.965477) can0 181#270041000000
(1662146720.965682) can0 281#11227E040000
(1662146720.965889) can0 381#B6030A000600
(1662146720.967694) can0 6D0#34FFE3047AA0010D
(1662146720.972885) can0 201#0F006E00400D0300
(1662146720.973066) can0 080#00
(1662146720.973287) can0 181#270043000000
(1662146720.973492) can0 281#11227E040000
(1662146720.973692) can0 381#B60309000600
(1662146720.975690) can0 6D0#35FFE2047AA02531
(1662146720.980692) can0 201#0F006E00400D0300
(1662146720.980873) can0 080#00
(1662146720.981095) can0 181#270045000000
(1662146720.981299) can0 281#11227E040000
(1662146720.981502) can0 381#B60308000600
(1662146720.983552) can0 003#00
(1662146720.986524) can0 036#30A00000BEA037A3
(1662146720.988620) can0 201#0F006E00400D0300
(1662146720.988768) can0 080#00
(1662146720.989022) can0 181#270045000000
(1662146720.989228) can0 281#13227E040000
(1662146720.989429) can0 381#B80309000600
(1662146720.996322) can0 201#0F006F00400D0300
(1662146720.996497) can0 080#00
(1662146720.996719) can0 181#270047000000
(1662146720.996923) can0 281#11227E040000
(1662146720.997122) can0 381#B80309000600
(1662146720.999698) can0 6D0#36FFE2047AA06673
(1662146721.004150) can0 201#0F006F00400D0300
(1662146721.004328) can0 080#00
(1662146721.004582) can0 181#270045000000
(1662146721.004786) can0 281#13227E040000
(1662146721.004986) can0 381#B80309000600
(1662146721.007550) can0 003#00
(1662146721.007787) can0 6D0#37FFE3047AA03948
(1662146721.011997) can0 201#0F006F00400D0300
(1662146721.012175) can0 080#00
(1662146721.012398) can0 181#270043000000
(1662146721.012603) can0 281#13227E040000
(1662146721.012803) can0 381#B60309000600
(1662146721.015733) can0 001#001D047A000022D8
(1662146721.015962) can0 6D0#38FFE3047A00BE2E
(1662146721.017499) can0 080#052100AA
(1662146721.017784) can0 1838F380#0000210021210303
(1662146721.018065) can0 1839F380#00212121040303AE
(1662146721.019760) can0 18EEFF80#F30080F300401E90
(1662146721.020230) can0 201#0F006E00400D0300
(1662146721.020379) can0 080#00
(1662146721.020629) can0 181#270043000000
(1662146721.020835) can0 281#13227E040000
(1662146721.021039) can0 381#B50309000600
(1662146721.023691) can0 6D0#39FFE4047A00BE30
(1662146721.027575) can0 201#0F006E00400D0300
(1662146721.027754) can0 080#00
(1662146721.028012) can0 181#270043000000
(1662146721.028220) can0 281#13227E040000
(1662146721.028419) can0 381#B50309000600
(1662146721.031617) can0 003#00
(1662146721.035390) can0 201#0F006E00400D0300
(1662146721.035567) can0 080#00
(1662146721.035788) can0 181#270047000000
(1662146721.035993) can0 281#13227E040000
(1662146721.036194) can0 381#B60309000600
(1662146721.039701) can0 6D0#3AFFE4047A00BE31
(1662146721.043193) can0 201#0F006E00400D0300
(1662146721.043370) can0 080#00
(1662146721.043591) can0 181#270049000000
(1662146721.043795) can0 281#13227E040000
(1662146721.043996) can0 381#B60309000600
(1662146721.047732) can0 002#A02E9FEDBD000000
(1662146721.047969) can0 6D0#3BFFE2047AA41026
(1662146721.051010) can0 201#0F006E00400D0300
(1662146721.051182) can0 080#00
(1662146721.051406) can0 181#270045000000
(1662146721.051610) can0 281#13227E040000
(1662146721.051809) can0 381#B60309000700
(1662146721.055554) can0 003#00
(1662146721.055794) can0 6D0#3CFFE2047A61A87C
(1662146721.058802) can0 201#0F006E00400D0300
(1662146721.058984) can0 080#00
(1662146721.059206) can0 181#270043000000
(1662146721.059409) can0 281#11227E040000
(1662146721.059613) can0 381#B80309000700
(1662146721.063692) can0 6D0#3DFFE2047A00067A
(1662146721.066611) can0 201#0F006F00400D0300
(1662146721.066763) can0 080#00
(1662146721.067013) can0 181#270043000000
(1662146721.067218) can0 281#13227E040000
(1662146721.067420) can0 381#B60308000600
(1662146721.071660) can0 001#001E047A000022D8
(1662146721.074441) can0 201#0F006E00400D0300
(1662146721.074621) can0 080#00
(1662146721.074876) can0 181#270045000000
(1662146721.075079) can0 281#13227E040000
(1662146721.075278) can0 381#B20309000600
(1662146721.079618) can0 003#00
(1662146721.082263) can0 201#0F006D00400D0300
(1662146721.082435) can0 080#00
(1662146721.082687) can0 181#270047000000
(1662146721.082891) can0 281#13227E040000
(1662146721.083093) can0 381#AD0309000600
(1662146721.086509) can0 036#319FFE00BEA037A1
(1662146721.087689) can0 6D0#3EFFE2047A000479
(1662146721.090178) can0 201#0F006B00400D0300
(1662146721.090358) can0 080#00
(1662146721.090580) can0 181#270045000000
(1662146721.090784) can0 281#13227E040000
(1662146721.090985) can0 381#A50309000600
(1662146721.097918) can0 201#0F006700400D0300
(1662146721.098098) can0 080#00
(1662146721.098319) can0 181#270043000000
(1662146721.098523) can0 281#13227E040000
(1662146721.098729) can0 381#A00309000400
(1662146721.103544) can0 003#00
(1662146721.103790) can0 6D0#3FFFE4047A00067E
(1662146721.105868) can0 201#0F006500400D0300
(1662146721.106055) can0 080#00
(1662146721.106305) can0 181#270041000000
(1662146721.106509) can0 281#13227E040000
(1662146721.106716) can0 381#9E0309000600
(1662146721.113499) can0 201#0F006400400D0300
(1662146721.113677) can0 080#00
(1662146721.113937) can0 181#270043000000
(1662146721.114139) can0 281#13227E040000
(1662146721.114342) can0 381#9C0309000600
(1662146721.117503) can0 080#062100AB
(1662146721.117791) can0 1838F380#0003210321210303
(1662146721.118068) can0 1839F380#00212121040303AE
(1662146721.119686) can0 6D0#40FFE7047A000480
(1662146721.121422) can0 201#0F006400400D0300
(1662146721.121591) can0 080#00
(1662146721.121818) can0 181#270043000000
(1662146721.122020) can0 281#13227E040000
(1662146721.122220) can0 381#9A030A000600
(1662146721.127722) can0 001#0019047A000022D8
(1662146721.127840) can0 003#00
(1662146721.129295) can0 201#0F006300400D0300
(1662146721.129474) can0 080#00
(1662146721.129701) can0 181#270045000000
(1662146721.129901) can0 281#13227E040000
(1662146721.130103) can0 381#9A030A000600
(1662146721.135689) can0 6D0#41FFE6047A002AA6
(1662146721.137001) can0 201#0F006300400D0300
(1662146721.137178) can0 080#00
(1662146721.137425) can0 181#270049000000
(1662146721.137630) can0 281#13227E040000
(1662146721.137829) can0 381#9A0309000700
(1662146721.143699) can0 6D0#42FFE4047A00027D
(1662146721.144806) can0 201#0F006300400D0300
(1662146721.144987) can0 080#00
(1662146721.145242) can0 181#270047000000
(1662146721.145444) can0 281#13227E040000
(1662146721.145647) can0 381#9C0309000600
(1662146721.151661) can0 002#A0309FEFBD000000
(1662146721.151781) can0 003#00
(1662146721.152722) can0 201#0F006400400D0300
(1662146721.152906) can0 080#00
(1662146721.153131) can0 181#270047000000
(1662146721.153333) can0 281#13227E040000
(1662146721.153535) can0 381#9D0309000600
(1662146721.159750) can0 6D0#43FFE4047A01FA77
(1662146721.160463) can0 201#0F006400400D0300
(1662146721.160610) can0 080#00
(1662146721.160857) can0 181#27004B000000
(1662146721.161064) can0 281#13227E040000
(1662146721.161266) can0 381#9D0309000600
(1662146721.167681) can0 6D0#44FFE5047A0233B3
(1662146721.168232) can0 201#0F006400400D0300
(1662146721.168413) can0 080#00
(1662146721.168636) can0 181#27004B000000
(1662146721.168834) can0 281#13227E040000
(1662146721.169037) can0 381#9D0309000600
(1662146721.175551) can0 003#00
(1662146721.175775) can0 6D0#45FFE4047A00B331
(1662146721.176176) can0 201#0F006400400D0300
(1662146721.176354) can0 080#00
(1662146721.176614) can0 181#27004B000000
(1662146721.176810) can0 281#13227E040000
(1662146721.177010) can0 381#9D0309000600
(1662146721.183723) can0 001#001B047A000022D8
(1662146721.183959) can0 201#0F006400400D0300
(1662146721.184201) can0 6D0#46FFE5047A0078F8
(1662146721.184315) can0 080#00
(1662146721.184522) can0 181#270047000000
(1662146721.184726) can0 281#13227E040000
(1662146721.184930) can0 381#9D030A000600
(1662146721.186510) can0 036#329FF900BEA03399
(1662146721.191673) can0 201#0F006400400D0300
(1662146721.191907) can0 6D0#47FFE6047A07A932
(1662146721.192016) can0 080#00
(1662146721.192224) can0 181#270045000000
(1662146721.192432) can0 281#13227E040000
(1662146721.192630) can0 381#9C0309000600
(1662146721.199416) can0 201#0F006400400D0300
(1662146721.199594) can0 080#00
(1662146721.199713) can0 003#00
(1662146721.199921) can0 181#270047000000
(1662146721.200126) can0 281#13227E040000
(1662146721.200327) can0 381#9C030A000600
(1662146721.200562) can0 6D0#48FFE6047A07FB85
(1662146721.207274) can0 201#0F006400400D0300
(1662146721.207454) can0 080#00
(1662146721.207691) can0 6D0#49FFE6047A000084
(1662146721.207896) can0 181#270047000000
(1662146721.208101) can0 281#13227E040000
(1662146721.208303) can0 381#9C030A000600
(1662146721.215103) can0 201#0F006400400D0300
(1662146721.215275) can0 080#00
(1662146721.215500) can0 181#270047000000
(1662146721.215705) can0 281#13227E040000
(1662146721.215906) can0 381#9C0309000600
(1662146721.216141) can0 6D0#4AFFE5047A0829B5
(1662146721.217549) can0 080#052100AA
(1662146721.217828) can0 1838F380#0006210621210303
(1662146721.218107) can0 18EEFF80#F30080F300401E90
(1662146721.218392) can0 1839F380#00212121040303AE
(1662146721.222853) can0 201#0F006400400D0300
(1662146721.223037) can0 080#00
(1662146721.223283) can0 181#270049000000
(1662146721.223488) can0 281#13227E040000
(1662146721.223606) can0 003#00
(1662146721.223808) can0 381#9C0309000700
(1662146721.230666) can0 201#0F006400400D0300
(1662146721.230850) can0 080#00
(1662146721.231100) can0 181#270047000000
(1662146721.231303) can0 281#13227E040000
(1662146721.231506) can0 381#9C0309000600
(1662146721.231763) can0 6D0#4BFFE3047A0F6F01
(1662146721.238481) can0 201#0F006400400D0300
(1662146721.238656) can0 080#00
(1662146721.238908) can0 181#270049000000
(1662146721.239111) can0 281#13227E040000
(1662146721.239315) can0 381#9D0309000600
(1662146721.239648) can0 001#001C047A000022D8
(1662146721.239880) can0 6D0#4CFFE4047A11942A
(1662146721.246333) can0 201#0F006400400D0300
(1662146721.246511) can0 080#00
(1662146721.246731) can0 181#270049000000
(1662146721.246936) can0 281#13227E040000
(1662146721.247142) can0 381#9E0309000600
(1662146721.247608) can0 003#00
(1662146721.247844) can0 6D0#4DFFE4047A076CF9
(1662146721.254141) can0 201#0F006400400D0300
(1662146721.254318) can0 080#00
(1662146721.254534) can0 181#270049000000
(1662146721.254739) can0 281#13227E040000
(1662146721.254940) can0 381#9D0309000600
(1662146721.255655) can0 002#A02F9FEDBD000000
(1662146721.255891) can0 6D0#4EFFE4047A000188
(1662146721.262011) can0 201#0F006400400D0300
(1662146721.262197) can0 080#00
(1662146721.262422) can0 181#270047000000
(1662146721.262622) can0 281#13227E040000
(1662146721.262827) can0 381#9D0308000600
(1662146721.263748) can0 6D0#4FFFE6047A90A1BB
(1662146721.269780) can0 201#0F006400400D0300
(1662146721.269969) can0 080#00
(1662146721.270221) can0 181#270047000000
(1662146721.270423) can0 281#13227E040000
(1662146721.270626) can0 381#9C0309000600
(1662146721.271544) can0 003#00
(1662146721.271775) can0 6D0#50FFE5047A4F310A
(1662146721.277590) can0 201#0F006400400D0300
(1662146721.277764) can0 080#00
(1662146721.278030) can0 181#270049000000
(1662146721.278227) can0 281#13227E040000
(1662146721.278430) can0 381#9D0309000600
(1662146721.279672) can0 6D0#51FFE6047A2131DE
(1662146721.285385) can0 201#0F006400400D0300
(1662146721.285564) can0 080#00
(1662146721.285782) can0 181#27004B000000
(1662146721.285986) can0 281#13227E040000
(1662146721.286188) can0 381#9C0309000600
(1662146721.286504) can0 036#339FFF00BEA0309D
(1662146721.293202) can0 201#0F006400400D0300
(1662146721.293381) can0 080#00
(1662146721.293601) can0 181#270049000000
(1662146721.293805) can0 281#13227E040000
(1662146721.294007) can0 381#9C0309000600
(1662146721.295500) can0 200#05009B009B000000
(1662146721.295751) can0 001#001B047A000022D8
(1662146721.295865) can0 003#00
(1662146721.296103) can0 6D0#52FFE5047A00008C
(1662146721.300962) can0 201#0F006400400D0300
(1662146721.301135) can0 080#00
(1662146721.301357) can0 181#270049000000
(1662146721.301562) can0 281#11227E040000
(1662146721.301760) can0 381#9C0309000700
(1662146721.303678) can0 6D0#53FFE5047A00008D
(1662146721.308759) can0 201#0F006400400D0300
(1662146721.308943) can0 080#00
(1662146721.309163) can0 181#270049000000
