(1662116390.612542) can0 201#06000000400D0300
(1662116390.612707) can0 080#00
(1662116390.612943) can0 181#210000000000
(1662116390.613138) can0 281#131E38040000
(1662116390.613342) can0 381#78020D000700
(1662116390.619125) can0 6D0#4E00000439000164
(1662116390.620409) can0 201#06000000400D0300
(1662116390.620586) can0 080#00
(1662116390.620816) can0 181#210000000000
(1662116390.621020) can0 281#141E38040000
(1662116390.621227) can0 381#78020D000700
(1662116390.627185) can0 6D0#4F0000043990A195
(1662116390.628230) can0 201#06000000400D0300
(1662116390.628406) can0 080#00
(1662116390.628665) can0 181#210000000000
(1662116390.628865) can0 281#131E38040000
(1662116390.629071) can0 381#78020C000700
(1662116390.635092) can0 001#00000439000021D7
(1662116390.635330) can0 6D0#50000004394F31E5
(1662116390.636107) can0 201#06000000400D0300
(1662116390.636283) can0 080#00
(1662116390.636543) can0 181#210000000000
(1662116390.636746) can0 281#131E38040000
(1662116390.636948) can0 381#78020D000700
(1662116390.643197) can0 6D0#51000004392131B8
(1662116390.643837) can0 201#06000000400D0300
(1662116390.644008) can0 080#00
(1662116390.644237) can0 181#210000000000
(1662116390.644439) can0 281#131E38040000
(1662116390.644642) can0 381#78020C000700
(1662116390.651133) can0 6D0#5200000439000067
(1662116390.651651) can0 201#06000000400D0300
(1662116390.651824) can0 080#00
(1662116390.652056) can0 181#210000000000
(1662116390.652257) can0 281#131E38040000
(1662116390.652462) can0 381#78020C000700
(1662116390.659104) can0 002#96FD96C254000000
(1662116390.659351) can0 6D0#5300000439000068
(1662116390.659593) can0 201#06000000400D0300
(1662116390.659711) can0 080#00
(1662116390.659968) can0 181#210000000000
(1662116390.660171) can0 281#131E38040000
(1662116390.660375) can0 381#78020A000700
(1662116390.667169) can0 201#06000000400D0300
(1662116390.667376) can0 080#00
(1662116390.667607) can0 181#210000000000
(1662116390.667808) can0 281#131E38040000
(1662116390.668011) can0 381#78020D000700
(1662116390.675011) can0 201#06000000400D0300
(1662116390.675250) can0 6D0#54000004390236A1
(1662116390.675367) can0 080#00
(1662116390.675586) can0 181#210000000000
(1662116390.675781) can0 281#141E38040000
(1662116390.675984) can0 381#78020D000700
(1662116390.682789) can0 201#06000000400D0300
(1662116390.682965) can0 080#00
(1662116390.683204) can0 6D0#550000043900006A
(1662116390.683417) can0 181#210000000000
(1662116390.683619) can0 281#141E38040000
(1662116390.683824) can0 381#78020C000700
(1662116390.690635) can0 201#06000000400D0300
(1662116390.690776) can0 080#00
(1662116390.691036) can0 181#210000000000
(1662116390.691275) can0 001#00000439000021D7
(1662116390.691479) can0 281#141E38040000
(1662116390.691683) can0 381#78020C000700
(1662116390.691921) can0 6D0#560000043900006B
(1662116390.698467) can0 201#06000000400D0300
(1662116390.698750) can0 1839F380#00202120040B03B4
(1662116390.698862) can0 080#00
(1662116390.699077) can0 181#210000000000
(1662116390.699280) can0 281#131E38040000
(1662116390.699483) can0 381#78020C000700
(1662116390.699762) can0 1838F380#000B210B20210B03
(1662116390.699930) can0 080#062100AB
(1662116390.700169) can0 6D0#570000043900006C
(1662116390.706279) can0 201#06000000400D0300
(1662116390.706449) can0 080#00
(1662116390.706679) can0 181#210000000000
(1662116390.706879) can0 281#131E38040000
(1662116390.707085) can0 381#78020C000700
(1662116390.707322) can0 6D0#5800000439FFD844
(1662116390.714082) can0 201#06000000400D0300
(1662116390.714254) can0 080#00
(1662116390.714489) can0 181#210000000000
(1662116390.714690) can0 281#131E38040000
(1662116390.714895) can0 381#78020C000700
(1662116390.715134) can0 6D0#590000043900006E
(1662116390.721891) can0 201#06000000400D0300
(1662116390.722065) can0 080#00
(1662116390.722295) can0 181#210000000000
(1662116390.722497) can0 281#141E38040000
(1662116390.722702) can0 381#78020C000700
(1662116390.729660) can0 201#06000000400D0300
(1662116390.729829) can0 080#00
(1662116390.730089) can0 181#210000000000
(1662116390.730293) can0 281#131E38040000
(1662116390.730496) can0 381#78020C000700
(1662116390.731131) can0 6D0#5A0000043900006F
(1662116390.737525) can0 201#06000000400D0300
(1662116390.737698) can0 080#00
(1662116390.737958) can0 181#210000000000
(1662116390.738160) can0 281#131E38040000
(1662116390.738363) can0 381#78020C000700
(1662116390.745277) can0 201#06000000400D0300
(1662116390.745487) can0 080#00
(1662116390.745724) can0 181#210000000000
(1662116390.745918) can0 281#131E38040000
(1662116390.746124) can0 381#78020C000700
(1662116390.747158) can0 001#00000439000021D7
(1662116390.753134) can0 201#06000000400D0300
(1662116390.753312) can0 080#00
(1662116390.753548) can0 181#210000000000
(1662116390.753747) can0 281#141E38040000
(1662116390.753950) can0 381#78020C000700
(1662116390.755120) can0 6D0#5B00000439000070
(1662116390.760945) can0 201#06000000400D0300
(1662116390.761119) can0 080#00
(1662116390.761347) can0 181#210000000000
(1662116390.761549) can0 281#131E38040000
(1662116390.761752) can0 381#78020D000700
(1662116390.763174) can0 002#96FD96C254000000
(1662116390.763411) can0 6D0#5C00000439000071
(1662116390.768745) can0 201#06000000400D0300
(1662116390.768890) can0 080#00
(1662116390.769147) can0 181#210000000000
(1662116390.769359) can0 281#131E38040000
(1662116390.769554) can0 381#78020C000700
(1662116390.771115) can0 6D0#5D00000439000072
(1662116390.776559) can0 201#06000000400D0300
(1662116390.776731) can0 080#00
(1662116390.776962) can0 181#210000000000
(1662116390.777164) can0 281#131E38040000
(1662116390.777367) can0 381#78020C000700
(1662116390.779181) can0 6D0#5E00000439000073
(1662116390.784369) can0 201#06000000400D0300
(1662116390.784542) can0 080#00
(1662116390.784777) can0 181#210000000000
(1662116390.784975) can0 281#131E38040000
(1662116390.785184) can0 381#77020C000700
(1662116390.787122) can0 6D0#5F00000439000074
(1662116390.792152) can0 201#06000000400D0300
(1662116390.792319) can0 080#00
(1662116390.792580) can0 181#210000000000
(1662116390.792780) can0 281#131E38040000
(1662116390.792984) can0 381#78020C000700
(1662116390.795453) can0 200#05009B009B000000
(1662116390.798461) can0 080#052000A9
(1662116390.798748) can0 1838F380#0000200020210B03
(1662116390.799033) can0 1839F380#00202120040B03B4
(1662116390.799312) can0 18EEFF80#F30080F300401E90
(1662116390.800484) can0 201#06000000400D0300
(1662116390.800657) can0 080#00
(1662116390.800892) can0 181#210000000000
(1662116390.801087) can0 281#131E38040000
(1662116390.801293) can0 381#78020C000700
(1662116390.803085) can0 001#00000439000021D7
(1662116390.803324) can0 6D0#6000000439000075
(1662116390.807769) can0 201#06000000400D0300
(1662116390.807944) can0 080#00
(1662116390.808203) can0 181#210000000000
(1662116390.808405) can0 281#131E38040000
(1662116390.808609) can0 381#78020C000700
(1662116390.811111) can0 6D0#6100000439000076
(1662116390.815579) can0 201#06000000400D0300
(1662116390.815751) can0 080#00
(1662116390.816010) can0 181#210000000000
(1662116390.816212) can0 281#131E38040000
(1662116390.816419) can0 381#77020C000700
(1662116390.823427) can0 201#06000000400D0300
(1662116390.823600) can0 080#00
(1662116390.823830) can0 181#210000000000
(1662116390.824032) can0 281#131E38040000
(1662116390.824234) can0 381#78020D000700
(1662116390.831234) can0 201#06000000400D0300
(1662116390.831412) can0 080#00
(1662116390.831640) can0 181#210000000000
(1662116390.831843) can0 281#141E38040000
(1662116390.832047) can0 381#78020D000700
(1662116390.835113) can0 6D0#6200000439000077
(1662116390.839043) can0 201#06000000400D0300
(1662116390.839193) can0 080#00
(1662116390.839452) can0 181#210000000000
(1662116390.839654) can0 281#131E38040000
(1662116390.839858) can0 381#78020C000700
(1662116390.846856) can0 201#06000000400D0300
(1662116390.846998) can0 080#00
(1662116390.847256) can0 181#210000000000
(1662116390.847459) can0 281#131E38040000
(1662116390.847663) can0 381#78020C000700
(1662116390.851115) can0 6D0#6300000439000078
(1662116390.854633) can0 201#06000000400D0300
(1662116390.854807) can0 080#00
(1662116390.855065) can0 181#210000000000
(1662116390.855267) can0 281#131E38040000
(1662116390.855469) can0 381#78020A000700
(1662116390.859162) can0 001#00000439000021D7
(1662116390.859399) can0 6D0#6400000439000079
(1662116390.862486) can0 201#06000000400D0300
(1662116390.862659) can0 080#00
(1662116390.862888) can0 181#210000000000
(1662116390.863089) can0 281#131E38040000
(1662116390.863294) can0 381#78020C000700
(1662116390.867088) can0 002#96FD96C254000000
(1662116390.867332) can0 6D0#650000043900007A
(1662116390.870251) can0 201#06000000400D0300
(1662116390.870427) can0 080#00
(1662116390.870687) can0 181#210000000000
(1662116390.870887) can0 281#131E38040000
(1662116390.871092) can0 381#78020C000700
(1662116390.875189) can0 6D0#660000043900007B
(1662116390.878097) can0 201#06000000400D0300
(1662116390.878243) can0 080#00
(1662116390.878506) can0 181#210000000000
(1662116390.878707) can0 281#131E38040000
(1662116390.878912) can0 381#78020C000700
(1662116390.883113) can0 6D0#6700000439FFFF7A
(1662116390.885889) can0 201#06000000400D0300
(1662116390.886050) can0 080#00
(1662116390.886310) can0 181#210000000000
(1662116390.886510) can0 281#131E38040000
(1662116390.886716) can0 381#78020C000700
(1662116390.891113) can0 6D0#6E000004390040C3
(1662116390.893721) can0 201#06000000400D0300
(1662116390.893865) can0 080#00
(1662116390.894124) can0 181#210000000000
(1662116390.894325) can0 281#131E38040000
(1662116390.894531) can0 381#78020A000800
(1662116390.898394) can0 080#062100AB
(1662116390.898676) can0 1838F380#0003200320210B03
(1662116390.898963) can0 1839F380#00202120040B03B4
(1662116390.901539) can0 201#06000000400D0300
(1662116390.901710) can0 080#00
(1662116390.901940) can0 181#210000000000
(1662116390.902142) can0 281#131E38040000
(1662116390.902346) can0 381#78020C000700
(1662116390.909347) can0 201#06000000400D0300
(1662116390.909523) can0 080#00
(1662116390.909754) can0 181#210000000000
(1662116390.909955) can0 281#131E38040000
(1662116390.910160) can0 381#78020C000700
(1662116390.915081) can0 001#00000439000021D7
(1662116390.915324) can0 6D0#7300000439080090
(1662116390.917292) can0 201#06000000400D0300
(1662116390.917472) can0 080#00
(1662116390.917728) can0 181#210000000000
(1662116390.917933) can0 281#131E38040000
(1662116390.918138) can0 381#78020C000700
(1662116390.924966) can0 201#06000000400D0300
(1662116390.925107) can0 080#00
(1662116390.925367) can0 181#210000000000
(1662116390.925572) can0 281#141E38040000
(1662116390.925776) can0 381#78020C000700
(1662116390.931105) can0 6D0#7400000439080192
(1662116390.932853) can0 201#06000000400D0300
(1662116390.933025) can0 080#00
(1662116390.933256) can0 181#210000000000
(1662116390.933457) can0 281#131E38040000
(1662116390.933662) can0 381#78020C000700
(1662116390.940559) can0 201#06000000400D0300
(1662116390.940728) can0 080#00
(1662116390.940988) can0 181#210000000000
(1662116390.941191) can0 281#141E38040000
(1662116390.941398) can0 381#78020C000700
(1662116390.947109) can0 6D0#750000043900008A
(1662116390.948490) can0 201#06000000400D0300
(1662116390.948657) can0 080#00
(1662116390.948917) can0 181#210000000000
(1662116390.949118) can0 281#131E38040000
(1662116390.949323) can0 381#77020A000800
(1662116390.956209) can0 201#06000000400D0300
(1662116390.956386) can0 080#00
(1662116390.956617) can0 181#210000000000
(1662116390.956819) can0 281#131E38040000
(1662116390.957024) can0 381#78020C000700
(1662116390.963107) can0 6D0#760000043900008B
(1662116390.964097) can0 201#06000000400D0300
(1662116390.964275) can0 080#00
(1662116390.964570) can0 181#210000000000
(1662116390.964707) can0 281#131E38040000
(1662116390.964910) can0 381#78020A000700
(1662116390.971079) can0 001#00000439000021D7
(1662116390.971317) can0 002#96FD96C254000000
(1662116390.971978) can0 201#06000000400D0300
(1662116390.972151) can0 080#00
(1662116390.972416) can0 181#210000000000
(1662116390.972617) can0 281#131E38040000
(1662116390.972821) can0 381#78020D000700
(1662116390.979644) can0 201#06000000400D0300
(1662116390.979785) can0 080#00
(1662116390.980047) can0 181#210000000000
(1662116390.980251) can0 281#141E38040000
(1662116390.980459) can0 381#78020C000700
(1662116390.987106) can0 6D0#770000043900008C
(1662116390.987530) can0 201#06000000400D0300
(1662116390.987703) can0 080#00
(1662116390.987935) can0 181#210000000000
(1662116390.988136) can0 281#131E38040000
(1662116390.988338) can0 381#78020D000700
(1662116390.995178) can0 6D0#780000043900008D
(1662116390.995425) can0 201#06000000400D0300
(1662116390.995648) can0 080#00
(1662116390.995863) can0 181#210000000000
(1662116390.996064) can0 281#131E38040000
(1662116390.996265) can0 381#78020D000700
(1662116390.998457) can0 080#052000A9
(1662116390.998739) can0 1838F380#0006200620210B03
(1662116390.999026) can0 1839F380#00202120040B03B4
(1662116390.999304) can0 18EEFF80#F30080F300401E90
(1662116391.003045) can0 201#06000000400D0300
(1662116391.003286) can0 6D0#790000043900008E
(1662116391.003402) can0 080#00
(1662116391.003614) can0 181#210000000000
(1662116391.003817) can0 281#131E38040000
(1662116391.004017) can0 381#78020A000700
(1662116391.010854) can0 201#06000000400D0300
(1662116391.011105) can0 6D0#7A0000043900008F
(1662116391.011220) can0 080#00
(1662116391.011432) can0 181#210000000000
(1662116391.011635) can0 281#131E38040000
(1662116391.011839) can0 381#78020C000700
(1662116391.018703) can0 201#06000000400D0300
(1662116391.018875) can0 080#00
(1662116391.019103) can0 181#210000000000
(1662116391.019308) can0 281#141E38040000
(1662116391.019511) can0 381#78020C000700
(1662116391.019751) can0 6D0#7B00000439000393
(1662116391.026527) can0 201#06000000400D0300
(1662116391.026702) can0 080#00
(1662116391.026931) can0 181#210000000000
(1662116391.027172) can0 001#00000439000021D7
(1662116391.027374) can0 281#131E38040000
(1662116391.027575) can0 381#78020D000700
(1662116391.027822) can0 6D0#7C00000439000697
(1662116391.034336) can0 201#06000000400D0300
(1662116391.034570) can0 080#00
(1662116391.034743) can0 181#210000000000
(1662116391.034946) can0 281#131E38040000
(1662116391.035150) can0 381#78020C000700
(1662116391.035388) can0 6D0#7D000004390030C2
(1662116391.042146) can0 201#06000000400D0300
(1662116391.042319) can0 080#00
(1662116391.042551) can0 181#210000000000
(1662116391.042756) can0 281#131E38040000
(1662116391.042957) can0 381#78020C000700
(1662116391.043200) can0 6D0#7E00000439000093
(1662116391.049961) can0 201#06000000400D0300
(1662116391.050132) can0 080#00
(1662116391.050366) can0 181#210000000000
(1662116391.050570) can0 281#141E38040000
(1662116391.050773) can0 381#78020C000700
(1662116391.057725) can0 201#06000000400D0300
(1662116391.057901) can0 080#00
(1662116391.058157) can0 181#210000000000
(1662116391.058361) can0 281#141E38040000
(1662116391.058562) can0 381#77020A000700
(1662116391.065536) can0 201#06000000400D0300
(1662116391.065705) can0 080#00
(1662116391.065969) can0 181#210000000000
(1662116391.066168) can0 281#131E38040000
(1662116391.066369) can0 381#78020D000700
(1662116391.067175) can0 6D0#7F0000043902EE84
(1662116391.073391) can0 201#06000000400D0300
(1662116391.073570) can0 080#00
(1662116391.073798) can0 181#210000000000
(1662116391.074000) can0 281#131E38040000
(1662116391.074210) can0 381#77020C000700
(1662116391.075080) can0 002#96FE96C254000000
(1662116391.075322) can0 6D0#8000000439000095
(1662116391.081204) can0 201#06000000400D0300
(1662116391.081382) can0 080#00
(1662116391.081622) can0 181#210000000000
(1662116391.081817) can0 281#131E38040000
(1662116391.082020) can0 381#78020C000700
(1662116391.083148) can0 001#00000439000021D7
(1662116391.083386) can0 6D0#0000000439010319
(1662116391.089010) can0 201#06000000400D0300
(1662116391.089183) can0 080#00
(1662116391.089421) can0 181#210000000000
(1662116391.089623) can0 281#131E38040000
(1662116391.089830) can0 381#77020C000700
(1662116391.091106) can0 6D0#010000043906031F
(1662116391.096777) can0 201#06000000400D0300
(1662116391.096950) can0 080#00
(1662116391.097209) can0 181#210000000000
(1662116391.097410) can0 281#131E38040000
(1662116391.097615) can0 381#78020C000700
(1662116391.098402) can0 080#062100AB
(1662116391.098677) can0 1838F380#000B210B20210B03
(1662116391.098961) can0 1839F380#00202120040B03B4
(1662116391.104634) can0 201#06000000400D0300
(1662116391.104804) can0 080#00
(1662116391.105032) can0 181#210001000000
(1662116391.105234) can0 281#131E38040000
(1662116391.105439) can0 381#78020C000700
(1662116391.107099) can0 6D0#0200000439057A96
(1662116391.112441) can0 201#06000000400D0300
(1662116391.112611) can0 080#00
(1662116391.112842) can0 181#210000000000
(1662116391.113045) can0 281#131E38040000
(1662116391.113253) can0 381#78020C000700
(1662116391.115178) can0 6D0#030000043924033F
(1662116391.120216) can0 201#06000000400D0300
(1662116391.120419) can0 080#00
(1662116391.120649) can0 181#210000000000
(1662116391.120851) can0 281#131E38040000
(1662116391.121054) can0 381#78020A000700
(1662116391.123101) can0 6D0#040000043900637C
(1662116391.128058) can0 201#06000000400D0300
(1662116391.128229) can0 080#00
(1662116391.128464) can0 181#210000000000
(1662116391.128668) can0 281#141E38040000
(1662116391.128872) can0 381#78020C000700
(1662116391.135832) can0 201#06000000400D0300
(1662116391.136006) can0 080#00
(1662116391.136266) can0 181#210000000000
(1662116391.136468) can0 281#141E38040000
(1662116391.136672) can0 381#78020C000700
(1662116391.139145) can0 001#00000439000021D7
(1662116391.143686) can0 201#06000000400D0300
(1662116391.143820) can0 080#00
(1662116391.144080) can0 181#210000000000
(1662116391.144282) can0 281#131E38040000
(1662116391.144484) can0 381#78020C000700
(1662116391.147110) can0 6D0#050000043900001A
(1662116391.151495) can0 201#06000000400D0300
(1662116391.151665) can0 080#00
(1662116391.151896) can0 181#210000000000
(1662116391.152097) can0 281#131E38040000
(1662116391.152301) can0 381#78020C000700
(1662116391.155174) can0 6D0#060000043900304B
(1662116391.159301) can0 201#06000000400D0300
(1662116391.159477) can0 080#00
(1662116391.159706) can0 181#210000000000
(1662116391.159909) can0 281#131E38040000
(1662116391.160115) can0 381#78020C000700
(1662116391.163099) can0 6D0#0700000439001C38
(1662116391.167077) can0 201#06000000400D0300
(1662116391.167251) can0 080#00
(1662116391.167520) can0 181#210000000000
(1662116391.167721) can0 281#131E38040000
(1662116391.167926) can0 381#78020C000700
(1662116391.174923) can0 201#06000000400D0300
(1662116391.175095) can0 080#00
(1662116391.175320) can0 181#210001000000
(1662116391.175523) can0 281#131E38040000
(1662116391.175725) can0 381#78020C000700
(1662116391.179079) can0 002#96FC96C154000000
(1662116391.179314) can0 6D0#0800000439002643
(1662116391.182701) can0 201#06000000400D0300
(1662116391.182872) can0 080#00
(1662116391.183134) can0 181#210000000000
(1662116391.183336) can0 281#141E38040000
(1662116391.183541) can0 381#78020C000700
(1662116391.190552) can0 201#06000000400D0300
(1662116391.190721) can0 080#00
(1662116391.190950) can0 181#210000000000
(1662116391.191152) can0 281#131E38040000
(1662116391.191353) can0 381#78020E000700
(1662116391.195074) can0 001#00000439000021D7
(1662116391.195308) can0 6D0#090000043900001E
(1662116391.198355) can0 201#06000000400D0300
(1662116391.198640) can0 1838F380#0000200020210B03
(1662116391.198756) can0 080#00
(1662116391.198968) can0 181#210000000000
(1662116391.199170) can0 281#131E38040000
(1662116391.199372) can0 381#78020A000700
(1662116391.199657) can0 1839F380#00202120040B03B4
(1662116391.199825) can0 080#052000A9
(1662116391.201048) can0 18EEFF80#F30080F300401E90
(1662116391.206180) can0 201#06000000400D0300
(1662116391.206357) can0 080#00
(1662116391.206587) can0 181#210000000000
(1662116391.206792) can0 281#141E38040000
(1662116391.206992) can0 381#78020D000700
(1662116391.213939) can0 201#06000000400D0300
(1662116391.214114) can0 080#00
(1662116391.214377) can0 181#210000000000
(1662116391.214580) can0 281#131E38040000
(1662116391.214781) can0 381#78020D000700
(1662116391.219091) can0 6D0#0A00000439007897
(1662116391.221762) can0 201#06000000400D0300
(1662116391.221927) can0 080#00
(1662116391.222183) can0 181#210000000000
(1662116391.222389) can0 281#141E38040000
(1662116391.222592) can0 381#78020C000700
(1662116391.229599) can0 201#06000000400D0300
(1662116391.229773) can0 080#00
(1662116391.230001) can0 181#210000000000
(1662116391.230205) can0 281#131E38040000
(1662116391.230405) can0 381#78020D000700
(1662116391.235095) can0 6D0#0B00000439025476
(1662116391.237496) can0 201#06000000400D0300
(1662116391.237667) can0 080#00
(1662116391.237929) can0 181#210000000000
(1662116391.238130) can0 281#141E38040000
(1662116391.238332) can0 381#78020D000700
(1662116391.245188) can0 201#06000000400D0300
(1662116391.245397) can0 080#00
(1662116391.245624) can0 181#210000000000
(1662116391.245829) can0 281#141E38040000
(1662116391.246037) can0 381#78020C000700
(1662116391.251064) can0 001#00000439000021D7
(1662116391.251307) can0 6D0#0C00000439000021
(1662116391.253169) can0 201#06000000400D0300
(1662116391.253349) can0 080#00
(1662116391.253609) can0 181#210000000000
(1662116391.253814) can0 281#141E38040000
(1662116391.254016) can0 381#78020A000700
(1662116391.260808) can0 201#06000000400D0300
(1662116391.260983) can0 080#00
(1662116391.261241) can0 181#210000000000
(1662116391.261449) can0 281#141E38040000
(1662116391.261650) can0 381#78020C000800
(1662116391.267101) can0 6D0#0D0000043904395F
(1662116391.268733) can0 201#06000000400D0300
(1662116391.268906) can0 080#00
(1662116391.269133) can0 181#210000000000
(1662116391.269339) can0 281#131E38040000
(1662116391.269544) can0 381#78020C000700
(1662116391.276470) can0 201#06000000400D0300
(1662116391.276643) can0 080#00
(1662116391.276872) can0 181#210000000000
(1662116391.277075) can0 281#131E38040000
(1662116391.277276) can0 381#78020D000700
(1662116391.283152) can0 002#96FE96C154000000
(1662116391.284353) can0 201#06000000400D0300
(1662116391.284533) can0 080#00
(1662116391.284758) can0 181#210000000000
(1662116391.284966) can0 281#131E38040000
(1662116391.285163) can0 381#78020D000700
(1662116391.291094) can0 6D0#0E00000439043960
(1662116391.292165) can0 201#06000000400D0300
(1662116391.292337) can0 080#00
(1662116391.292568) can0 181#210000000000
(1662116391.292772) can0 281#141E38040000
(1662116391.292972) can0 381#78020D000700
(1662116391.298385) can0 080#062100AB
(1662116391.298668) can0 1838F380#0003200320210B03
(1662116391.298953) can0 1839F380#00202120040B03B4
(1662116391.299190) can0 6D0#0F000004390089AD
(1662116391.300286) can0 201#06000000400D0300
(1662116391.300470) can0 080#00
(1662116391.300725) can0 181#210000000000
(1662116391.300933) can0 281#141E38040000
(1662116391.301130) can0 381#78020D000700
(1662116391.307063) can0 001#00000439000021D7
(1662116391.307303) can0 6D0#100000043902042B
(1662116391.307837) can0 201#06000000400D0300
(1662116391.308012) can0 080#00
(1662116391.308245) can0 181#210000000000
(1662116391.308446) can0 281#141E38040000
(1662116391.308651) can0 381#78020C000700
(1662116391.315527) can0 201#06000000400D0300
(1662116391.315700) can0 080#00
(1662116391.315928) can0 181#210000000000
(1662116391.316131) can0 281#131E38040000
(1662116391.316331) can0 381#78020D000700
(1662116391.323092) can0 6D0#110000043900355B
(1662116391.323337) can0 201#06000000400D0300
(1662116391.323458) can0 080#00
(1662116391.323696) can0 181#210000000000
(1662116391.323893) can0 281#141E38040000
(1662116391.324096) can0 381#78020C000700
(1662116391.331145) can0 201#06000000400D0300
(1662116391.331320) can0 080#00
(1662116391.331550) can0 181#210000000000
(1662116391.331755) can0 281#141E38040000
(1662116391.331957) can0 381#78020C000700
(1662116391.338922) can0 201#06000000400D0300
(1662116391.339159) can0 6D0#120000043900466D
(1662116391.339273) can0 080#00
(1662116391.339486) can0 181#210000000000
(1662116391.339689) can0 281#131E38040000
(1662116391.339897) can0 381#78020C000700
(1662116391.346761) can0 201#06000000400D0300
(1662116391.346905) can0 080#00
(1662116391.347168) can0 181#210000000000
(1662116391.347367) can0 281#131E38040000
(1662116391.347571) can0 381#78020C000700
(1662116391.354545) can0 201#06000000400D0300
(1662116391.354714) can0 080#00
(1662116391.354975) can0 181#210000000000
(1662116391.355177) can0 281#141E38040000
(1662116391.355383) can0 381#78020D000700
(1662116391.362396) can0 201#06000000400D0300
(1662116391.362568) can0 080#00
(1662116391.362796) can0 181#210000000000
(1662116391.363001) can0 281#141E38040000
(1662116391.363241) can0 001#00000439000021D7
(1662116391.363444) can0 381#78020C000700
(1662116391.363681) can0 6D0#130000043900648C
(1662116391.370211) can0 201#06000000400D0300
(1662116391.370388) can0 080#00
(1662116391.370616) can0 181#210000000000
(1662116391.370821) can0 281#141E38040000
(1662116391.371022) can0 381#78020D000700
(1662116391.371263) can0 6D0#14000004392A4194
(1662116391.378023) can0 201#06000000400D0300
(1662116391.378195) can0 080#00
(1662116391.378432) can0 181#210000000000
(1662116391.378636) can0 281#141E38040000
(1662116391.378843) can0 381#78020C000700
(1662116391.379091) can0 6D0#15000004397FFFA8
(1662116391.385832) can0 201#06000000400D0300
(1662116391.386004) can0 080#00
(1662116391.386235) can0 181#210000000000
(1662116391.386438) can0 281#141E38040000
(1662116391.386643) can0 381#78020C000700
(1662116391.387153) can0 002#96FC96C354000000
(1662116391.387386) can0 6D0#16000004390498C7
(1662116391.393648) can0 201#06000000400D0300
(1662116391.393819) can0 080#00
(1662116391.394047) can0 181#210000000000
(1662116391.394253) can0 281#141E38040000
(1662116391.394455) can0 381#78020D000700
(1662116391.395087) can0 6D0#170000043902BCEA
(1662116391.398384) can0 080#052000A9
(1662116391.398674) can0 1838F380#0006200620210B03
(1662116391.398954) can0 1839F380#00202120040B03B4
(1662116391.399232) can0 18EEFF80#F30080F300401E90
(1662116391.401581) can0 201#06000000400D0300
(1662116391.401752) can0 080#00
(1662116391.401982) can0 181#210000000000
(1662116391.402188) can0 281#141E38040000
(1662116391.402388) can0 381#78020D000700
(1662116391.409215) can0 201#06000000400D0300
(1662116391.409395) can0 080#00
(1662116391.409654) can0 181#210000000000
(1662116391.409857) can0 281#141E38040000
(1662116391.410062) can0 381#78020C000700
(1662116391.411091) can0 6D0#1800000439000A37
(1662116391.417074) can0 201#06000000400D0300
(1662116391.417252) can0 080#00
(1662116391.417484) can0 181#210000000000
(1662116391.417688) can0 281#141E38040000
(1662116391.417889) can0 381#78020D000700
(1662116391.419060) can0 001#00000439000021D7
(1662116391.424891) can0 201#06000000400D0300
(1662116391.425063) can0 080#00
(1662116391.425292) can0 181#210000000000
(1662116391.425498) can0 281#141E38040000
(1662116391.425700) can0 381#78020C000700
(1662116391.432654) can0 201#06000000400D0300
(1662116391.432828) can0 080#00
(1662116391.433085) can0 181#210000000000
(1662116391.433291) can0 281#141E38040000
(1662116391.433498) can0 381#78020C000700
(1662116391.435091) can0 6D0#1900000439000230
(1662116391.440507) can0 201#06000000400D0300
(1662116391.440677) can0 080#00
(1662116391.440908) can0 181#210000000000
(1662116391.441111) can0 281#131E38040000
(1662116391.441311) can0 381#78020D000700
(1662116391.443155) can0 6D0#1A00000439008AB9
(1662116391.448317) can0 201#06000000400D0300
(1662116391.448486) can0 080#00
(1662116391.448717) can0 181#210000000000
(1662116391.448922) can0 281#141E38040000
(1662116391.449123) can0 381#78020D000700
(1662116391.451085) can0 6D0#1B0000043901A4D5
(1662116391.456117) can0 201#06000000400D0300
(1662116391.456296) can0 080#00
(1662116391.456526) can0 181#210000000000
(1662116391.456728) can0 281#131E38040000
(1662116391.456932) can0 381#78020C000700
(1662116391.459154) can0 6D0#1C0000043903B6EA
(1662116391.463900) can0 201#06000000400D0300
(1662116391.464069) can0 080#00
(1662116391.464332) can0 181#210000000000
(1662116391.464530) can0 281#131E38040000
(1662116391.464733) can0 381#78020D000700
(1662116391.467083) can0 6D0#1D000004390078AA
(1662116391.471712) can0 201#06000000400D0300
(1662116391.471882) can0 080#00
(1662116391.472142) can0 181#210000000000
(1662116391.472343) can0 281#131E38040000
(1662116391.472548) can0 381#78020C000700
(1662116391.475135) can0 001#00000439000021D7
(1662116391.479522) can0 201#06000000400D0300
(1662116391.479694) can0 080#00
(1662116391.479954) can0 181#210000000000
(1662116391.480158) can0 281#131E38040000
(1662116391.480359) can0 381#78020C000700
(1662116391.483089) can0 6D0#1E00000439000033
(1662116391.487373) can0 201#06000000400D0300
(1662116391.487546) can0 080#00
(1662116391.487775) can0 181#210000000000
(1662116391.487980) can0 281#141E38040000
(1662116391.488182) can0 381#78020C000700
(1662116391.491064) can0 002#96FC96C254000000
(1662116391.495146) can0 201#06000000400D0300
(1662116391.495348) can0 080#00
(1662116391.495579) can0 181#210000000000
(1662116391.495787) can0 281#141E38040000
(1662116391.495987) can0 381#78020C000700
(1662116391.498389) can0 080#062100AB
(1662116391.498671) can0 1838F380#000B210B20210B03
(1662116391.498952) can0 1839F380#00202120040B03B4
(1662116391.502985) can0 201#06000000400D0300
(1662116391.503129) can0 080#00
(1662116391.503394) can0 181#210000000000
(1662116391.503595) can0 281#131E38040000
(1662116391.503799) can0 381#78020C000700
(1662116391.510763) can0 201#06000000400D0300
(1662116391.510936) can0 080#00
(1662116391.511197) can0 181#210000000000
(1662116391.511403) can0 281#141E38040000
(1662116391.511617) can0 381#78020C000700
(1662116391.515085) can0 6D0#1F00000439001448
(1662116391.518612) can0 201#06000000400D0300
(1662116391.518784) can0 080#00
(1662116391.519017) can0 181#210000000000
(1662116391.519216) can0 281#131E38040000
(1662116391.519419) can0 381#78020D000700
(1662116391.523159) can0 6D0#200000043900083D
(1662116391.526422) can0 201#06000000400D0300
(1662116391.526599) can0 080#00
(1662116391.526826) can0 181#210000000000
(1662116391.527028) can0 281#141E38040000
(1662116391.527233) can0 381#78020D000700
(1662116391.531054) can0 001#00000439000021D7
(1662116391.531298) can0 6D0#2100000439000036
(1662116391.534199) can0 201#06000000400D0300
(1662116391.534405) can0 080#00
(1662116391.534633) can0 181#210000000000
(1662116391.534840) can0 281#141E38040000
(1662116391.535040) can0 381#78020D000700
(1662116391.539159) can0 6D0#2200000439000037
(1662116391.542010) can0 201#06000000400D0300
(1662116391.542180) can0 080#00
(1662116391.542446) can0 181#210000000000
(1662116391.542647) can0 281#131E38040000
(1662116391.542850) can0 381#78020C000700
(1662116391.547080) can0 6D0#2300000439043975
(1662116391.549855) can0 201#06000000400D0300
(1662116391.549996) can0 080#00
(1662116391.550264) can0 181#210000000000
(1662116391.550459) can0 281#131E38040000
(1662116391.550664) can0 381#77020C000700
(1662116391.555148) can0 6D0#240000043900528B
(1662116391.557666) can0 201#06000000400D0300
(1662116391.557835) can0 080#00
(1662116391.558066) can0 181#210000000000
(1662116391.558270) can0 281#141E38040000
(1662116391.558470) can0 381#78020D000700
(1662116391.563082) can0 6D0#2500000439000842
(1662116391.565558) can0 201#06000000400D0300
(1662116391.565731) can0 080#00
(1662116391.565988) can0 181#210000000000
(1662116391.566194) can0 281#141E38040000
(1662116391.566402) can0 381#77020C000700
(1662116391.571084) can0 6D0#2600000439EA153A
(1662116391.573369) can0 201#06000000400D0300
(1662116391.573540) can0 080#00
(1662116391.573768) can0 181#210000000000
(1662116391.573973) can0 281#131E38040000
(1662116391.574176) can0 381#78020A000800
(1662116391.581099) can0 201#06000000400D0300
(1662116391.581275) can0 080#00
(1662116391.581514) can0 181#210000000000
(1662116391.581712) can0 281#141E38040000
(1662116391.581911) can0 381#78020C000700
(1662116391.587123) can0 001#00000439000021D7
(1662116391.587363) can0 6D0#270000043900003C
(1662116391.589048) can0 201#06000000400D0300
(1662116391.589222) can0 080#00
(1662116391.589484) can0 181#210000000000
(1662116391.589689) can0 281#141E38040000
(1662116391.589893) can0 381#78020C000700
(1662116391.595058) can0 002#96FD96C254000000
(1662116391.595296) can0 6D0#280000043900215E
(1662116391.596864) can0 201#06000000400D0300
(1662116391.597035) can0 080#00
(1662116391.597263) can0 181#210000000000
(1662116391.597465) can0 281#131E38040000
(1662116391.597665) can0 381#78020D000700
(1662116391.598382) can0 080#052000A9
(1662116391.598669) can0 1838F380#0000200020210B03
(1662116391.598952) can0 1839F380#00202120040B03B4
(1662116391.599233) can0 18EEFF80#F30080F300401E90
(1662116391.603147) can0 6D0#2900000439001F5D
(1662116391.604605) can0 201#06000000400D0300
(1662116391.604788) can0 080#00
(1662116391.605008) can0 181#210000000000
(1662116391.605209) can0 281#141E38040000
(1662116391.605419) can0 381#78020C000700
(1662116391.612341) can0 201#06000000400D0300
(1662116391.612527) can0 080#00
(1662116391.612748) can0 181#210000000000
(1662116391.612952) can0 281#141E38040000
(1662116391.613153) can0 381#78020C000700
(1662116391.620121) can0 201#06000000400D0300
(1662116391.620296) can0 080#00
(1662116391.620552) can0 181#210000000000
(1662116391.620760) can0 281#141E38040000
(1662116391.620961) can0 381#78020D000700
(1662116391.627967) can0 201#06000000400D0300
(1662116391.628140) can0 080#00
(1662116391.628374) can0 181#210000000000
(1662116391.628585) can0 281#131E38040000
(1662116391.628780) can0 381#78020C000700
(1662116391.635154) can0 6D0#2A0000043900205F
(1662116391.635839) can0 201#06000000400D0300
(1662116391.636020) can0 080#00
(1662116391.636244) can0 181#210000000000
(1662116391.636446) can0 281#141E38040000
(1662116391.636647) can0 381#78020D000700
(1662116391.643049) can0 001#00000439000021D8
(1662116391.643656) can0 201#06000000400D0300
(1662116391.643828) can0 080#00
(1662116391.644057) can0 181#210000000000
(1662116391.644259) can0 281#141E38040000
(1662116391.644464) can0 381#78020D000700
(1662116391.651402) can0 201#06000000400D0300
(1662116391.651573) can0 080#00
(1662116391.651805) can0 181#210000000000
(1662116391.652006) can0 281#131E38040000
(1662116391.652207) can0 381#78020D000700
(1662116391.659080) can0 6D0#2B00000439000040
(1662116391.659325) can0 201#06000000400D0300
(1662116391.659456) can0 080#00
(1662116391.659685) can0 181#210000000000
(1662116391.659892) can0 281#141E38040000
(1662116391.660093) can0 381#78020A000700
(1662116391.666988) can0 201#06000000400D0300
(1662116391.667159) can0 080#00
(1662116391.667425) can0 181#210000000000
(1662116391.667629) can0 281#141E38040000
(1662116391.667834) can0 381#78020C000700
(1662116391.674829) can0 201#06000000400D0300
(1662116391.674971) can0 080#00
(1662116391.675229) can0 181#210000000000
(1662116391.675434) can0 281#131E38040000
(1662116391.675635) can0 381#78020D000700
(1662116391.682615) can0 201#06000000400D0300
(1662116391.682780) can0 080#00
(1662116391.683037) can0 181#210000000000
(1662116391.683242) can0 281#131E38040000
(1662116391.683445) can0 381#78020C000700
(1662116391.683689) can0 6D0#2C00000439000041
(1662116391.690472) can0 201#06000000400D0300
(1662116391.690644) can0 080#00
(1662116391.690872) can0 181#210000000000
(1662116391.691076) can0 281#131E38040000
(1662116391.691280) can0 381#78020C000700
(1662116391.698233) can0 201#06000000400D0300
(1662116391.698398) can0 080#062100AB
(1662116391.698515) can0 080#00
(1662116391.698798) can0 1839F380#00202120040B03B4
(1662116391.699009) can0 181#210000000000
(1662116391.699249) can0 002#96FE96C154000000
(1662116391.699490) can0 001#00000439000021D8
(1662116391.699692) can0 281#131E38040000
(1662116391.699891) can0 381#78020D000700
(1662116391.700186) can0 1838F380#0003200320210B03
(1662116391.700422) can0 6D0#2D00000439001F61
(1662116391.706089) can0 201#06000000400D0300
(1662116391.706268) can0 080#00
(1662116391.706494) can0 181#210000000000
(1662116391.706699) can0 281#131E38040000
(1662116391.706902) can0 381#78020C000700
(1662116391.713848) can0 201#06000000400D0300
(1662116391.714024) can0 080#00
(1662116391.714282) can0 181#210000000000
(1662116391.714486) can0 281#131E38040000
(1662116391.714689) can0 381#78020C000700
(1662116391.715072) can0 6D0#2E000004390070B3
(1662116391.721709) can0 201#06000000400D0300
(1662116391.721882) can0 080#00
(1662116391.722111) can0 181#210000000000
(1662116391.722312) can0 281#131E38040000
(1662116391.722524) can0 381#78020C000700
(1662116391.723155) can0 6D0#2F000004390068AC
(1662116391.729527) can0 201#06000000400D0300
(1662116391.729699) can0 080#00
(1662116391.729928) can0 181#210000000000
(1662116391.730130) can0 281#141E38040000
(1662116391.730337) can0 381#78020D000700
(1662116391.731083) can0 6D0#3000000439000146
(1662116391.737337) can0 201#06000000400D0300
(1662116391.737517) can0 080#00
(1662116391.737777) can0 181#210000000000
(1662116391.737976) can0 281#131E38040000
(1662116391.738182) can0 381#78020C000700
(1662116391.739079) can0 6D0#3100000439000046
(1662116391.745140) can0 201#06000000400D0300
(1662116391.745320) can0 080#00
(1662116391.745548) can0 181#210000000000
(1662116391.745752) can0 281#131E38040000
(1662116391.745954) can0 381#78020C000700
(1662116391.752942) can0 201#06000000400D0300
(1662116391.753081) can0 080#00
(1662116391.753349) can0 181#210000000000
(1662116391.753549) can0 281#131E38040000
(1662116391.753752) can0 381#78020D000700
(1662116391.755122) can0 001#00000439000021D8
(1662116391.755361) can0 6D0#320000043996C3A0
(1662116391.760719) can0 201#06000000400D0300
(1662116391.760892) can0 080#00
(1662116391.761150) can0 181#210000000000
(1662116391.761352) can0 281#131E38040000
(1662116391.761555) can0 381#78020C000700
(1662116391.763073) can0 6D0#330000043996FEDC
(1662116391.768566) can0 201#06000000400D0300
(1662116391.768738) can0 080#00
(1662116391.768966) can0 181#210000000000
(1662116391.769167) can0 281#131E38040000
(1662116391.769373) can0 381#78020C000700
(1662116391.771147) can0 6D0#340000043996E9C8
(1662116391.776344) can0 201#06000000400D0300
(1662116391.776550) can0 080#00
(1662116391.776782) can0 181#210000000000
(1662116391.776982) can0 281#131E38040000
(1662116391.777183) can0 381#78020D000700
(1662116391.779072) can0 6D0#350000043996C1A1
(1662116391.784183) can0 201#06000000400D0300
(1662116391.784363) can0 080#00
(1662116391.784588) can0 181#210000000000
(1662116391.784794) can0 281#141E38040000
(1662116391.785000) can0 381#78020C000700
(1662116391.787141) can0 6D0#360000043996FCDD
(1662116391.791963) can0 201#06000000400D0300
(1662116391.792136) can0 080#00
(1662116391.792402) can0 181#210000000000
(1662116391.792602) can0 281#131E38040000
(1662116391.792805) can0 381#78020D000700
(1662116391.795070) can0 6D0#370000043996E8CA
(1662116391.795307) can0 200#05009B009B000000
(1662116391.798447) can0 080#052000A9
(1662116391.798731) can0 1838F380#0006200620210B03
(1662116391.799009) can0 1839F380#00202120040B03B4
(1662116391.799287) can0 18EEFF80#F30080F300401E90
(1662116391.800302) can0 201#06000000400D0300
(1662116391.800479) can0 080#00
(1662116391.800708) can0 181#210000000000
(1662116391.800910) can0 281#131E38040000
(1662116391.801118) can0 381#78020C000700
(1662116391.803118) can0 002#96FD96C254000000
(1662116391.807617) can0 201#06000000400D0300
(1662116391.807762) can0 080#00
(1662116391.808021) can0 181#210000000000
(1662116391.808224) can0 281#141E38040000
(1662116391.808429) can0 381#78020C000700
(1662116391.811039) can0 001#00000439000021D8
(1662116391.811281) can0 6D0#380000043900BE0B
(1662116391.815434) can0 201#06000000400D0300
(1662116391.815604) can0 080#00
(1662116391.815835) can0 181#210000000000
(1662116391.816037) can0 281#131E38040000
(1662116391.816244) can0 381#78020C000700
(1662116391.823207) can0 201#06000000400D0300
(1662116391.823385) can0 080#00
(1662116391.823642) can0 181#210000000000
(1662116391.823845) can0 281#131E38040000
(1662116391.824052) can0 381#78020C000700
(1662116391.831052) can0 201#06000000400D0300
(1662116391.831194) can0 080#00
(1662116391.831459) can0 181#210000000000
(1662116391.831659) can0 281#131E38040000
(1662116391.831862) can0 381#78020D000700
(1662116391.835078) can0 6D0#390000043900BE0C
(1662116391.838860) can0 201#06000000400D0300
(1662116391.839005) can0 080#00
(1662116391.839268) can0 181#210000000000
(1662116391.839465) can0 281#131E38040000
(1662116391.839669) can0 381#78020D000700
(1662116391.843141) can0 6D0#3A0000043900BE0D
(1662116391.846674) can0 201#06000000400D0300
(1662116391.846815) can0 080#00
(1662116391.847072) can0 181#210000000000
(1662116391.847280) can0 281#131E38040000
(1662116391.847482) can0 381#78020C000700
(1662116391.851074) can0 6D0#3B00000439A41004
(1662116391.854489) can0 201#06000000400D0300
(1662116391.854662) can0 080#00
(1662116391.854890) can0 181#210000000000
(1662116391.855094) can0 281#131E38040000
(1662116391.855297) can0 381#78020C000700
(1662116391.859146) can0 6D0#3C0000043961A85A
(1662116391.862305) can0 201#06000000400D0300
(1662116391.862480) can0 080#00
(1662116391.862707) can0 181#210000000000
(1662116391.862913) can0 281#131E38040000
(1662116391.863118) can0 381#77020C000700
(1662116391.867038) can0 001#00000439000021D8
(1662116391.867281) can0 6D0#3D00000439000557
(1662116391.870076) can0 201#06000000400D0300
(1662116391.870280) can0 080#00
(1662116391.870509) can0 181#210000000000
(1662116391.870713) can0 281#131E38040000
(1662116391.870917) can0 381#78020C000700
(1662116391.877918) can0 201#06000000400D0300
(1662116391.878062) can0 080#00
(1662116391.878325) can0 181#210000000000
(1662116391.878527) can0 281#131E38040000
(1662116391.878728) can0 381#78020D000700
(1662116391.883072) can0 6D0#3E00000439002A7D
(1662116391.885697) can0 201#06000000400D0300
(1662116391.885868) can0 080#00
(1662116391.886126) can0 181#210000000000
(1662116391.886332) can0 281#141E38040000
(1662116391.886536) can0 381#78020C000700
(1662116391.893540) can0 201#06000000400D0300
(1662116391.893713) can0 080#00
(1662116391.893944) can0 181#210000000000
(1662116391.894145) can0 281#141E38040000
(1662116391.894356) can0 381#78020A000700
(1662116391.898385) can0 080#062100AB
(1662116391.898659) can0 1838F380#000B210B20210B03
(1662116391.898943) can0 1839F380#00202120040B03B4
(1662116391.901492) can0 201#06000000400D0300
(1662116391.901667) can0 080#00
(1662116391.901895) can0 181#210000000000
(1662116391.902096) can0 281#131E38040000
(1662116391.902296) can0 381#78020D000700
(1662116391.907112) can0 002#96FC96C354000000
(1662116391.909245) can0 201#06000000400D0300
(1662116391.909420) can0 080#00
(1662116391.909677) can0 181#210000000000
(1662116391.909882) can0 281#131E38040000
(1662116391.910083) can0 381#78020D000700
(1662116391.915069) can0 6D0#3F00000439000559
(1662116391.917047) can0 201#06000000400D0300
(1662116391.917223) can0 080#00
(1662116391.917452) can0 181#210000000000
(1662116391.917659) can0 281#141E38040000
(1662116391.917862) can0 381#78020C000700
(1662116391.923106) can0 001#00000439000021D8
(1662116391.924863) can0 201#06000000400D0300
(1662116391.925034) can0 080#00
(1662116391.925263) can0 181#210000000000
(1662116391.925470) can0 281#141E38040000
(1662116391.925673) can0 381#78020C000700
(1662116391.931066) can0 6D0#4000000439002A7F
(1662116391.932679) can0 201#06000000400D0300
(1662116391.932843) can0 080#00
(1662116391.933071) can0 181#210000000000
(1662116391.933277) can0 281#131E38040000
(1662116391.933479) can0 381#78020C000700
(1662116391.939142) can0 6D0#4100000439000E64
(1662116391.940491) can0 201#06000000400D0300
(1662116391.940661) can0 080#00
(1662116391.940890) can0 181#210000000000
(1662116391.941094) can0 281#141E38040000
(1662116391.941298) can0 381#78020C000700
(1662116391.947064) can0 6D0#4200000439000D64
(1662116391.948293) can0 201#06000000400D0300
(1662116391.948470) can0 080#00
(1662116391.948698) can0 181#210001000000
(1662116391.948900) can0 281#131E38040000
(1662116391.949105) can0 381#78020C000800
(1662116391.955129) can0 6D0#43000004390194ED
(1662116391.956109) can0 201#06000000400D0300
(1662116391.956285) can0 080#00
(1662116391.956542) can0 181#210000000000
(1662116391.956746) can0 281#141E38040000
(1662116391.956956) can0 381#78020D000700
(1662116391.963062) can0 6D0#440000043902338E
(1662116391.963917) can0 201#06000000400D0300
(1662116391.964089) can0 080#00
(1662116391.964354) can0 181#210000000000
(1662116391.964559) can0 281#141E38040000
(1662116391.964763) can0 381#78020C000700
(1662116391.971061) can0 6D0#4500000439008FE9
(1662116391.971717) can0 201#06000000400D0300
(1662116391.971890) can0 080#00
(1662116391.972122) can0 181#210000000000
(1662116391.972323) can0 281#141E38040000
(1662116391.972525) can0 381#78020D000700
(1662116391.979039) can0 001#00000439000021D8
(1662116391.979537) can0 201#06000000400D0300
(1662116391.979711) can0 080#00
(1662116391.979939) can0 181#210000000000
(1662116391.980142) can0 281#131E38040000
(1662116391.980347) can0 381#78020C000700
(1662116391.987135) can0 6D0#4600000439007AD5
(1662116391.987380) can0 201#06000000400D0300
(1662116391.987524) can0 080#00
(1662116391.987755) can0 181#210000000000
(1662116391.987959) can0 281#131E38040000
(1662116391.988161) can0 381#78020C000700
(1662116391.995052) can0 201#06000000400D0300
(1662116391.995290) can0 6D0#4700000439080064
(1662116391.995404) can0 080#00
(1662116391.995617) can0 181#210000000000
(1662116391.995822) can0 281#141E38040000
(1662116391.996027) can0 381#78020C000700
(1662116391.998382) can0 080#052000A9
(1662116391.998667) can0 1838F380#0000200020210B03
(1662116391.998950) can0 1839F380#00202120040B03B4
(1662116392.000633) can0 18EEFF80#F30080F300401E90
(1662116392.002981) can0 201#06000000400D0300
(1662116392.003212) can0 6D0#4800000439080065
(1662116392.003331) can0 080#00
(1662116392.003538) can0 181#210000000000
(1662116392.003742) can0 281#141E38040000
(1662116392.003950) can0 381#78020C000700
(1662116392.010707) can0 201#06000000400D0300
(1662116392.010849) can0 080#00
(1662116392.011089) can0 002#96FD96C254000000
(1662116392.011301) can0 181#210000000000
(1662116392.011504) can0 281#141E38040000
(1662116392.011710) can0 381#78020C000700
(1662116392.011948) can0 6D0#490000043900005E
(1662116392.018531) can0 201#06000000400D0300
(1662116392.018704) can0 080#00
(1662116392.018933) can0 181#210000000000
(1662116392.019144) can0 281#131E38040000
(1662116392.019338) can0 381#78020C000700
(1662116392.026303) can0 201#06000000400D0300
(1662116392.026504) can0 080#00
(1662116392.026734) can0 181#210000000000
(1662116392.026937) can0 281#141E38040000
(1662116392.027138) can0 381#78020D000700
(1662116392.027373) can0 6D0#4A00000439081D84
(1662116392.034150) can0 201#06000000400D0300
(1662116392.034329) can0 080#00
(1662116392.034555) can0 181#210000000000
(1662116392.034760) can0 281#141E38040000
(1662116392.034965) can0 381#78020C000700
(1662116392.035205) can0 001#00000439000021D8
(1662116392.041963) can0 201#06000000400D0300
(1662116392.042134) can0 080#00
(1662116392.042369) can0 181#210000000000
(1662116392.042572) can0 281#131E38040000
(1662116392.042778) can0 381#78020A000700
(1662116392.043061) can0 6D0#4B000004390D9A07
(1662116392.049779) can0 201#06000000400D0300
(1662116392.049954) can0 080#00
(1662116392.050178) can0 181#210000000000
(1662116392.050382) can0 281#141E38040000
(1662116392.050586) can0 381#78020C000700
(1662116392.057548) can0 201#06000000400D0300
(1662116392.057713) can0 080#00
(1662116392.057975) can0 181#210000000000
(1662116392.058174) can0 281#131E38040000
(1662116392.058379) can0 381#78020C000700
(1662116392.059055) can0 6D0#4C00000439119406
(1662116392.065405) can0 201#06000000400D0300
(1662116392.065580) can0 080#00
(1662116392.065838) can0 181#210000000000
(1662116392.066040) can0 281#131E38040000
(1662116392.066243) can0 381#77020D000700
(1662116392.067129) can0 6D0#4D00000439076CD5
(1662116392.073211) can0 201#06000000400D0300
(1662116392.073381) can0 080#00
(1662116392.073610) can0 181#210000000000
(1662116392.073815) can0 281#141E38040000
(1662116392.074016) can0 381#78020D000700
(1662116392.075062) can0 6D0#4E00000439000164
(1662116392.081021) can0 201#06000000400D0300
(1662116392.081193) can0 080#00
(1662116392.081436) can0 181#210000000000
(1662116392.081634) can0 281#141E38040000
(1662116392.081835) can0 381#78020C000700
(1662116392.083137) can0 6D0#4F0000043990A195
(1662116392.088832) can0 201#06000000400D0300
(1662116392.089005) can0 080#00
(1662116392.089236) can0 181#210000000000
(1662116392.089441) can0 281#141E38040000
(1662116392.089649) can0 381#77020C000700
(1662116392.091033) can0 001#00000439000021D8
(1662116392.091265) can0 6D0#50000004394F31E5
(1662116392.096594) can0 201#06000000400D0300
(1662116392.096766) can0 080#00
(1662116392.097024) can0 181#210000000000
(1662116392.097227) can0 281#131E38040000
(1662116392.097429) can0 381#78020C000700
(1662116392.098374) can0 080#062100AB
(1662116392.098656) can0 1838F380#0003200320210B03
(1662116392.098943) can0 1839F380#00202120040B03B4
(1662116392.099178) can0 6D0#51000004392131B8
(1662116392.104442) can0 201#06000000400D0300
(1662116392.104619) can0 080#00
(1662116392.104848) can0 181#210000000000
(1662116392.105045) can0 281#131E38040000
(1662116392.105252) can0 381#78020C000700
(1662116392.107059) can0 6D0#5200000439000067
(1662116392.112251) can0 201#06000000400D0300
(1662116392.112429) can0 080#00
(1662116392.112655) can0 181#210000000000
(1662116392.112861) can0 281#131E38040000
(1662116392.113063) can0 381#78020C000700
(1662116392.115102) can0 002#96FC96C254000000
(1662116392.120031) can0 201#06000000400D0300
(1662116392.120236) can0 080#00
(1662116392.120464) can0 181#210000000000
(1662116392.120670) can0 281#131E38040000
(1662116392.120870) can0 381#78020A000700
(1662116392.123061) can0 6D0#5300000439000068
(1662116392.127871) can0 201#06000000400D0300
(1662116392.128016) can0 080#00
(1662116392.128273) can0 181#210000000000
(1662116392.128484) can0 281#141E38040000
(1662116392.128680) can0 381#78020D000700
(1662116392.135650) can0 201#06000000400D0300
(1662116392.135820) can0 080#00
(1662116392.136080) can0 181#210000000000
(1662116392.136282) can0 281#131E38040000
(1662116392.136486) can0 381#78020C000700
(1662116392.139055) can0 6D0#54000004390236A1
(1662116392.143508) can0 201#06000000400D0300
(1662116392.143677) can0 080#00
(1662116392.143906) can0 181#210000000000
(1662116392.144109) can0 281#131E38040000
(1662116392.144316) can0 381#78020C000700
(1662116392.147103) can0 001#00000439000021D8
(1662116392.151302) can0 201#06000000400D0300
(1662116392.151482) can0 080#00
(1662116392.151715) can0 181#210000000000
(1662116392.151916) can0 281#141E38040000
(1662116392.152119) can0 381#78020D000700
(1662116392.155054) can0 6D0#550000043900006A
(1662116392.159119) can0 201#06000000400D0300
(1662116392.159296) can0 080#00
(1662116392.159524) can0 181#210000000000
(1662116392.159729) can0 281#141E38040000
(1662116392.159933) can0 381#78020A000700
(1662116392.163123) can0 6D0#560000043900006B
(1662116392.166896) can0 201#06000000400D0300
(1662116392.167068) can0 080#00
(1662116392.167334) can0 181#210000000000
(1662116392.167535) can0 281#131E38040000
(1662116392.167737) can0 381#78020A000700
(1662116392.171052) can0 6D0#570000043900006C
(1662116392.174739) can0 201#06000000400D0300
(1662116392.174882) can0 080#00
(1662116392.175147) can0 181#210000000000
(1662116392.175345) can0 281#141E38040000
(1662116392.175549) can0 381#78020C000700
(1662116392.179132) can0 6D0#5800000439FFD844
(1662116392.182517) can0 201#06000000400D0300
(1662116392.182690) can0 080#00
(1662116392.182948) can0 181#210000000000
(1662116392.183151) can0 281#131E38040000
(1662116392.183357) can0 381#77020C000800
(1662116392.187055) can0 6D0#590000043900006E
(1662116392.190365) can0 201#06000000400D0300
(1662116392.190540) can0 080#00
(1662116392.190771) can0 181#210000000000
(1662116392.190977) can0 281#141E38040000
(1662116392.191178) can0 381#77020A000800
(1662116392.195130) can0 6D0#5A0000043900006F
(1662116392.198140) can0 201#06000000400D0300
(1662116392.198347) can0 080#00
(1662116392.198628) can0 1838F380#0006200620210B03
(1662116392.198843) can0 181#210000000000
(1662116392.199046) can0 281#131E38040000
(1662116392.199255) can0 381#77020C000700
(1662116392.199538) can0 1839F380#00202120040B03B4
(1662116392.199706) can0 080#052000A9
(1662116392.201045) can0 18EEFF80#F30080F300401E90
(1662116392.203022) can0 001#00000439000021D8
(1662116392.203263) can0 6D0#5B00000439000070
(1662116392.205984) can0 201#06000000400D0300
(1662116392.206127) can0 080#00
(1662116392.206388) can0 181#210000000000
(1662116392.206592) can0 281#131E38040000
(1662116392.206801) can0 381#78020C000700
(1662116392.211052) can0 6D0#5C00000439000071
(1662116392.213773) can0 201#06000000400D0300
(1662116392.213933) can0 080#00
(1662116392.214194) can0 181#210000000000
(1662116392.214394) can0 281#131E38040000
(1662116392.214599) can0 381#78020C000700
(1662116392.219107) can0 002#96FD96C354000000
(1662116392.219345) can0 6D0#5D00000439000072
(1662116392.221681) can0 201#06000000400D0300
(1662116392.221853) can0 080#00
(1662116392.222083) can0 181#210000000000
(1662116392.222285) can0 281#131E38040000
(1662116392.222486) can0 381#77020A000700
(1662116392.227051) can0 6D0#5E00000439000073
(1662116392.229507) can0 201#06000000400D0300
(1662116392.229676) can0 080#00
(1662116392.229941) can0 181#210000000000
(1662116392.230138) can0 281#141E38040000
(1662116392.230342) can0 381#78020C000700
(1662116392.235124) can0 6D0#5F00000439000074
(1662116392.237304) can0 201#06000000400D0300
(1662116392.237484) can0 080#00
(1662116392.237738) can0 181#210001000000
(1662116392.237943) can0 281#141E38040000
(1662116392.238148) can0 381#78020C000700
(1662116392.243054) can0 6D0#6000000439000075
(1662116392.245118) can0 201#06000000400D0300
(1662116392.245292) can0 080#00
(1662116392.245519) can0 181#210000000000
(1662116392.245724) can0 281#131E38040000
(1662116392.245928) can0 381#78020C000700
(1662116392.252819) can0 201#06000000400D0300
(1662116392.252991) can0 080#00
(1662116392.253248) can0 181#210000000000
(1662116392.253455) can0 281#141E38040000
(1662116392.253661) can0 381#77020C000700
(1662116392.259023) can0 001#00000439000021D8
(1662116392.259261) can0 6D0#6100000439000076
(1662116392.260799) can0 201#06000000400D0300
(1662116392.260970) can0 080#00
(1662116392.261202) can0 181#210000000000
(1662116392.261404) can0 281#141E38040000
(1662116392.261604) can0 381#78020D000700
(1662116392.268483) can0 201#06000000400D0300
(1662116392.268656) can0 080#00
(1662116392.268884) can0 181#210000000000
(1662116392.269086) can0 281#141E38040000
(1662116392.269298) can0 381#77020C000700
(1662116392.275054) can0 6D0#6200000439000077
(1662116392.276364) can0 201#06000000400D0300
(1662116392.276538) can0 080#00
(1662116392.276768) can0 181#210000000000
(1662116392.276969) can0 281#131E38040000
(1662116392.277170) can0 381#78020C000700
(1662116392.284094) can0 201#06000000400D0300
(1662116392.284272) can0 080#00
(1662116392.284499) can0 181#210001000000
(1662116392.284701) can0 281#141E38040000
(1662116392.284905) can0 381#78020C000700
(1662116392.291050) can0 6D0#6300000439000078
(1662116392.291977) can0 201#06000000400D0300
(1662116392.292151) can0 080#00
(1662116392.292384) can0 181#210000000000
(1662116392.292589) can0 281#131E38040000
(1662116392.292790) can0 381#78020C000700
(1662116392.298370) can0 080#062100AB
(1662116392.298649) can0 1838F380#000B210B20210B03
(1662116392.298933) can0 1839F380#00202120040B03B4
(1662116392.300051) can0 201#06000000400D0300
(1662116392.300222) can0 080#00
(1662116392.300479) can0 181#210000000000
(1662116392.300683) can0 281#131E38040000
(1662116392.300887) can0 381#78020C000700
(1662116392.307049) can0 6D0#6400000439000079
(1662116392.307596) can0 201#06000000400D0300
(1662116392.307769) can0 080#00
(1662116392.307995) can0 181#210000000000
(1662116392.308202) can0 281#141E38040000
(1662116392.308408) can0 381#78020C000700
(1662116392.315100) can0 001#00000439000021D8
(1662116392.315347) can0 201#06000000400D0300
(1662116392.315583) can0 6D0#650000043900007A
(1662116392.315700) can0 080#00
(1662116392.315921) can0 181#210000000000
(1662116392.316122) can0 281#131E38040000
(1662116392.316324) can0 381#78020C000700
(1662116392.323030) can0 002#96FD96C354000000
(1662116392.323280) can0 201#06000000400D0300
(1662116392.323517) can0 6D0#660000043900007B
(1662116392.323630) can0 080#00
(1662116392.323845) can0 181#210000000000
(1662116392.324048) can0 281#141E38040000
(1662116392.324250) can0 381#78020C000700
(1662116392.330963) can0 201#06000000400D0300
(1662116392.331133) can0 080#00
(1662116392.331365) can0 181#210001000000
(1662116392.331568) can0 281#141E38040000
(1662116392.331770) can0 381#78020C000700
(1662116392.338777) can0 201#06000000400D0300
(1662116392.339048) can0 6D0#6700000439FFFF7A
(1662116392.339163) can0 080#00
(1662116392.339376) can0 181#210000000000
(1662116392.339582) can0 281#131E38040000
(1662116392.339782) can0 381#78020C000700
(1662116392.346552) can0 201#06000000400D0300
(1662116392.346723) can0 080#00
(1662116392.346982) can0 181#210000000000
(1662116392.347186) can0 281#141E38040000
(1662116392.347390) can0 381#78020C000700
(1662116392.354401) can0 201#06000000400D0300
(1662116392.354575) can0 080#00
(1662116392.354801) can0 181#210000000000
(1662116392.355008) can0 281#141E38040000
(1662116392.355207) can0 381#78020A000700
(1662116392.355449) can0 6D0#6E000004390040C3
(1662116392.362216) can0 201#06000000400D0300
(1662116392.362393) can0 080#00
(1662116392.362623) can0 181#210000000000
(1662116392.362827) can0 281#141E38040000
(1662116392.363030) can0 381#78020D000700
(1662116392.370017) can0 201#06000000400D0300
(1662116392.370196) can0 080#00
(1662116392.370419) can0 181#210001000000
(1662116392.370628) can0 281#141E38040000
(1662116392.370827) can0 381#78020C000700
(1662116392.371069) can0 001#00000439000021D8
(1662116392.371308) can0 6D0#7300000439080090
(1662116392.377846) can0 201#06000000400D0300
(1662116392.378013) can0 080#00
(1662116392.378244) can0 181#210000000000
(1662116392.378446) can0 281#131E38040000
(1662116392.378654) can0 381#78020C000700
(1662116392.385637) can0 201#06000000400D0300
(1662116392.385780) can0 080#00
(1662116392.386037) can0 181#210000000000
(1662116392.386243) can0 281#141E38040000
(1662116392.386448) can0 381#78020C000700
(1662116392.393458) can0 201#06000000400D0300
(1662116392.393631) can0 080#00
(1662116392.393860) can0 181#210000000000
(1662116392.394062) can0 281#141E38040000
(1662116392.394267) can0 381#78020C000700
(1662116392.395049) can0 6D0#7400000439080192
(1662116392.398361) can0 080#052000A9
(1662116392.398649) can0 1838F380#0000200020210B03
(1662116392.398931) can0 1839F380#00202120040B03B4
(1662116392.399210) can0 18EEFF80#F30080F300401E90
(1662116392.401472) can0 201#06000000400D0300
(1662116392.401641) can0 080#00
(1662116392.401898) can0 181#210000000000
(1662116392.402105) can0 281#141E38040000
(1662116392.402310) can0 381#78020C000700
(1662116392.403117) can0 6D0#750000043900008A
(1662116392.409088) can0 201#06000000400D0300
(1662116392.409265) can0 080#00
(1662116392.409495) can0 181#210000000000
(1662116392.409698) can0 281#131E38040000
(1662116392.409903) can0 381#78020C000700
(1662116392.411042) can0 6D0#760000043900008B
(1662116392.416905) can0 201#06000000400D0300
(1662116392.417067) can0 080#00
(1662116392.417304) can0 181#210000000000
(1662116392.417507) can0 281#131E38040000
(1662116392.417709) can0 381#78020D000700
(1662116392.424663) can0 201#06000000400D0300
(1662116392.424836) can0 080#00
(1662116392.425093) can0 181#210000000000
(1662116392.425297) can0 281#141E38040000
(1662116392.425498) can0 381#78020A000700
(1662116392.427015) can0 001#00000439000021D8
(1662116392.427254) can0 002#96FD96C254000000
(1662116392.427491) can0 6D0#770000043900008C
(1662116392.432504) can0 201#06000000400D0300
(1662116392.432678) can0 080#00
(1662116392.432907) can0 181#210001000000
(1662116392.433105) can0 281#131E38040000
(1662116392.433307) can0 381#78020D000700
(1662116392.440320) can0 201#06000000400D0300
(1662116392.440493) can0 080#00
(1662116392.440723) can0 181#210000000000
(1662116392.440925) can0 281#131E38040000
(1662116392.441126) can0 381#78020A000700
(1662116392.443043) can0 6D0#780000043900008D
(1662116392.448127) can0 201#06000000400D0300
(1662116392.448305) can0 080#00
(1662116392.448533) can0 181#210000000000
(1662116392.448735) can0 281#131E38040000
(1662116392.448938) can0 381#78020D000700
(1662116392.455938) can0 201#06000000400D0300
(1662116392.456083) can0 080#00
(1662116392.456341) can0 181#210000000000
(1662116392.456547) can0 281#141E38040000
(1662116392.456756) can0 381#78020C000700
(1662116392.459049) can0 6D0#790000043900008E
(1662116392.463750) can0 201#06000000400D0300
(1662116392.463890) can0 080#00
(1662116392.464152) can0 181#210000000000
(1662116392.464355) can0 281#141E38040000
(1662116392.464559) can0 381#78020C000700
(1662116392.471531) can0 201#06000000400D0300
(1662116392.471698) can0 080#00
(1662116392.471964) can0 181#210000000000
(1662116392.472162) can0 281#141E38040000
(1662116392.472366) can0 381#78020C000700
(1662116392.475040) can0 6D0#7A0000043900008F
(1662116392.479378) can0 201#06000000400D0300
(1662116392.479549) can0 080#00
(1662116392.479788) can0 181#210000000000
(1662116392.479983) can0 281#131E38040000
(1662116392.480187) can0 381#78020C000700
(1662116392.483096) can0 001#00000439000021D8
(1662116392.483328) can0 6D0#7B00000439000393
(1662116392.487184) can0 201#06000000400D0300
(1662116392.487362) can0 080#00
(1662116392.487593) can0 181#210000000000
(1662116392.487795) can0 281#131E38040000
(1662116392.488001) can0 381#78020C000700
(1662116392.491039) can0 6D0#7C00000439000697
(1662116392.494991) can0 201#06000000400D0300
(1662116392.495167) can0 080#00
(1662116392.495403) can0 181#210000000000
(1662116392.495603) can0 281#131E38040000
(1662116392.495808) can0 381#78020C000700
(1662116392.498377) can0 080#062100AB
(1662116392.498659) can0 1838F380#0003200320210B03
(1662116392.498941) can0 1839F380#00202120040B03B4
(1662116392.499179) can0 6D0#7D000004390030C2
(1662116392.502774) can0 201#06000000400D0300
(1662116392.502943) can0 080#00
(1662116392.503203) can0 181#210000000000
(1662116392.503405) can0 281#141E38040000
(1662116392.503610) can0 381#78020C000700
(1662116392.507041) can0 6D0#7E00000439000093
(1662116392.510582) can0 201#06000000400D0300
(1662116392.510756) can0 080#00
(1662116392.511015) can0 181#210000000000
(1662116392.511215) can0 281#131E38040000
(1662116392.511420) can0 381#78020C000700
(1662116392.518437) can0 201#06000000400D0300
(1662116392.518607) can0 080#00
(1662116392.518838) can0 181#210000000000
(1662116392.519041) can0 281#131E38040000
(1662116392.519243) can0 381#78020C000700
(1662116392.523035) can0 6D0#7F0000043902EE84
(1662116392.526239) can0 201#06000000400D0300
(1662116392.526415) can0 080#00
(1662116392.526646) can0 181#210000000000
(1662116392.526848) can0 281#131E38040000
(1662116392.527049) can0 381#78020D000700
(1662116392.531085) can0 002#96FD96C254000000
(1662116392.534029) can0 201#06000000400D0300
(1662116392.534223) can0 080#00
(1662116392.534455) can0 181#210000000000
(1662116392.534655) can0 281#131E38040000
(1662116392.534860) can0 381#78020C000700
(1662116392.539010) can0 001#00000439000021D8
(1662116392.539250) can0 6D0#8000000439000095
(1662116392.541860) can0 201#06000000400D0300
(1662116392.542001) can0 080#00
(1662116392.542269) can0 181#210000000000
(1662116392.542469) can0 281#141E38040000
(1662116392.542669) can0 381#78020C000700
(1662116392.549672) can0 201#06000000400D0300
(1662116392.549813) can0 080#00
(1662116392.550073) can0 181#210000000000
(1662116392.550282) can0 281#131E38040000
(1662116392.550476) can0 381#78020D000700
(1662116392.555041) can0 6D0#0000000439010319
(1662116392.557509) can0 201#06000000400D0300
(1662116392.557681) can0 080#00
(1662116392.557941) can0 181#210000000000
(1662116392.558142) can0 281#131E38040000
(1662116392.558344) can0 381#78020D000700
(1662116392.565293) can0 201#06000000400D0300
(1662116392.565469) can0 080#00
(1662116392.565700) can0 181#210000000000
(1662116392.565903) can0 281#131E38040000
(1662116392.566104) can0 381#78020D000700
(1662116392.571043) can0 6D0#010000043906031F
(1662116392.573182) can0 201#06000000400D0300
(1662116392.573358) can0 080#00
(1662116392.573589) can0 181#210000000000
(1662116392.573792) can0 281#141E38040000
(1662116392.573992) can0 381#78020A000700
(1662116392.579102) can0 6D0#0200000439057A96
(1662116392.580995) can0 201#06000000400D0300
(1662116392.581165) can0 080#00
(1662116392.581431) can0 181#210000000000
(1662116392.581633) can0 281#141E38040000
(1662116392.581836) can0 381#78020D000700
(1662116392.587038) can0 6D0#030000043924033F
(1662116392.588801) can0 201#06000000400D0300
(1662116392.588974) can0 080#00
(1662116392.589206) can0 181#210000000000
(1662116392.589406) can0 281#131E38040000
(1662116392.589609) can0 381#78020D000700
(1662116392.595077) can0 001#00000439000021D8
(1662116392.595315) can0 6D0#040000043900637C
(1662116392.596674) can0 201#06000000400D0300
(1662116392.596847) can0 080#00
(1662116392.597077) can0 181#210000000000
(1662116392.597285) can0 281#141E38040000
(1662116392.597484) can0 381#78020C000700
(1662116392.598367) can0 080#052000A9
(1662116392.598649) can0 1838F380#0006200620210B03
(1662116392.598937) can0 1839F380#00202120040B03B4
(1662116392.600632) can0 18EEFF80#F30080F300401E90
(1662116392.603040) can0 6D0#050000043900001A
(1662116392.604431) can0 201#06000000400D0300
(1662116392.604606) can0 080#00
(1662116392.604863) can0 181#210000000000
(1662116392.605066) can0 281#131E38040000
(1662116392.605269) can0 381#78020C000700
(1662116392.612126) can0 201#06000000400D0300
(1662116392.612336) can0 080#00
(1662116392.612565) can0 181#210000000000
(1662116392.612769) can0 281#131E38040000
(1662116392.612968) can0 381#78020D000700
(1662116392.619036) can0 6D0#060000043900304B
(1662116392.620045) can0 201#06000000400D0300
(1662116392.620222) can0 080#00
(1662116392.620454) can0 181#210000000000
(1662116392.620662) can0 281#141E38040000
(1662116392.620858) can0 381#78020D000700
(1662116392.627787) can0 201#06000000400D0300
(1662116392.627960) can0 080#00
(1662116392.628188) can0 181#210000000000
(1662116392.628390) can0 281#131E38040000
(1662116392.628593) can0 381#78020C000700
(1662116392.635014) can0 002#96FC96C254000000
(1662116392.635252) can0 6D0#0700000439001C38
(1662116392.635724) can0 201#06000000400D0300
(1662116392.635899) can0 080#00
(1662116392.636134) can0 181#210000000000
(1662116392.636332) can0 281#131E38040000
(1662116392.636530) can0 381#78020D000700
(1662116392.643105) can0 6D0#0800000439003552
(1662116392.643481) can0 201#06000000400D0300
(1662116392.643653) can0 080#00
(1662116392.643885) can0 181#210000000000
(1662116392.644086) can0 281#131E38040000
(1662116392.644290) can0 381#78020C000700
(1662116392.651010) can0 001#00000439000021D7
(1662116392.651256) can0 201#06000000400D0300
(1662116392.651495) can0 6D0#090000043900001E
(1662116392.651610) can0 080#00
(1662116392.651823) can0 181#210000000000
(1662116392.652028) can0 281#141E38040000
(1662116392.652231) can0 381#78020C000700
(1662116392.659025) can0 201#06000000400D0300
(1662116392.659264) can0 6D0#0A00000439007897
(1662116392.659374) can0 080#00
(1662116392.659589) can0 181#210000000000
(1662116392.659792) can0 281#131E38040000
(1662116392.659995) can0 381#78020C000700
(1662116392.666844) can0 201#06000000400D0300
(1662116392.667073) can0 6D0#0B00000439025476
(1662116392.667188) can0 080#00
(1662116392.667402) can0 181#210000000000
(1662116392.667606) can0 281#141E38040000
(1662116392.667809) can0 381#78020C000700
(1662116392.674648) can0 201#06000000400D0300
(1662116392.674827) can0 080#00
(1662116392.675052) can0 181#210000000000
(1662116392.675253) can0 281#131E38040000
(1662116392.675459) can0 381#78020C000700
(1662116392.675700) can0 6D0#0C00000439000021
(1662116392.682476) can0 201#06000000400D0300
(1662116392.682650) can0 080#00
(1662116392.682884) can0 181#210000000000
(1662116392.683081) can0 281#131E38040000
(1662116392.683284) can0 381#78020C000700
(1662116392.683525) can0 6D0#0D0000043904395F
(1662116392.690283) can0 201#06000000400D0300
(1662116392.690460) can0 080#00
(1662116392.690689) can0 181#210000000000
(1662116392.690890) can0 281#131E38040000
(1662116392.691098) can0 381#78020C000700
(1662116392.698084) can0 201#06000000400D0300
(1662116392.698260) can0 080#00
(1662116392.698542) can0 1838F380#000B210B20210B03
(1662116392.698754) can0 181#210000000000
(1662116392.698955) can0 281#131E38040000
(1662116392.699162) can0 381#78020C000800
(1662116392.699448) can0 1839F380#00202120040B03B4
(1662116392.699610) can0 080#062100AB
(1662116392.699849) can0 6D0#0E00000439043960
(1662116392.705908) can0 201#06000000400D0300
(1662116392.706078) can0 080#00
(1662116392.706342) can0 181#210000000000
(1662116392.706547) can0 281#131E38040000
(1662116392.706753) can0 381#78020C000700
(1662116392.707073) can0 001#00000439000021D7
(1662116392.713716) can0 201#06000000400D0300
(1662116392.713890) can0 080#00
(1662116392.714123) can0 181#210000000000
(1662116392.714322) can0 281#131E38040000
(1662116392.714531) can0 381#78020C000700
(1662116392.715030) can0 6D0#0F000004390089AD
(1662116392.721528) can0 201#06000000400D0300
(1662116392.721701) can0 080#00
(1662116392.721930) can0 181#210000000000
(1662116392.722136) can0 281#131E38040000
(1662116392.722334) can0 381#78020A000700
(1662116392.729335) can0 201#06000000400D0300
(1662116392.729507) can0 080#00
(1662116392.729746) can0 181#210000000000
(1662116392.729939) can0 281#141E38040000
(1662116392.730141) can0 381#78020D000700
(1662116392.731028) can0 6D0#100000043902042B
(1662116392.737150) can0 201#06000000400D0300
(1662116392.737329) can0 080#00
(1662116392.737592) can0 181#210000000000
(1662116392.737794) can0 281#141E38040000
(1662116392.737999) can0 381#78020C000700
(1662116392.739081) can0 002#96FD96C254000000
(1662116392.739321) can0 6D0#110000043900355B
(1662116392.744964) can0 201#06000000400D0300
(1662116392.745135) can0 080#00
(1662116392.745370) can0 181#210000000000
(1662116392.745573) can0 281#131E38040000
(1662116392.745773) can0 381#78020D000700
(1662116392.747037) can0 6D0#120000043900466D
(1662116392.752772) can0 201#06000000400D0300
(1662116392.752947) can0 080#00
(1662116392.753174) can0 181#210000000000
(1662116392.753379) can0 281#141E38040000
(1662116392.753579) can0 381#78020D000700
(1662116392.755103) can0 6D0#130000043900648C
(1662116392.760571) can0 201#06000000400D0300
(1662116392.760744) can0 080#00
(1662116392.760974) can0 181#210000000000
(1662116392.761177) can0 281#131E38040000
(1662116392.761377) can0 381#78020A000700
(1662116392.762998) can0 001#00000439000021D7
(1662116392.763241) can0 6D0#14000004392A4194
(1662116392.768394) can0 201#06000000400D0300
(1662116392.768565) can0 080#00
(1662116392.768796) can0 181#210000000000
(1662116392.768999) can0 281#131E38040000
(1662116392.769200) can0 381#78020D000700
(1662116392.771103) can0 6D0#15000004397FFFA8
(1662116392.776163) can0 201#06000000400D0300
(1662116392.776366) can0 080#00
(1662116392.776601) can0 181#210000000000
(1662116392.776799) can0 281#141E38040000
(1662116392.777004) can0 381#78020C000700
(1662116392.779036) can0 6D0#16000004390498C7
(1662116392.783970) can0 201#06000000400D0300
(1662116392.784142) can0 080#00
(1662116392.784406) can0 181#210000000000
(1662116392.784611) can0 281#141E38040000
(1662116392.784814) can0 381#78020C000700
(1662116392.791782) can0 201#06000000400D0300
(1662116392.791951) can0 080#00
(1662116392.792211) can0 181#210000000000
(1662116392.792415) can0 281#141E38040000
(1662116392.792618) can0 381#78020C000700
(1662116392.795093) can0 200#05009B009B000000
(1662116392.798360) can0 080#052000A9
(1662116392.798650) can0 1838F380#0000200020210B03
(1662116392.798931) can0 1839F380#00202120040B03B4
(1662116392.800020) can0 201#06000000400D0300
(1662116392.800227) can0 080#00
(1662116392.800456) can0 181#210000000000
(1662116392.800658) can0 281#131E38040000
(1662116392.800861) can0 381#78020C000700
(1662116392.801143) can0 18EEFF80#F30080F300401E90
(1662116392.803091) can0 6D0#170000043902BCEA
(1662116392.807444) can0 201#06000000400D0300
(1662116392.807618) can0 080#00
(1662116392.807847) can0 181#210000000000
(1662116392.808049) can0 281#131E38040000
(1662116392.808252) can0 381#78020C000700
(1662116392.811027) can0 6D0#1800000439000A37
(1662116392.815218) can0 201#06000000400D0300
(1662116392.815421) can0 080#00
(1662116392.815655) can0 181#210000000000
(1662116392.815858) can0 281#141E38040000
(1662116392.816065) can0 381#78020C000700
(1662116392.819069) can0 001#00000439000021D7
(1662116392.823059) can0 201#06000000400D0300
(1662116392.823235) can0 080#00
(1662116392.823465) can0 181#210000000000
(1662116392.823669) can0 281#141E38040000
(1662116392.823872) can0 381#78020C000700
(1662116392.827029) can0 6D0#1900000439000230
(1662116392.830872) can0 201#06000000400D0300
(1662116392.831012) can0 080#00
(1662116392.831275) can0 181#210000000000
(1662116392.831479) can0 281#141E38040000
(1662116392.831680) can0 381#78020A000700
(1662116392.838683) can0 201#06000000400D0300
(1662116392.838854) can0 080#00
(1662116392.839084) can0 181#210000000000
(1662116392.839286) can0 281#131E38040000
(1662116392.839493) can0 381#78020C000700
(1662116392.843001) can0 002#96FC96C254000000
(1662116392.843245) can0 6D0#1A00000439008AB9
(1662116392.846491) can0 201#06000000400D0300
(1662116392.846637) can0 080#00
(1662116392.846896) can0 181#210000000000
(1662116392.847096) can0 281#131E38040000
(1662116392.847297) can0 381#78020D000700
(1662116392.851095) can0 6D0#1B0000043901A4D5
(1662116392.854317) can0 201#06000000400D0300
(1662116392.854482) can0 080#00
(1662116392.854712) can0 181#210000000000
(1662116392.854922) can0 281#141E38040000
(1662116392.855119) can0 381#78020C000700
(1662116392.859021) can0 6D0#1C0000043903B6EA
(1662116392.862083) can0 201#06000000400D0300
(1662116392.862288) can0 080#00
(1662116392.862521) can0 181#210000000000
(1662116392.862722) can0 281#141E38040000
(1662116392.862926) can0 381#78020C000700
(1662116392.869897) can0 201#06000000400D0300
(1662116392.870066) can0 080#00
(1662116392.870331) can0 181#210000000000
(1662116392.870531) can0 281#131E38040000
(1662116392.870735) can0 381#78020C000700
(1662116392.875072) can0 001#00000439000021D7
(1662116392.877705) can0 201#06000000400D0300
(1662116392.877878) can0 080#00
(1662116392.878138) can0 181#210000000000
(1662116392.878340) can0 281#131E38040000
(1662116392.878542) can0 381#78020C000700
(1662116392.883025) can0 6D0#1D000004390078AA
(1662116392.885547) can0 201#06000000400D0300
(1662116392.885689) can0 080#00
(1662116392.885948) can0 181#210000000000
(1662116392.886151) can0 281#131E38040000
(1662116392.886359) can0 381#78020C000700
(1662116392.893366) can0 201#06000000400D0300
(1662116392.893538) can0 080#00
(1662116392.893767) can0 181#210000000000
(1662116392.893972) can0 281#141E38040000
(1662116392.894174) can0 381#78020C000700
(1662116392.898363) can0 080#062100AB
(1662116392.898645) can0 1838F380#0003200320210B03
(1662116392.898927) can0 1839F380#00202120040B03B4
(1662116392.899173) can0 6D0#1E00000439000033
(1662116392.901375) can0 201#06000000400D0300
(1662116392.901550) can0 080#00
(1662116392.901808) can0 181#210000000000
(1662116392.902012) can0 281#141E38040000
(1662116392.902217) can0 381#78020C000700
(1662116392.908948) can0 201#06000000400D0300
(1662116392.909119) can0 080#00
(1662116392.909388) can0 181#210000000000
(1662116392.909591) can0 281#141E38040000
(1662116392.909795) can0 381#78020C000700
(1662116392.915025) can0 6D0#1F00000439001448
(1662116392.916869) can0 201#06000000400D0300
(1662116392.917043) can0 080#00
(1662116392.917307) can0 181#210000000000
(1662116392.917510) can0 281#131E38040000
(1662116392.917721) can0 381#77020C000700
(1662116392.923095) can0 6D0#200000043900083D
(1662116392.924680) can0 201#06000000400D0300
(1662116392.924852) can0 080#00
(1662116392.925086) can0 181#210000000000
(1662116392.925286) can0 281#131E38040000
(1662116392.925488) can0 381#78020C000700
(1662116392.931001) can0 001#00000439000021D7
(1662116392.931249) can0 6D0#2100000439000036
(1662116392.932563) can0 201#06000000400D0300
(1662116392.932737) can0 080#00
(1662116392.932999) can0 181#210000000000
(1662116392.933201) can0 281#141E38040000
(1662116392.933402) can0 381#78020C000700
(1662116392.940226) can0 201#06000000400D0300
(1662116392.940405) can0 080#00
(1662116392.940632) can0 181#210000000000
(1662116392.940840) can0 281#141E38040000
(1662116392.941043) can0 381#78020C000700
(1662116392.947080) can0 002#96FE96C254000000
(1662116392.948118) can0 201#06000000400D0300
(1662116392.948287) can0 080#00
(1662116392.948514) can0 181#210000000000
(1662116392.948719) can0 281#131E38040000
(1662116392.948920) can0 381#78020D000700
(1662116392.955022) can0 6D0#2200000439000037
(1662116392.955921) can0 201#06000000400D0300
(1662116392.956096) can0 080#00
(1662116392.956361) can0 181#210000000000
(1662116392.956563) can0 281#131E38040000
(1662116392.956765) can0 381#78020C000700
(1662116392.963656) can0 201#06000000400D0300
(1662116392.963799) can0 080#00
(1662116392.964055) can0 181#210000000000
(1662116392.964261) can0 281#131E38040000
(1662116392.964464) can0 381#78020C000700
(1662116392.971018) can0 6D0#2300000439043975
(1662116392.971533) can0 201#06000000400D0300
(1662116392.971707) can0 080#00
(1662116392.971934) can0 181#210000000000
(1662116392.972136) can0 281#141E38040000
(1662116392.972346) can0 381#78020C000800
(1662116392.979289) can0 201#06000000400D0300
(1662116392.979461) can0 080#00
(1662116392.979691) can0 181#210000000000
(1662116392.979891) can0 281#131E38040000
(1662116392.980096) can0 381#78020C000700
(1662116392.986989) can0 001#00000439000021D7
(1662116392.987242) can0 201#06000000400D0300
(1662116392.987351) can0 080#00
(1662116392.987590) can0 6D0#240000043900528B
(1662116392.987801) can0 181#210000000000
(1662116392.988003) can0 281#131E38040000
(1662116392.988207) can0 381#78020C000700
(1662116392.994901) can0 201#06000000400D0300
(1662116392.995045) can0 080#00
(1662116392.995311) can0 181#210000000000
(1662116392.995511) can0 281#131E38040000
(1662116392.995713) can0 381#78020C000700
(1662116392.998407) can0 080#052000A9
(1662116392.998690) can0 1838F380#0006200620210B03
(1662116392.998984) can0 1839F380#00202120040B03B4
(1662116392.999258) can0 18EEFF80#F30080F300401E90
(1662116393.002688) can0 201#06000000400D0300
(1662116393.002852) can0 080#00
(1662116393.003089) can0 6D0#2500000439000842
(1662116393.003303) can0 181#210000000000
(1662116393.003504) can0 281#131E38040000
(1662116393.003706) can0 381#78020C000700
(1662116393.010523) can0 201#06000000400D0300
(1662116393.010665) can0 080#00
(1662116393.010925) can0 181#210000000000
(1662116393.011128) can0 281#131E38040000
(1662116393.011328) can0 381#78020C000700
(1662116393.011570) can0 6D0#2600000439EA173C
(1662116393.018359) can0 201#06000000400D0300
(1662116393.018529) can0 080#00
(1662116393.018788) can0 181#210000000000
(1662116393.018992) can0 281#131E38040000
(1662116393.019199) can0 381#77020C000700
(1662116393.026145) can0 201#06000000400D0300
(1662116393.026323) can0 080#00
(1662116393.026551) can0 181#210000000000
(1662116393.026757) can0 281#131E38040000
(1662116393.026958) can0 381#78020D000700
(1662116393.027204) can0 6D0#270000043900003C
(1662116393.033973) can0 201#06000000400D0300
(1662116393.034145) can0 080#00
(1662116393.034376) can0 181#210000000000
(1662116393.034579) can0 281#131E38040000
(1662116393.034782) can0 381#78020C000700
(1662116393.035023) can0 6D0#280000043900215E
(1662116393.041786) can0 201#06000000400D0300
(1662116393.041954) can0 080#00
(1662116393.042184) can0 181#210000000000
(1662116393.042387) can0 281#131E38040000
(1662116393.042588) can0 381#78020D000700
(1662116393.043059) can0 001#00000439000021D7
(1662116393.043298) can0 6D0#2900000439001F5D
(1662116393.049594) can0 201#06000000400D0300
(1662116393.049768) can0 080#00
(1662116393.049996) can0 181#210000000000
(1662116393.050197) can0 281#131E38040000
(1662116393.050400) can0 381#78020D000700
(1662116393.051002) can0 002#96FC96C354000000
(1662116393.051244) can0 6D0#2A0000043900205F
(1662116393.057415) can0 201#06000000400D0300
(1662116393.057585) can0 080#00
(1662116393.057846) can0 181#210000000000
(1662116393.058046) can0 281#131E38040000
(1662116393.058251) can0 381#78020C000700
(1662116393.059086) can0 6D0#2B00000439000040
(1662116393.065217) can0 201#06000000400D0300
(1662116393.065395) can0 080#00
(1662116393.065656) can0 181#210000000000
(1662116393.065856) can0 281#131E38040000
(1662116393.066059) can0 381#78020D000700
(1662116393.067020) can0 6D0#2C00000439000041
(1662116393.073032) can0 201#06000000400D0300
(1662116393.073206) can0 080#00
(1662116393.073435) can0 181#210000000000
(1662116393.073640) can0 281#141E38040000
(1662116393.073848) can0 381#78020C000700
(1662116393.075089) can0 6D0#2D00000439001F61
(1662116393.080837) can0 201#06000000400D0300
(1662116393.081011) can0 080#00
(1662116393.081248) can0 181#210000000000
(1662116393.081448) can0 281#131E38040000
(1662116393.081654) can0 381#78020C000700
(1662116393.083010) can0 6D0#2E000004390070B3
(1662116393.088638) can0 201#06000000400D0300
(1662116393.088810) can0 080#00
(1662116393.089051) can0 181#210000000000
(1662116393.089243) can0 281#131E38040000
(1662116393.089448) can0 381#78020C000700
(1662116393.096414) can0 201#06000000400D0300
(1662116393.096584) can0 080#00
(1662116393.096847) can0 181#210000000000
(1662116393.097050) can0 281#141E38040000
(1662116393.097252) can0 381#78020D000700
(1662116393.098358) can0 080#062100AB
(1662116393.098641) can0 1838F380#000B210B20210B03
(1662116393.098923) can0 1839F380#00202120040B03B4
(1662116393.099163) can0 001#00000439000021D7
(1662116393.104258) can0 201#06000000400D0300
(1662116393.104439) can0 080#00
(1662116393.104669) can0 181#210000000000
(1662116393.104873) can0 281#141E38040000
(1662116393.105076) can0 381#78020C000700
(1662116393.112070) can0 201#06000000400D0300
(1662116393.112246) can0 080#00
(1662116393.112478) can0 181#210000000000
(1662116393.112680) can0 281#131E38040000
(1662116393.112885) can0 381#78020C000700
(1662116393.115015) can0 6D0#2F00000439000549
(1662116393.119882) can0 201#06000000400D0300
(1662116393.120054) can0 080#00
(1662116393.120289) can0 181#210000000000
(1662116393.120489) can0 281#131E38040000
(1662116393.120692) can0 381#78020A000700
(1662116393.127659) can0 201#06000000400D0300
(1662116393.127830) can0 080#00
(1662116393.128091) can0 181#210000000000
(1662116393.128293) can0 281#141E38040000
(1662116393.128498) can0 381#78020C000700
(1662116393.131018) can0 6D0#3000000439000146
(1662116393.135470) can0 201#06000000400D0300
(1662116393.135640) can0 080#00
(1662116393.135901) can0 181#210000000000
(1662116393.136107) can0 281#131E38040000
(1662116393.136315) can0 381#78020A000700
(1662116393.143323) can0 201#06000000400D0300
(1662116393.143491) can0 080#00
(1662116393.143721) can0 181#210000000000
(1662116393.143925) can0 281#141E38040000
(1662116393.144134) can0 381#78020C000700
(1662116393.147016) can0 6D0#3100000439000046
(1662116393.151122) can0 201#06000000400D0300
(1662116393.151300) can0 080#00
(1662116393.151529) can0 181#210000000000
(1662116393.151737) can0 281#141E38040000
(1662116393.151938) can0 381#78020C000700
(1662116393.155059) can0 001#00000439000021D7
(1662116393.155295) can0 002#96FC96C254000000
(1662116393.155531) can0 6D0#320000043996C29F
(1662116393.158935) can0 201#06000000400D0300
(1662116393.159078) can0 080#00
(1662116393.159340) can0 181#210000000000
(1662116393.159544) can0 281#141E38040000
(1662116393.159750) can0 381#78020C000700
(1662116393.163010) can0 6D0#330000043996FCDA
(1662116393.166755) can0 201#06000000400D0300
(1662116393.166888) can0 080#00
(1662116393.167150) can0 181#210000000000
(1662116393.167348) can0 281#131E38040000
(1662116393.167554) can0 381#78020C000700
(1662116393.174556) can0 201#06000000400D0300
(1662116393.174698) can0 080#00
(1662116393.174959) can0 181#210000000000
(1662116393.175162) can0 281#131E38040000
(1662116393.175363) can0 381#78020C000700
(1662116393.182377) can0 201#06000000400D0300
(1662116393.182547) can0 080#00
(1662116393.182778) can0 181#210000000000
(1662116393.182981) can0 281#131E38040000
(1662116393.183188) can0 381#77020C000700
(1662116393.187009) can0 6D0#340000043996E9C8
(1662116393.190174) can0 201#06000000400D0300
(1662116393.190357) can0 080#00
(1662116393.190586) can0 181#210000000000
(1662116393.190788) can0 281#141E38040000
(1662116393.190997) can0 381#77020C000700
(1662116393.195074) can0 6D0#350000043996C2A2
(1662116393.197993) can0 201#06000000400D0300
(1662116393.198168) can0 080#00
(1662116393.198398) can0 181#210000000000
(1662116393.198602) can0 281#131E38040000
(1662116393.198802) can0 381#78020C000700
(1662116393.199089) can0 1839F380#00202120040B03B4
(1662116393.199378) can0 1838F380#0000200020210B03
(1662116393.199543) can0 080#052000A9
(1662116393.201070) can0 18EEFF80#F30080F300401E90
(1662116393.203006) can0 6D0#360000043996FCDD
(1662116393.205803) can0 201#06000000400D0300
(1662116393.205973) can0 080#00
(1662116393.206205) can0 181#210000000000
(1662116393.206410) can0 281#141E38040000
(1662116393.206609) can0 381#78020D000700
(1662116393.210982) can0 001#00000439000021D7
(1662116393.211225) can0 6D0#370000043996E9CB
(1662116393.213686) can0 201#06000000400D0300
(1662116393.213860) can0 080#00
(1662116393.214088) can0 181#210000000000
(1662116393.214293) can0 281#141E38040000
(1662116393.214510) can0 381#78020C000700
(1662116393.219079) can0 6D0#380000043900BE0B
(1662116393.221515) can0 201#06000000400D0300
(1662116393.221679) can0 080#00
(1662116393.221940) can0 181#210000000000
(1662116393.222141) can0 281#131E38040000
(1662116393.222344) can0 381#78020C000700
(1662116393.227011) can0 6D0#390000043900BE0C
(1662116393.229328) can0 201#06000000400D0300
(1662116393.229496) can0 080#00
(1662116393.229759) can0 181#210000000000
(1662116393.229957) can0 281#131E38040000
(1662116393.230161) can0 381#78020C000700
(1662116393.237043) can0 201#06000000400D0300
(1662116393.237223) can0 080#00
(1662116393.237454) can0 181#210000000000
(1662116393.237655) can0 281#131E38040000
(1662116393.237858) can0 381#78020D000700
(1662116393.243009) can0 6D0#3A0000043900BE0D
(1662116393.244935) can0 201#06000000400D0300
(1662116393.245107) can0 080#00
(1662116393.245340) can0 181#210000000000
(1662116393.245544) can0 281#131E38040000
(1662116393.245746) can0 381#78020C000700
(1662116393.252636) can0 201#06000000400D0300
(1662116393.252809) can0 080#00
(1662116393.253069) can0 181#210000000000
(1662116393.253272) can0 281#131E38040000
(1662116393.253474) can0 381#78020C000700
(1662116393.258988) can0 002#96FD96C154000000
(1662116393.260556) can0 201#06000000400D0300
(1662116393.260725) can0 080#00
(1662116393.260958) can0 181#210000000000
(1662116393.261157) can0 281#131E38040000
(1662116393.261362) can0 381#78020C000700
(1662116393.267048) can0 001#00000439000021D7
(1662116393.267286) can0 6D0#3B00000439A41004
(1662116393.268440) can0 201#06000000400D0300
(1662116393.268611) can0 080#00
(1662116393.268874) can0 181#210000000000
(1662116393.269074) can0 281#131E38040000
(1662116393.269279) can0 381#78020C000700
(1662116393.275012) can0 6D0#3C0000043961A85A
(1662116393.276189) can0 201#06000000400D0300
(1662116393.276356) can0 080#00
(1662116393.276616) can0 181#210000000000
(1662116393.276817) can0 281#131E38040000
(1662116393.277021) can0 381#78020C000700
(1662116393.283881) can0 201#06000000400D0300
(1662116393.284053) can0 080#00
(1662116393.284318) can0 181#210000000000
(1662116393.284524) can0 281#141E38040000
(1662116393.284726) can0 381#78020C000700
(1662116393.291010) can0 6D0#3D00000439000557
(1662116393.291800) can0 201#06000000400D0300
(1662116393.291972) can0 080#00
(1662116393.292208) can0 181#210000000000
(1662116393.292405) can0 281#141E38040000
(1662116393.292608) can0 381#78020C000700
(1662116393.298353) can0 080#062100AB
(1662116393.298635) can0 1838F380#0003200320210B03
(1662116393.298915) can0 1839F380#00202120040B03B4
(1662116393.299898) can0 201#06000000400D0300
(1662116393.300042) can0 080#00
(1662116393.300306) can0 181#210000000000
(1662116393.300509) can0 281#131E38040000
(1662116393.300712) can0 381#78020A000700
(1662116393.307010) can0 6D0#3E00000439002A7D
(1662116393.307472) can0 201#06000000400D0300
(1662116393.307647) can0 080#00
(1662116393.307878) can0 181#210000000000
(1662116393.308084) can0 281#131E38040000
(1662116393.308281) can0 381#78020D000700
(1662116393.315077) can0 6D0#3F00000439000559
(1662116393.315329) can0 201#06000000400D0300
(1662116393.315539) can0 080#00
(1662116393.315749) can0 181#210000000000
(1662116393.315955) can0 281#141E38040000
(1662116393.316159) can0 381#78020C000700
(1662116393.322967) can0 201#06000000400D0300
(1662116393.323207) can0 001#00000439000021D7
(1662116393.323322) can0 080#00
(1662116393.323540) can0 181#210000000000
(1662116393.323736) can0 281#131E38040000
(1662116393.323941) can0 381#78020C000700
(1662116393.324189) can0 6D0#4000000439002A7F
(1662116393.330798) can0 201#06000000400D0300
(1662116393.331031) can0 6D0#4100000439000E64
(1662116393.331146) can0 080#00
(1662116393.331361) can0 181#210000000000
(1662116393.331562) can0 281#141E38040000
(1662116393.331766) can0 381#78020C000700
(1662116393.338599) can0 201#06000000400D0300
(1662116393.338765) can0 080#00
(1662116393.338993) can0 181#210000000000
(1662116393.339195) can0 281#131E38040000
(1662116393.339403) can0 381#78020C000700
(1662116393.346406) can0 201#06000000400D0300
(1662116393.346578) can0 080#00
(1662116393.346818) can0 181#210000000000
(1662116393.347017) can0 281#131E38040000
(1662116393.347215) can0 381#78020C000700
(1662116393.347463) can0 6D0#4200000439000D64
(1662116393.354227) can0 201#06000000400D0300
(1662116393.354403) can0 080#00
(1662116393.354634) can0 181#210000000000
(1662116393.354835) can0 281#131E38040000
(1662116393.355038) can0 381#78020D000700
(1662116393.355272) can0 6D0#43000004390194ED
(1662116393.362045) can0 201#06000000400D0300
(1662116393.362219) can0 080#00
(1662116393.362476) can0 181#210000000000
(1662116393.362678) can0 281#141E38040000
(1662116393.362881) can0 381#78020A000700
(1662116393.363128) can0 002#96FD96C354000000
(1662116393.363354) can0 6D0#440000043902338E
(1662116393.369848) can0 201#06000000400D0300
(1662116393.370019) can0 080#00
(1662116393.370253) can0 181#210000000000
(1662116393.370456) can0 281#131E38040000
(1662116393.370656) can0 381#78020D000700
(1662116393.370998) can0 6D0#4500000439008FE9
(1662116393.377669) can0 201#06000000400D0300
(1662116393.377832) can0 080#00
(1662116393.378064) can0 181#210000000000
(1662116393.378266) can0 281#131E38040000
(1662116393.378468) can0 381#78020C000700
(1662116393.379046) can0 001#00000439000021D7
(1662116393.379280) can0 6D0#4600000439007AD5
(1662116393.385471) can0 201#06000000400D0300
(1662116393.385644) can0 080#00
(1662116393.385872) can0 181#210000000000
(1662116393.386076) can0 281#131E38040000
(1662116393.386284) can0 381#78020C000700
(1662116393.386998) can0 6D0#4700000439080064
(1662116393.393290) can0 201#06000000400D0300
(1662116393.393461) can0 080#00
(1662116393.393720) can0 181#210000000000
(1662116393.393921) can0 281#131E38040000
(1662116393.394125) can0 381#78020D000700
(1662116393.398341) can0 080#052000A9
(1662116393.398626) can0 1838F380#0006200620210B03
(1662116393.398911) can0 1839F380#00202120040B03B4
(1662116393.399187) can0 18EEFF80#F30080F300401E90
(1662116393.401381) can0 201#06000000400D0300
(1662116393.401524) can0 080#00
(1662116393.401787) can0 181#210000000000
(1662116393.401985) can0 281#131E38040000
(1662116393.402189) can0 381#78020C000700
(1662116393.402995) can0 6D0#4800000439080065
(1662116393.408901) can0 201#06000000400D0300
(1662116393.409075) can0 080#00
(1662116393.409318) can0 181#210000000000
(1662116393.409512) can0 281#131E38040000
(1662116393.409716) can0 381#78020C000700
(1662116393.411000) can0 6D0#490000043900005E
(1662116393.416716) can0 201#06000000400D0300
(1662116393.416888) can0 080#00
(1662116393.417117) can0 181#210000000000
(1662116393.417320) can0 281#131E38040000
(1662116393.417523) can0 381#78020C000700
(1662116393.424521) can0 201#06000000400D0300
(1662116393.424683) can0 080#00
(1662116393.424915) can0 181#210000000000
(1662116393.425118) can0 281#131E38040000
(1662116393.425322) can0 381#78020C000700
(1662116393.432341) can0 201#06000000400D0300
(1662116393.432511) can0 080#00
(1662116393.432743) can0 181#210000000000
(1662116393.432947) can0 281#141E38040000
(1662116393.433147) can0 381#78020D000700
(1662116393.434972) can0 001#00000439000021D7
(1662116393.435207) can0 6D0#4A00000439081F86
(1662116393.440140) can0 201#06000000400D0300
(1662116393.440316) can0 080#00
(1662116393.440546) can0 181#210000000000
(1662116393.440749) can0 281#131E38040000
(1662116393.440955) can0 381#78020A000700
(1662116393.447954) can0 201#06000000400D0300
(1662116393.448130) can0 080#00
(1662116393.448361) can0 181#210000000000
(1662116393.448562) can0 281#131E38040000
(1662116393.448767) can0 381#78020C000700
(1662116393.450995) can0 6D0#4B000004390D8AF7
(1662116393.455764) can0 201#06000000400D0300
(1662116393.455937) can0 080#00
(1662116393.456168) can0 181#210000000000
(1662116393.456372) can0 281#141E38040000
(1662116393.456575) can0 381#78020C000700
(1662116393.459060) can0 6D0#4C00000439119406
(1662116393.463577) can0 201#06000000400D0300
(1662116393.463748) can0 080#00
(1662116393.463977) can0 181#210000000000
(1662116393.464180) can0 281#131E38040000
(1662116393.464383) can0 381#78020C000700
(1662116393.466975) can0 002#96FB96C254000000
(1662116393.467213) can0 6D0#4D00000439076CD5
(1662116393.471395) can0 201#06000000400D0300
(1662116393.471566) can0 080#00
(1662116393.471797) can0 181#210000000000
(1662116393.472000) can0 281#131E38040000
(1662116393.472203) can0 381#78020D000700
(1662116393.475068) can0 6D0#4E00000439000164
(1662116393.479196) can0 201#06000000400D0300
(1662116393.479372) can0 080#00
(1662116393.479601) can0 181#210000000000
(1662116393.479804) can0 281#131E38040000
(1662116393.480007) can0 381#78020C000700
(1662116393.482990) can0 6D0#4F0000043990A195
(1662116393.487001) can0 201#06000000400D0300
(1662116393.487181) can0 080#00
(1662116393.487411) can0 181#210000000000
(1662116393.487613) can0 281#141E38040000
(1662116393.487818) can0 381#78020C000700
(1662116393.490966) can0 001#00000439000021D7
(1662116393.491205) can0 6D0#50000004394F31E5
(1662116393.494818) can0 201#06000000400D0300
(1662116393.494988) can0 080#00
(1662116393.495223) can0 181#210000000000
(1662116393.495426) can0 281#131E38040000
(1662116393.495628) can0 381#78020C000700
(1662116393.498346) can0 080#062100AB
(1662116393.498629) can0 1838F380#000B210B20210B03
(1662116393.498913) can0 1839F380#00202120040B03B4
(1662116393.502624) can0 201#06000000400D0300
(1662116393.502797) can0 080#00
(1662116393.503029) can0 181#210000000000
(1662116393.503229) can0 281#131E38040000
(1662116393.503431) can0 381#78020D000700
(1662116393.510440) can0 201#06000000400D0300
(1662116393.510610) can0 080#00
(1662116393.510841) can0 181#210000000000
(1662116393.511045) can0 281#141E38040000
(1662116393.511248) can0 381#78020C000700
(1662116393.514991) can0 6D0#51000004392131B8
(1662116393.518255) can0 201#06000000400D0300
(1662116393.518430) can0 080#00
(1662116393.518659) can0 181#210000000000
(1662116393.518862) can0 281#131E38040000
(1662116393.519067) can0 381#78020D000700
(1662116393.526061) can0 201#06000000400D0300
(1662116393.526237) can0 080#00
(1662116393.526468) can0 181#210000000000
(1662116393.526673) can0 281#141E38040000
(1662116393.526879) can0 381#77020C000800
(1662116393.530996) can0 6D0#5200000439000067
(1662116393.533869) can0 201#06000000400D0300
(1662116393.534041) can0 080#00
(1662116393.534278) can0 181#210000000000
(1662116393.534482) can0 281#141E38040000
(1662116393.534685) can0 381#78020C000700
(1662116393.541684) can0 201#06000000400D0300
(1662116393.541856) can0 080#00
(1662116393.542087) can0 181#210000000000
(1662116393.542288) can0 281#131E38040000
(1662116393.542493) can0 381#78020C000700
(1662116393.546965) can0 001#00000439000021D7
(1662116393.547206) can0 6D0#5300000439000068
(1662116393.549573) can0 201#06000000400D0300
(1662116393.549744) can0 080#00
(1662116393.550006) can0 181#210000000000
(1662116393.550206) can0 281#131E38040000
(1662116393.550411) can0 381#78020C000700
(1662116393.557316) can0 201#06000000400D0300
(1662116393.557487) can0 080#00
(1662116393.557716) can0 181#210000000000
(1662116393.557920) can0 281#141E38040000
(1662116393.558126) can0 381#78020D000700
(1662116393.562993) can0 6D0#54000004390236A1
(1662116393.565190) can0 201#06000000400D0300
(1662116393.565365) can0 080#00
(1662116393.565630) can0 181#210000000000
(1662116393.565831) can0 281#141E38040000
(1662116393.566035) can0 381#78020C000700
(1662116393.570981) can0 002#96FC96C154000000
(1662116393.573003) can0 201#06000000400D0300
(1662116393.573181) can0 080#00
(1662116393.573440) can0 181#210000000000
(1662116393.573641) can0 281#131E38040000
(1662116393.573846) can0 381#78020C000700
(1662116393.580738) can0 201#06000000400D0300
(1662116393.580911) can0 080#00
(1662116393.581140) can0 181#210000000000
(1662116393.581343) can0 281#131E38040000
(1662116393.581546) can0 381#78020C000700
(1662116393.586998) can0 6D0#550000043900006A
(1662116393.588630) can0 201#06000000400D0300
(1662116393.588799) can0 080#00
(1662116393.589063) can0 181#210000000000
(1662116393.589263) can0 281#131E38040000
(1662116393.589465) can0 381#78020D000700
(1662116393.595067) can0 6D0#560000043900006B
(1662116393.596444) can0 201#06000000400D0300
(1662116393.596617) can0 080#00
(1662116393.596879) can0 181#210000000000
(1662116393.597078) can0 281#131E38040000
(1662116393.597281) can0 381#78020C000700
(1662116393.598400) can0 080#052000A9
(1662116393.598686) can0 1838F380#0000200020210B03
(1662116393.598978) can0 1839F380#00202120040B03B4
(1662116393.599251) can0 18EEFF80#F30080F300401E90
(1662116393.602968) can0 001#00000439000021D7
(1662116393.603200) can0 6D0#570000043900006C
(1662116393.604310) can0 201#06000000400D0300
(1662116393.604482) can0 080#00
(1662116393.604741) can0 181#210000000000
(1662116393.604946) can0 281#131E38040000
(1662116393.605146) can0 381#78020C000700
(1662116393.611983) can0 201#06000000400D0300
(1662116393.612163) can0 080#00
(1662116393.612391) can0 181#210000000000
(1662116393.612594) can0 281#131E38040000
(1662116393.612797) can0 381#78020C000700
(1662116393.618989) can0 6D0#5800000439FFD844
(1662116393.619872) can0 201#06000000400D0300
(1662116393.620043) can0 080#00
(1662116393.620304) can0 181#210000000000
(1662116393.620510) can0 281#141E38040000
(1662116393.620715) can0 381#78020C000700
(1662116393.627064) can0 6D0#590000043900006E
(1662116393.627677) can0 201#06000000400D0300
(1662116393.627848) can0 080#00
(1662116393.628079) can0 181#210000000000
(1662116393.628281) can0 281#131E38040000
(1662116393.628487) can0 381#78020D000700
(1662116393.634995) can0 6D0#5A0000043900006F
(1662116393.635486) can0 201#06000000400D0300
(1662116393.635657) can0 080#00
(1662116393.635886) can0 181#210000000000
(1662116393.636089) can0 281#131E38040000
(1662116393.636291) can0 381#78020C000700
(1662116393.642995) can0 6D0#5B00000439000070
(1662116393.643240) can0 201#06000000400D0300
(1662116393.643358) can0 080#00
(1662116393.643616) can0 181#210000000000
(1662116393.643820) can0 281#131E38040000
(1662116393.644025) can0 381#78020C000700
(1662116393.651035) can0 201#06000000400D0300
(1662116393.651213) can0 080#00
(1662116393.651443) can0 181#210000000000
