(1662136124.273896) can0 003#00
(1662136124.274128) can0 6D0#490082046700000E
(1662136124.278134) can0 201#06000000400D0300
(1662136124.278305) can0 080#00
(1662136124.278565) can0 181#080000000000
(1662136124.278762) can0 281#112132000400
(1662136124.278969) can0 381#79020C000400
(1662136124.282073) can0 002#9D6F9D2F00000000
(1662136124.282314) can0 6D0#4A00820467120B2C
(1662136124.285946) can0 201#06000000400D0300
(1662136124.286112) can0 080#00
(1662136124.286349) can0 181#080000000000
(1662136124.286543) can0 281#112132000400
(1662136124.286750) can0 381#79020C000400
(1662136124.290032) can0 6D0#4B00830467117B9D
(1662136124.293759) can0 201#06000000400D0300
(1662136124.293965) can0 080#00
(1662136124.294203) can0 181#080000000000
(1662136124.294414) can0 281#112132000400
(1662136124.294608) can0 381#79020C000400
(1662136124.294837) can0 200#05009B009B000000
(1662136124.297951) can0 003#00
(1662136124.301572) can0 201#06000000400D0300
(1662136124.301779) can0 080#00
(1662136124.302006) can0 181#080000000000
(1662136124.302208) can0 281#112132000400
(1662136124.302416) can0 381#79020C000400
(1662136124.305999) can0 001#FF7D0467001022D9
(1662136124.306233) can0 6D0#4C008304671194B7
(1662136124.309375) can0 201#06000000400D0300
(1662136124.309549) can0 080#00
(1662136124.309809) can0 181#080000000000
(1662136124.310011) can0 281#112132000400
(1662136124.310217) can0 381#78020A000400
(1662136124.317187) can0 201#06000000400D0300
(1662136124.317358) can0 080#00
(1662136124.317585) can0 181#080000000000
(1662136124.317787) can0 281#112132000400
(1662136124.317992) can0 381#79020A000400
(1662136124.321950) can0 003#00
(1662136124.325004) can0 201#06000000400D0300
(1662136124.325173) can0 080#00
(1662136124.325433) can0 181#080000000000
(1662136124.325631) can0 281#112132000400
(1662136124.325838) can0 381#79020C000400
(1662136124.330030) can0 6D0#4D00850467076C88
(1662136124.332811) can0 201#06000000400D0300
(1662136124.332990) can0 080#00
(1662136124.333246) can0 181#080000000000
(1662136124.333450) can0 281#112132000400
(1662136124.333657) can0 381#78020C000400
(1662136124.340624) can0 201#06000000400D0300
(1662136124.340800) can0 080#00
(1662136124.341057) can0 181#080000000000
(1662136124.341262) can0 281#112132000400
(1662136124.341476) can0 381#79020C000400
(1662136124.345880) can0 003#00
(1662136124.346114) can0 6D0#4E00850467000117
(1662136124.346746) can0 036#269D4D00BE9C52FA
(1662136124.348598) can0 201#06000000400D0300
(1662136124.348771) can0 080#00
(1662136124.349002) can0 181#080000000000
(1662136124.349201) can0 281#112132000400
(1662136124.349410) can0 381#78020C000400
(1662136124.356256) can0 201#06000000400D0300
(1662136124.356535) can0 1839F380#00212221040003AC
(1662136124.356643) can0 080#00
(1662136124.356858) can0 181#080000000000
(1662136124.357058) can0 281#112132000400
(1662136124.357265) can0 381#79020C000400
(1662136124.357547) can0 1838F380#0003210321220003
(1662136124.357716) can0 080#062200AC
(1662136124.361991) can0 001#FF7B0467001022D9
(1662136124.362233) can0 6D0#4F00850467000118
(1662136124.364224) can0 201#06000000400D0300
(1662136124.364419) can0 080#00
(1662136124.364629) can0 181#080000000000
(1662136124.364828) can0 281#112132000400
(1662136124.365035) can0 381#79020C000400
(1662136124.369957) can0 003#00
(1662136124.371984) can0 201#06000000400D0300
(1662136124.372155) can0 080#00
(1662136124.372384) can0 181#080000000000
(1662136124.372582) can0 281#112132000400
(1662136124.372790) can0 381#79020C000400
(1662136124.378025) can0 6D0#50008504674F3198
(1662136124.379785) can0 201#06000000400D0300
(1662136124.379961) can0 080#00
(1662136124.380192) can0 181#080000000000
(1662136124.380390) can0 281#112132000400
(1662136124.380599) can0 381#78020C000400
(1662136124.386000) can0 002#9D719D3000000000
(1662136124.386291) can0 1806E9F4#049800BE00000000
(1662136124.386581) can0 1806E5F4#049800BE00000000
(1662136124.386871) can0 1806E7F4#049800BE00000000
(1662136124.387797) can0 201#06000000400D0300
(1662136124.387975) can0 080#00
(1662136124.388230) can0 181#080000000000
(1662136124.388433) can0 281#112132000400
(1662136124.388642) can0 381#78020C000400
(1662136124.393962) can0 003#00
(1662136124.395405) can0 201#06000000400D0300
(1662136124.395575) can0 080#00
(1662136124.395811) can0 181#080000000000
(1662136124.396009) can0 281#112132000400
(1662136124.396216) can0 381#78020A000400
(1662136124.402022) can0 6D0#510085046721316B
(1662136124.403216) can0 201#06000000400D0300
(1662136124.403390) can0 080#00
(1662136124.403627) can0 181#080000000000
(1662136124.403819) can0 281#112132000400
(1662136124.404025) can0 381#79020C000400
(1662136124.410922) can0 201#06000000400D0300
(1662136124.411092) can0 080#00
(1662136124.411352) can0 181#080000000000
(1662136124.411551) can0 281#112132000400
(1662136124.411758) can0 381#79020C000400
(1662136124.417995) can0 001#FF7C0467001022D9
(1662136124.418110) can0 003#00
(1662136124.418346) can0 6D0#5200840467000019
(1662136124.419025) can0 201#06000000400D0300
(1662136124.419195) can0 080#00
(1662136124.419425) can0 181#080000000000
(1662136124.419624) can0 281#112132000400
(1662136124.419830) can0 381#79020C000400
(1662136124.426540) can0 201#06000000400D0300
(1662136124.426720) can0 080#00
(1662136124.426979) can0 181#080000000000
(1662136124.427178) can0 281#112132000400
(1662136124.427385) can0 381#79020C000400
(1662136124.434022) can0 6D0#5300830467000019
(1662136124.434453) can0 201#06000000400D0300
(1662136124.434594) can0 080#00
(1662136124.434859) can0 181#080000000000
(1662136124.435056) can0 281#112132000400
(1662136124.435267) can0 381#78020C000400
(1662136124.441951) can0 003#00
(1662136124.442199) can0 201#06000000400D0300
(1662136124.442311) can0 080#00
(1662136124.442551) can0 6D0#5400820467023651
(1662136124.442763) can0 181#080000000000
(1662136124.442961) can0 281#112132000400
(1662136124.443167) can0 381#79020C000400
(1662136124.446751) can0 036#279D5000BE9C53FF
(1662136124.449980) can0 201#06000000400D0300
(1662136124.450227) can0 6D0#550082046700001A
(1662136124.450333) can0 080#00
(1662136124.450546) can0 181#080000000000
(1662136124.450746) can0 281#112132000400
(1662136124.450953) can0 381#78020A000400
(1662136124.456264) can0 080#052100AA
(1662136124.456552) can0 1838F380#0006210621220003
(1662136124.456836) can0 18EEFF80#F30080F300401E90
(1662136124.457114) can0 1839F380#00212221040003AC
(1662136124.458215) can0 201#06000000400D0300
(1662136124.458398) can0 080#00
(1662136124.458647) can0 181#080000000000
(1662136124.458845) can0 281#112132000400
(1662136124.459051) can0 381#79020C000400
(1662136124.465601) can0 201#06000000400D0300
(1662136124.465774) can0 080#00
(1662136124.466035) can0 181#080000000000
(1662136124.466157) can0 003#00
(1662136124.466353) can0 281#112132000400
(1662136124.466562) can0 381#78020C000400
(1662136124.473411) can0 201#06000000400D0300
(1662136124.473580) can0 080#00
(1662136124.473845) can0 181#080000000000
(1662136124.474083) can0 001#FF7E0467001022D9
(1662136124.474283) can0 281#112132000400
(1662136124.474489) can0 381#78020A000400
(1662136124.474729) can0 6D0#560082046700001B
(1662136124.481272) can0 201#06000000400D0300
(1662136124.481440) can0 080#00
(1662136124.481671) can0 181#080000000000
(1662136124.481871) can0 281#112132000400
(1662136124.482079) can0 381#78020C000400
(1662136124.482315) can0 6D0#570083046700001D
(1662136124.489038) can0 201#06000000400D0300
(1662136124.489201) can0 080#00
(1662136124.489466) can0 181#080000000000
(1662136124.489660) can0 281#112132000400
(1662136124.489867) can0 381#78020A000400
(1662136124.489991) can0 003#00
(1662136124.490227) can0 002#9D729D3300000000
(1662136124.490463) can0 6D0#5800830467FFD8F5
(1662136124.496900) can0 201#06000000400D0300
(1662136124.497065) can0 080#00
(1662136124.497299) can0 181#080000000000
(1662136124.497495) can0 281#112132000400
(1662136124.497703) can0 381#79020C000400
(1662136124.504653) can0 201#06000000400D0300
(1662136124.504834) can0 080#00
(1662136124.505090) can0 181#080000000000
(1662136124.505290) can0 281#112132000400
(1662136124.505500) can0 381#79020C000400
(1662136124.506019) can0 6D0#5900840467000020
(1662136124.512514) can0 201#06000000400D0300
(1662136124.512691) can0 080#00
(1662136124.512919) can0 181#080000000000
(1662136124.513118) can0 281#112132000400
(1662136124.513328) can0 381#79020A000400
(1662136124.513944) can0 003#00
(1662136124.520322) can0 201#06000000400D0300
(1662136124.520491) can0 080#00
(1662136124.520720) can0 181#080000000000
(1662136124.520921) can0 281#112132000400
(1662136124.521126) can0 381#79020C000400
(1662136124.528089) can0 201#06000000400D0300
(1662136124.528258) can0 080#00
(1662136124.528518) can0 181#080000000000
(1662136124.528717) can0 281#112132000400
(1662136124.528925) can0 381#78020C000400
(1662136124.529990) can0 001#FF7C0467001022D9
(1662136124.535949) can0 201#06000000400D0300
(1662136124.536118) can0 080#00
(1662136124.536350) can0 181#080000000000
(1662136124.536550) can0 281#112132000400
(1662136124.536755) can0 381#79020C000400
(1662136124.537883) can0 003#00
(1662136124.538121) can0 6D0#5A00850467000022
(1662136124.543779) can0 201#06000000400D0300
(1662136124.543936) can0 080#00
(1662136124.544167) can0 181#080000000000
(1662136124.544365) can0 281#112132000400
(1662136124.544571) can0 381#79020C000400
(1662136124.546753) can0 036#289D4A00BE9C53FA
(1662136124.551528) can0 201#06000000400D0300
(1662136124.551732) can0 080#00
(1662136124.551961) can0 181#080000000000
(1662136124.552161) can0 281#112132000400
(1662136124.552369) can0 381#79020C000400
(1662136124.554084) can0 6D0#5B00850467000023
(1662136124.556218) can0 080#062200AC
(1662136124.556498) can0 1838F380#000B210B21220003
(1662136124.556778) can0 1839F380#00212221040003AC
(1662136124.559332) can0 201#06000000400D0300
(1662136124.559505) can0 080#00
(1662136124.559759) can0 181#080000000000
(1662136124.559961) can0 281#112132000400
(1662136124.560171) can0 381#79020C000400
(1662136124.561871) can0 003#00
(1662136124.562115) can0 6D0#5C00850467000024
(1662136124.567143) can0 201#06000000400D0300
(1662136124.567312) can0 080#00
(1662136124.567544) can0 181#080000000000
(1662136124.567741) can0 281#112132000400
(1662136124.567949) can0 381#79020C000400
(1662136124.570089) can0 6D0#5D00850467000025
(1662136124.574965) can0 201#06000000400D0300
(1662136124.575128) can0 080#00
(1662136124.575387) can0 181#080000000000
(1662136124.575585) can0 281#112132000400
(1662136124.575793) can0 381#79020C000400
(1662136124.578020) can0 6D0#5E00850467000026
(1662136124.582804) can0 201#06000000400D0300
(1662136124.582978) can0 080#00
(1662136124.583211) can0 181#080000000000
(1662136124.583408) can0 281#112132000400
(1662136124.583616) can0 381#79020C000400
(1662136124.586054) can0 001#FF7B0467001022D9
(1662136124.586171) can0 003#00
(1662136124.586415) can0 6D0#5F00850467000027
(1662136124.590578) can0 201#06000000400D0300
(1662136124.590756) can0 080#00
(1662136124.591011) can0 181#080000000000
(1662136124.591215) can0 281#112132000400
(1662136124.591420) can0 381#79020C000400
(1662136124.593995) can0 002#9D729D3400000000
(1662136124.594235) can0 6D0#6000850467000028
(1662136124.598385) can0 201#06000000400D0300
(1662136124.598558) can0 080#00
(1662136124.598821) can0 181#080000000000
(1662136124.599020) can0 281#112132000400
(1662136124.599226) can0 381#79020C000400
(1662136124.602102) can0 6D0#6100840467000028
(1662136124.606203) can0 201#06000000400D0300
(1662136124.606372) can0 080#00
(1662136124.606631) can0 181#080000000000
(1662136124.606829) can0 281#112132000400
(1662136124.607038) can0 381#78020C000400
(1662136124.609867) can0 003#00
(1662136124.610103) can0 6D0#6200840467000029
(1662136124.614009) can0 201#06000000400D0300
(1662136124.614182) can0 080#00
(1662136124.614439) can0 181#080000000000
(1662136124.614640) can0 281#112132000400
(1662136124.614846) can0 381#79020C000400
(1662136124.621859) can0 201#06000000400D0300
(1662136124.622002) can0 080#00
(1662136124.622262) can0 181#080000000000
(1662136124.622460) can0 281#112132000400
(1662136124.622667) can0 381#79020C000400
(1662136124.629641) can0 201#06000000400D0300
(1662136124.629843) can0 080#00
(1662136124.630073) can0 181#080000000000
(1662136124.630274) can0 281#112132000400
(1662136124.630484) can0 381#79020C000400
(1662136124.633877) can0 003#00
(1662136124.634103) can0 6D0#6300830467000029
(1662136124.637465) can0 201#06000000400D0300
(1662136124.637616) can0 080#00
(1662136124.637881) can0 181#080000000000
(1662136124.638080) can0 281#112132000400
(1662136124.638289) can0 381#78020C000400
(1662136124.642054) can0 001#FF7E0467001022D9
(1662136124.642288) can0 6D0#6400820467000029
(1662136124.645251) can0 201#06000000400D0300
(1662136124.645424) can0 080#00
(1662136124.645655) can0 181#080000000000
(1662136124.645855) can0 281#112132000400
(1662136124.646069) can0 381#78020C000400
(1662136124.646737) can0 036#299D7100BE9C7544
(1662136124.650022) can0 6D0#650082046700002A
(1662136124.653082) can0 201#06000000400D0300
(1662136124.653245) can0 080#00
(1662136124.653500) can0 181#080000000000
(1662136124.653702) can0 281#112132000400
(1662136124.653905) can0 381#79020C000400
(1662136124.656264) can0 080#052100AA
(1662136124.656544) can0 1838F380#0000220021220003
(1662136124.656825) can0 18EEFF80#F30080F300401E90
(1662136124.657106) can0 1839F380#00212221040003AC
(1662136124.657942) can0 003#00
(1662136124.658173) can0 6D0#660082046700002B
(1662136124.660880) can0 201#06000000400D0300
(1662136124.661055) can0 080#00
(1662136124.661311) can0 181#080000000000
(1662136124.661509) can0 281#112132000400
(1662136124.661723) can0 381#79020C000400
(1662136124.666019) can0 6D0#6700820467FFFF2A
(1662136124.668691) can0 201#06000000400D0300
(1662136124.668868) can0 080#00
(1662136124.669128) can0 181#080000000000
(1662136124.669327) can0 281#112132000400
(1662136124.669534) can0 381#79020C000400
(1662136124.674094) can0 6D0#6E00820467004073
(1662136124.676499) can0 201#06000000400D0300
(1662136124.676668) can0 080#00
(1662136124.676933) can0 181#080000000000
(1662136124.677131) can0 281#112132000400
(1662136124.677340) can0 381#79020C000400
(1662136124.681866) can0 003#00
(1662136124.682103) can0 6D0#7300830467080041
(1662136124.684426) can0 201#06000000400D0300
(1662136124.684588) can0 080#00
(1662136124.684824) can0 181#080000000000
(1662136124.685023) can0 281#112132000400
(1662136124.685231) can0 381#78020C000400
(1662136124.692123) can0 201#06000000400D0300
(1662136124.692292) can0 080#00
(1662136124.692552) can0 181#080000000000
(1662136124.692751) can0 281#112132000400
(1662136124.692957) can0 381#79020C000400
(1662136124.697982) can0 001#FF7D0467001022D9
(1662136124.698221) can0 002#9D6E9D3200000000
(1662136124.700108) can0 201#06000000400D0300
(1662136124.700277) can0 080#00
(1662136124.700504) can0 181#080000000000
(1662136124.700705) can0 281#112132000400
(1662136124.700912) can0 381#79020C000400
(1662136124.705973) can0 003#00
(1662136124.706199) can0 6D0#7400840467080144
(1662136124.707921) can0 201#06000000400D0300
(1662136124.708091) can0 080#00
(1662136124.708323) can0 181#080000000000
(1662136124.708521) can0 281#112132000400
(1662136124.708726) can0 381#79020A000400
(1662136124.714019) can0 6D0#750084046700003C
(1662136124.715663) can0 201#06000000400D0300
(1662136124.715838) can0 080#00
(1662136124.716066) can0 181#080000000000
(1662136124.716265) can0 281#112132000400
(1662136124.716474) can0 381#78020C000400
(1662136124.722011) can0 6D0#760084046700003D
(1662136124.723470) can0 201#06000000400D0300
(1662136124.723641) can0 080#00
(1662136124.723878) can0 181#080000000000
(1662136124.724076) can0 281#112132000400
(1662136124.724283) can0 381#79020C000400
(1662136124.729932) can0 003#00
(1662136124.730177) can0 6D0#770085046700003F
(1662136124.731351) can0 201#06000000400D0300
(1662136124.731520) can0 080#00
(1662136124.731752) can0 181#080000000000
(1662136124.731951) can0 281#112132000400
(1662136124.732158) can0 381#79020C000400
(1662136124.738019) can0 6D0#7800850467000040
(1662136124.739090) can0 201#06000000400D0300
(1662136124.739263) can0 080#00
(1662136124.739494) can0 181#080000000000
(1662136124.739694) can0 281#112132000400
(1662136124.739900) can0 381#79020A000400
(1662136124.746744) can0 036#2A9D4600BE9C4CF1
(1662136124.746982) can0 201#06000000400D0300
(1662136124.747217) can0 080#00
(1662136124.747425) can0 181#080000000000
(1662136124.747624) can0 281#112132000400
(1662136124.747831) can0 381#79020C000400
(1662136124.753972) can0 001#FF7B0467001022D9
(1662136124.754092) can0 003#00
(1662136124.754330) can0 6D0#7900850467000041
(1662136124.754854) can0 201#06000000400D0300
(1662136124.755026) can0 080#00
(1662136124.755283) can0 181#080000000000
(1662136124.755483) can0 281#112132000400
(1662136124.755690) can0 381#79020C000400
(1662136124.756196) can0 080#062200AC
(1662136124.756479) can0 1838F380#0003210321220003
(1662136124.756764) can0 1839F380#00212221040003AC
(1662136124.762469) can0 201#06000000400D0300
(1662136124.762641) can0 080#00
(1662136124.762874) can0 181#080000000000
(1662136124.763074) can0 281#112132000400
(1662136124.763281) can0 381#79020C000400
(1662136124.770233) can0 201#06000000400D0300
(1662136124.770403) can0 080#00
(1662136124.770663) can0 181#080000000000
(1662136124.770861) can0 281#112132000400
(1662136124.771068) can0 381#79020C000400
(1662136124.777863) can0 003#00
(1662136124.778108) can0 201#06000000400D0300
(1662136124.778350) can0 6D0#7A00860467000043
(1662136124.778456) can0 080#00
(1662136124.778670) can0 181#080000000000
(1662136124.778872) can0 281#112132000400
(1662136124.779077) can0 381#79020C000400
(1662136124.785957) can0 201#06000000400D0300
(1662136124.786196) can0 6D0#7B00850467000346
(1662136124.786303) can0 080#00
(1662136124.786516) can0 181#080000000000
(1662136124.786717) can0 281#112132000400
(1662136124.786923) can0 381#78020A000400
(1662136124.793704) can0 201#06000000400D0300
(1662136124.793881) can0 080#00
(1662136124.794116) can0 6D0#7C0085046700064A
(1662136124.794329) can0 181#080000000000
(1662136124.794530) can0 281#112132000400
(1662136124.794736) can0 381#79020C000400
(1662136124.801478) can0 201#06000000400D0300
(1662136124.801647) can0 080#00
(1662136124.801914) can0 181#080000000000
(1662136124.802031) can0 003#00
(1662136124.802280) can0 002#9D719D3200000000
(1662136124.802473) can0 281#112132000400
(1662136124.802683) can0 381#78020C000400
(1662136124.802919) can0 6D0#7D00840467003074
(1662136124.809333) can0 201#06000000400D0300
(1662136124.809502) can0 080#00
(1662136124.809732) can0 181#080000000000
(1662136124.809930) can0 281#112132000400
(1662136124.810171) can0 001#FF7C0467001022D9
(1662136124.810379) can0 381#78020C000400
(1662136124.810616) can0 6D0#7E00840467000045
(1662136124.817141) can0 201#06000000400D0300
(1662136124.817316) can0 080#00
(1662136124.817545) can0 181#080000000000
(1662136124.817741) can0 281#112132000400
(1662136124.817948) can0 381#79020C000400
(1662136124.818179) can0 6D0#7F0084046702EE36
(1662136124.824912) can0 201#06000000400D0300
(1662136124.825083) can0 080#00
(1662136124.825342) can0 181#080000000000
(1662136124.825542) can0 281#112132000400
(1662136124.825748) can0 381#79020C000400
(1662136124.825948) can0 003#00
(1662136124.826188) can0 6D0#8000830467000046
(1662136124.832763) can0 201#06000000400D0300
(1662136124.832940) can0 080#00
(1662136124.833175) can0 181#080000000000
(1662136124.833371) can0 281#112132000400
(1662136124.833577) can0 381#79020C000400
(1662136124.834017) can0 6D0#00008304670103CA
(1662136124.840585) can0 201#06000000400D0300
(1662136124.840754) can0 080#00
(1662136124.840983) can0 181#080000000000
(1662136124.841181) can0 281#112132000400
(1662136124.841393) can0 381#79020C000400
(1662136124.846741) can0 036#2B9D4600BE9C4AF0
(1662136124.848446) can0 201#06000000400D0300
(1662136124.848618) can0 080#00
(1662136124.848854) can0 181#080000000000
(1662136124.849052) can0 281#112132000400
(1662136124.849259) can0 381#79020C000400
(1662136124.849861) can0 003#00
(1662136124.856202) can0 201#06000000400D0300
(1662136124.856491) can0 1838F380#0006210621220003
(1662136124.856601) can0 080#00
(1662136124.856815) can0 181#080000000000
(1662136124.857016) can0 281#112132000400
(1662136124.857221) can0 381#79020C000400
(1662136124.857502) can0 1839F380#00212221040003AC
(1662136124.857669) can0 080#052100AA
(1662136124.858092) can0 6D0#01008204670603CF
(1662136124.858863) can0 18EEFF80#F30080F300401E90
(1662136124.864005) can0 201#06000000400D0300
(1662136124.864175) can0 080#00
(1662136124.864410) can0 181#080000000000
(1662136124.864605) can0 281#112132000400
(1662136124.864813) can0 381#79020C000400
(1662136124.865969) can0 001#FF7E0467001022D9
(1662136124.866204) can0 6D0#0200820467057A46
(1662136124.871836) can0 201#06000000400D0300
(1662136124.872003) can0 080#00
(1662136124.872230) can0 181#080000000000
(1662136124.872434) can0 281#112132000400
(1662136124.872637) can0 381#79020C000400
(1662136124.873938) can0 003#00
(1662136124.879629) can0 201#06000000400D0300
(1662136124.879806) can0 080#00
(1662136124.880037) can0 181#080000000000
(1662136124.880236) can0 281#112132000400
(1662136124.880440) can0 381#79020A000400
(1662136124.882008) can0 6D0#03008204672403EF
(1662136124.887444) can0 201#06000000400D0300
(1662136124.887616) can0 080#00
(1662136124.887848) can0 181#080000000000
(1662136124.888049) can0 281#112132000400
(1662136124.888255) can0 381#79020C000400
(1662136124.895209) can0 201#06000000400D0300
(1662136124.895379) can0 080#00
(1662136124.895639) can0 181#080000000000
(1662136124.895837) can0 281#112132000400
(1662136124.896044) can0 381#79020C000400
(1662136124.897855) can0 003#00
(1662136124.898094) can0 6D0#040083046700E6B0
(1662136124.903022) can0 201#06000000400D0300
(1662136124.903192) can0 080#00
(1662136124.903451) can0 181#080000000000
(1662136124.903650) can0 281#112132000400
(1662136124.903858) can0 381#78020C000400
(1662136124.906057) can0 002#9D6D9D3000000000
(1662136124.910867) can0 201#06000000400D0300
(1662136124.911009) can0 080#00
(1662136124.911269) can0 181#080000000000
(1662136124.911468) can0 281#112132000400
(1662136124.911678) can0 381#79020C000400
(1662136124.914016) can0 6D0#05008404670000CC
(1662136124.918648) can0 201#06000000400D0300
(1662136124.918823) can0 080#00
(1662136124.919080) can0 181#080000000000
(1662136124.919280) can0 281#112132000400
(1662136124.919490) can0 381#78020C000400
(1662136124.921972) can0 001#FF7C0467001022D9
(1662136124.922093) can0 003#00
(1662136124.922332) can0 6D0#06008404670030FD
(1662136124.926456) can0 201#06000000400D0300
(1662136124.926625) can0 080#00
(1662136124.926887) can0 181#080000000000
(1662136124.927086) can0 281#112132000400
(1662136124.927293) can0 381#78020C000400
(1662136124.934266) can0 201#06000000400D0300
(1662136124.934435) can0 080#00
(1662136124.934695) can0 181#080000000000
(1662136124.934894) can0 281#112132000400
(1662136124.935099) can0 381#79020A000400
(1662136124.938078) can0 6D0#0700850467001CEB
(1662136124.942077) can0 201#06000000400D0300
(1662136124.942249) can0 080#00
(1662136124.942509) can0 181#080000000000
(1662136124.942706) can0 281#112132000400
(1662136124.942913) can0 381#79020C000400
(1662136124.945856) can0 003#00
(1662136124.946092) can0 6D0#0800850467009969
(1662136124.946733) can0 036#309D4A00BE9C5100
(1662136124.949889) can0 201#06000000400D0300
(1662136124.950061) can0 080#00
(1662136124.950320) can0 181#080000000000
(1662136124.950520) can0 281#112132000400
(1662136124.950725) can0 381#79020C000400
(1662136124.954080) can0 6D0#09008504670010E1
(1662136124.956195) can0 080#062200AC
(1662136124.956474) can0 1838F380#000B210B21220003
(1662136124.956756) can0 1839F380#00212221040003AC
(1662136124.958060) can0 201#06000000400D0300
(1662136124.958232) can0 080#00
(1662136124.958462) can0 181#080000000000
(1662136124.958663) can0 281#112132000400
(1662136124.958869) can0 381#79020C000400
(1662136124.961996) can0 6D0#0A008604670013E6
(1662136124.965507) can0 201#06000000400D0300
(1662136124.965691) can0 080#00
(1662136124.965941) can0 181#080000000000
(1662136124.966143) can0 281#112132000400
(1662136124.966351) can0 381#79020C000400
(1662136124.969923) can0 003#00
(1662136124.970163) can0 6D0#0B008504670000D3
(1662136124.973320) can0 201#06000000400D0300
(1662136124.973490) can0 080#00
(1662136124.973755) can0 181#080000000000
(1662136124.973953) can0 281#112132000400
(1662136124.974160) can0 381#79020C000400
(1662136124.977962) can0 001#FF7B0467001022D9
(1662136124.978202) can0 6D0#0C00850467FF7B4E
(1662136124.981137) can0 201#06000000400D0300
(1662136124.981306) can0 080#00
(1662136124.981565) can0 181#080000000000
(1662136124.981764) can0 281#112132000400
(1662136124.981971) can0 381#79020C000400
(1662136124.988941) can0 201#06000000400D0300
(1662136124.989114) can0 080#00
(1662136124.989371) can0 181#080000000000
(1662136124.989570) can0 281#112132000400
(1662136124.989780) can0 381#78020C000400
(1662136124.993855) can0 003#00
(1662136124.994086) can0 6D0#0D00850467046740
(1662136124.996758) can0 201#06000000400D0300
(1662136124.996931) can0 080#00
(1662136124.997191) can0 181#080000000000
(1662136124.997390) can0 281#112132000400
(1662136124.997596) can0 381#79020C000400
(1662136125.004557) can0 201#06000000400D0300
(1662136125.004733) can0 080#00
(1662136125.004964) can0 181#080000000000
(1662136125.005164) can0 281#112132000400
(1662136125.005370) can0 381#79020D000400
(1662136125.009971) can0 002#9D729D3100000000
(1662136125.012381) can0 201#06000000400D0300
(1662136125.012550) can0 080#00
(1662136125.012818) can0 181#080000000000
(1662136125.013017) can0 281#112132000400
(1662136125.013223) can0 381#79020C000400
(1662136125.017935) can0 003#00
(1662136125.020293) can0 201#06000000400D0300
(1662136125.020462) can0 080#00
(1662136125.020694) can0 181#080000000000
(1662136125.020893) can0 281#112132000400
(1662136125.021101) can0 381#78020A000400
(1662136125.026005) can0 6D0#0E00830467046038
(1662136125.028104) can0 201#06000000400D0300
(1662136125.028275) can0 080#00
(1662136125.028505) can0 181#080000000000
(1662136125.028704) can0 281#112132000400
(1662136125.028911) can0 381#79020C000400
(1662136125.034039) can0 001#FF7D0467001022D9
(1662136125.034279) can0 6D0#0F0083046700AA7F
(1662136125.035986) can0 201#06000000400D0300
(1662136125.036155) can0 080#00
(1662136125.036389) can0 181#080000000000
(1662136125.036586) can0 281#112132000400
(1662136125.036798) can0 381#79020C000400
(1662136125.041870) can0 003#00
(1662136125.042101) can0 6D0#1000820467027F56
(1662136125.043800) can0 201#06000000400D0300
(1662136125.043973) can0 080#00
(1662136125.044209) can0 181#080000000000
(1662136125.044472) can0 281#112132000400
(1662136125.044607) can0 381#79020C000400
(1662136125.046733) can0 036#319D4C00BE9C4F01
(1662136125.050070) can0 6D0#110082046700350B
(1662136125.051541) can0 201#06000000400D0300
(1662136125.051714) can0 080#00
(1662136125.051946) can0 181#080000000000
(1662136125.052145) can0 281#112132000400
(1662136125.052352) can0 381#79020C000400
(1662136125.056187) can0 080#052100AA
(1662136125.056475) can0 1838F380#0000220021220003
(1662136125.056755) can0 18EEFF80#F30080F300401E90
(1662136125.057039) can0 1839F380#00212221040003AC
(1662136125.057998) can0 6D0#12008204670027FE
(1662136125.059471) can0 201#06000000400D0300
(1662136125.059644) can0 080#00
(1662136125.059878) can0 181#080000000000
(1662136125.060079) can0 281#112132000400
(1662136125.060285) can0 381#79020C000400
(1662136125.065930) can0 003#00
(1662136125.066164) can0 6D0#130082046700643C
(1662136125.067220) can0 201#06000000400D0300
(1662136125.067394) can0 080#00
(1662136125.067623) can0 181#080000000000
(1662136125.067823) can0 281#112132000400
(1662136125.068027) can0 381#79020A000400
(1662136125.074003) can0 6D0#14008204672C0B10
(1662136125.074975) can0 201#06000000400D0300
(1662136125.075143) can0 080#00
(1662136125.075374) can0 181#080000000000
(1662136125.075574) can0 281#112132000400
(1662136125.075782) can0 381#78020C000400
(1662136125.082676) can0 201#06000000400D0300
(1662136125.082853) can0 080#00
(1662136125.083113) can0 181#080000000000
(1662136125.083312) can0 281#112132000400
(1662136125.083519) can0 381#79020C000400
(1662136125.089963) can0 001#FF7E0467001022D9
(1662136125.090082) can0 003#00
(1662136125.090647) can0 201#06000000400D0300
(1662136125.090827) can0 080#00
(1662136125.091057) can0 181#080000000000
(1662136125.091257) can0 281#112132000400
(1662136125.091466) can0 381#78020C000400
(1662136125.098087) can0 6D0#15008304678082DD
(1662136125.098333) can0 201#06000000400D0300
(1662136125.098448) can0 080#00
(1662136125.098672) can0 181#080000000000
(1662136125.098874) can0 281#112132000400
(1662136125.099079) can0 381#79020A000400
(1662136125.105986) can0 6D0#1600840467049879
(1662136125.106238) can0 201#06000000400D0300
(1662136125.106378) can0 080#00
(1662136125.106612) can0 181#080000000000
(1662136125.106810) can0 281#112132000400
(1662136125.107021) can0 381#79020C000400
(1662136125.113918) can0 201#06000000400D0300
(1662136125.114038) can0 003#00
(1662136125.114283) can0 002#9D6F9D3400000000
(1662136125.114413) can0 080#00
(1662136125.114609) can0 181#080000000000
(1662136125.114810) can0 281#112132000400
(1662136125.115016) can0 381#79020C000400
(1662136125.121736) can0 201#06000000400D0300
(1662136125.122016) can0 6D0#170084046702BC9C
(1662136125.122119) can0 080#00
(1662136125.122334) can0 181#080000000000
(1662136125.122536) can0 281#112132000400
(1662136125.122743) can0 381#78020C000400
(1662136125.129540) can0 201#06000000400D0300
(1662136125.129716) can0 080#00
(1662136125.129973) can0 181#080000000000
(1662136125.130176) can0 281#112132000400
(1662136125.130380) can0 381#79020A000400
(1662136125.130620) can0 6D0#1800850467000BEB
(1662136125.137398) can0 201#06000000400D0300
(1662136125.137571) can0 080#00
(1662136125.137806) can0 181#080000000000
(1662136125.137924) can0 003#00
(1662136125.138126) can0 281#112132000400
(1662136125.138332) can0 381#79020C000400
(1662136125.138566) can0 6D0#19008504670402E7
(1662136125.145207) can0 201#06000000400D0300
(1662136125.145379) can0 080#00
(1662136125.145608) can0 181#080000000000
(1662136125.145808) can0 281#112132000400
(1662136125.146049) can0 001#FF7B0467001022D9
(1662136125.146251) can0 381#79020C000400
(1662136125.146487) can0 6D0#1A008504670015F7
(1662136125.146733) can0 036#329D5300BE9C5E18
(1662136125.153019) can0 201#06000000400D0300
(1662136125.153190) can0 080#00
(1662136125.153425) can0 181#080000000000
(1662136125.153621) can0 281#112132000400
(1662136125.153829) can0 381#78020C000400
(1662136125.154069) can0 6D0#1B008604670000E4
(1662136125.156202) can0 080#062200AC
(1662136125.156484) can0 1838F380#0003210321220003
(1662136125.156767) can0 1839F380#00212221040003AC
(1662136125.160820) can0 201#06000000400D0300
(1662136125.160965) can0 080#00
(1662136125.161226) can0 181#080000000000
(1662136125.161423) can0 281#112132000400
(1662136125.161630) can0 381#79020C000400
(1662136125.161848) can0 003#00
(1662136125.168648) can0 201#06000000400D0300
(1662136125.168824) can0 080#00
(1662136125.169061) can0 181#080000000000
(1662136125.169252) can0 281#112132000400
(1662136125.169459) can0 381#79020C000400
(1662136125.176406) can0 201#06000000400D0300
(1662136125.176579) can0 080#00
(1662136125.176841) can0 181#080000000000
(1662136125.177043) can0 281#112132000400
(1662136125.177248) can0 381#79020A000400
(1662136125.177987) can0 6D0#1C0085046703B69D
(1662136125.184268) can0 201#06000000400D0300
(1662136125.184440) can0 080#00
(1662136125.184670) can0 181#080000000000
(1662136125.184869) can0 281#112132000400
(1662136125.185076) can0 381#79020C000400
(1662136125.185916) can0 003#00
(1662136125.192072) can0 201#06000000400D0300
(1662136125.192246) can0 080#00
(1662136125.192483) can0 181#080000000000
(1662136125.192678) can0 281#112132000400
(1662136125.192883) can0 381#78020C000400
(1662136125.194039) can0 1806E7F4#049800BE00000000
(1662136125.194330) can0 1806E9F4#049800BE00000000
(1662136125.194620) can0 1806E5F4#049800BE00000000
(1662136125.194853) can0 6D0#1D008504670013F8
(1662136125.199846) can0 201#06000000400D0300
(1662136125.200014) can0 080#00
(1662136125.200274) can0 181#080000000000
(1662136125.200473) can0 281#112132000400
(1662136125.200681) can0 381#78020A000400
(1662136125.202036) can0 001#FF7B0467001022D9
(1662136125.207698) can0 201#06000000400D0300
(1662136125.207876) can0 080#00
(1662136125.208106) can0 181#080000000000
(1662136125.208304) can0 281#112132000400
(1662136125.208511) can0 381#79020C000400
(1662136125.209855) can0 003#00
(1662136125.210091) can0 6D0#1E008404670000E5
(1662136125.215509) can0 201#06000000400D0300
(1662136125.215685) can0 080#00
(1662136125.215916) can0 181#080000000000
(1662136125.216114) can0 281#112132000400
(1662136125.216321) can0 381#79020C000400
(1662136125.217962) can0 002#9D729D3400000000
(1662136125.218200) can0 6D0#1F00840467001C02
(1662136125.223319) can0 201#06000000400D0300
(1662136125.223490) can0 080#00
(1662136125.223722) can0 181#080000000000
(1662136125.223920) can0 281#112132000400
(1662136125.224129) can0 381#78020C000400
(1662136125.226075) can0 6D0#20008304670008EE
(1662136125.231092) can0 201#06000000400D0300
(1662136125.231261) can0 080#00
(1662136125.231521) can0 181#080000000000
(1662136125.231720) can0 281#112132000400
(1662136125.231926) can0 381#78020A000400
(1662136125.233843) can0 003#00
(1662136125.234080) can0 6D0#21008204670000E6
(1662136125.238900) can0 201#06000000400D0300
(1662136125.239072) can0 080#00
(1662136125.239331) can0 181#080000000000
(1662136125.239531) can0 281#112132000400
(1662136125.239738) can0 381#79020C000400
(1662136125.246711) can0 201#06000000400D0300
(1662136125.246955) can0 036#339D4C00BE9C5004
(1662136125.247062) can0 080#00
(1662136125.247276) can0 181#080000000000
(1662136125.247477) can0 281#112132000400
(1662136125.247682) can0 381#79020C000400
(1662136125.254516) can0 201#06000000400D0300
(1662136125.254694) can0 080#00
(1662136125.254953) can0 181#080000000000
(1662136125.255152) can0 281#112132000400
(1662136125.255361) can0 381#78020C000400
(1662136125.256190) can0 080#052100AA
(1662136125.256476) can0 1838F380#0006210621220003
(1662136125.256758) can0 1839F380#00212221040003AC
(1662136125.257954) can0 001#FF7E0467001022D9
(1662136125.258074) can0 003#00
(1662136125.258317) can0 6D0#22008204670000E7
(1662136125.258596) can0 18EEFF80#F30080F300401E90
(1662136125.262366) can0 201#06000000400D0300
(1662136125.262509) can0 080#00
(1662136125.262775) can0 181#080000000000
(1662136125.262974) can0 281#112132000400
(1662136125.263179) can0 381#79020A000400
(1662136125.266072) can0 6D0#2300820467046753
(1662136125.270140) can0 201#06000000400D0300
(1662136125.270312) can0 080#00
(1662136125.270568) can0 181#080000000000
(1662136125.270771) can0 281#112132000400
(1662136125.270979) can0 381#78020C000400
(1662136125.273988) can0 6D0#240083046700311B
(1662136125.277954) can0 201#06000000400D0300
(1662136125.278125) can0 080#00
(1662136125.278383) can0 181#080000000000
(1662136125.278581) can0 281#112132000400
(1662136125.278788) can0 381#79020C000400
(1662136125.281918) can0 003#00
(1662136125.285771) can0 201#06000000400D0300
(1662136125.285941) can0 080#00
(1662136125.286198) can0 181#080000000000
(1662136125.286400) can0 281#112132000400
(1662136125.286607) can0 381#79020C000400
(1662136125.289998) can0 6D0#25008304670009F4
(1662136125.293577) can0 201#06000000400D0300
(1662136125.293754) can0 080#00
(1662136125.294009) can0 181#080000000000
(1662136125.294211) can0 281#112132000400
(1662136125.294421) can0 381#78020C000400
(1662136125.294802) can0 200#05009B009B000000
(1662136125.301432) can0 201#06000000400D0300
(1662136125.301602) can0 080#00
(1662136125.301837) can0 181#080000000000
(1662136125.302036) can0 281#112132000400
(1662136125.302243) can0 381#78020A000400
(1662136125.305840) can0 003#00
(1662136125.306073) can0 6D0#26008404672A8198
(1662136125.309196) can0 201#06000000400D0300
(1662136125.309368) can0 080#00
(1662136125.309628) can0 181#080000000000
(1662136125.309826) can0 281#112132000400
(1662136125.310035) can0 381#78020C000400
(1662136125.313957) can0 001#FF7C0467001022D9
(1662136125.317005) can0 201#06000000400D0300
(1662136125.317177) can0 080#00
(1662136125.317413) can0 181#080000000000
(1662136125.317607) can0 281#112132000400
(1662136125.317812) can0 381#79020A000400
(1662136125.322039) can0 002#9D6E9D3000000000
(1662136125.324858) can0 201#06000000400D0300
(1662136125.325030) can0 080#00
(1662136125.325258) can0 181#080000000000
(1662136125.325458) can0 281#112132000400
(1662136125.325665) can0 381#79020C000400
(1662136125.329847) can0 003#00
(1662136125.330085) can0 6D0#2700850467FF7D6B
(1662136125.332632) can0 201#06000000400D0300
(1662136125.332809) can0 080#00
(1662136125.333067) can0 181#080000000000
(1662136125.333269) can0 281#112132000400
(1662136125.333476) can0 381#78020C000400
(1662136125.340442) can0 201#06000000400D0300
(1662136125.340613) can0 080#00
(1662136125.340877) can0 181#080000000000
(1662136125.341079) can0 281#112132000400
(1662136125.341284) can0 381#79020C000400
(1662136125.345984) can0 6D0#2800850467002212
(1662136125.346725) can0 036#349D4C00BE9C550A
(1662136125.348421) can0 201#06000000400D0300
(1662136125.348595) can0 080#00
(1662136125.348829) can0 181#080000000000
(1662136125.349029) can0 281#112132000400
(1662136125.349237) can0 381#78020C000400
(1662136125.353908) can0 003#00
(1662136125.356170) can0 201#06000000400D0300
(1662136125.356456) can0 1838F380#000B210B21220003
(1662136125.356569) can0 080#00
(1662136125.356784) can0 181#080000000000
(1662136125.356984) can0 281#112132000400
(1662136125.357189) can0 381#79020C000400
(1662136125.357470) can0 1839F380#00212221040003AC
(1662136125.357640) can0 080#062200AC
(1662136125.361989) can0 6D0#2900860467002113
(1662136125.363978) can0 201#06000000400D0300
(1662136125.364151) can0 080#00
(1662136125.364387) can0 181#080000000000
(1662136125.364581) can0 281#112132000400
(1662136125.364790) can0 381#79020C000400
(1662136125.370019) can0 001#FF7B0467001022D9
(1662136125.371802) can0 201#06000000400D0300
(1662136125.371974) can0 080#00
(1662136125.372202) can0 181#080000000000
(1662136125.372403) can0 281#112132000400
(1662136125.372606) can0 381#79020A000400
(1662136125.377845) can0 003#00
(1662136125.378084) can0 6D0#2A00850467002113
(1662136125.379671) can0 201#06000000400D0300
(1662136125.379846) can0 080#00
(1662136125.380078) can0 181#080000000000
(1662136125.380277) can0 281#112132000400
(1662136125.380486) can0 381#78020C000400
(1662136125.387313) can0 201#06000000400D0300
(1662136125.387481) can0 080#00
(1662136125.387745) can0 181#080000000000
(1662136125.387944) can0 281#112132000400
(1662136125.388153) can0 381#78020C000400
(1662136125.395118) can0 201#06000000400D0300
(1662136125.395290) can0 080#00
(1662136125.395517) can0 181#080000000000
(1662136125.395719) can0 281#112132000400
(1662136125.395925) can0 381#79020C000400
(1662136125.401834) can0 003#00
(1662136125.402073) can0 6D0#2B008404670000F2
(1662136125.403100) can0 201#06000000400D0300
(1662136125.403273) can0 080#00
(1662136125.403502) can0 181#080000000000
(1662136125.403703) can0 281#112132000400
(1662136125.403908) can0 381#79020C000400
(1662136125.410741) can0 201#06000000400D0300
(1662136125.410919) can0 080#00
(1662136125.411176) can0 181#080000000000
(1662136125.411378) can0 281#112132000400
(1662136125.411585) can0 381#79020C000400
(1662136125.417983) can0 6D0#2C008304670000F2
(1662136125.418658) can0 201#06000000400D0300
(1662136125.418834) can0 080#00
(1662136125.419067) can0 181#080000000000
(1662136125.419263) can0 281#112132000400
(1662136125.419470) can0 381#79020C000400
(1662136125.426022) can0 001#FF7D0467001022D9
(1662136125.426140) can0 003#00
(1662136125.426386) can0 002#9D729D3300000000
(1662136125.426628) can0 201#06000000400D0300
(1662136125.426865) can0 6D0#2D00830467002215
(1662136125.426978) can0 080#00
(1662136125.427191) can0 181#080000000000
(1662136125.427392) can0 281#112132000400
(1662136125.427598) can0 381#79020C000400
(1662136125.434007) can0 6D0#2E00820467006558
(1662136125.434252) can0 201#06000000400D0300
(1662136125.434414) can0 080#00
(1662136125.434670) can0 181#080000000000
(1662136125.434875) can0 281#112132000400
(1662136125.435077) can0 381#79020C000400
(1662136125.441995) can0 201#06000000400D0300
(1662136125.442226) can0 6D0#2F0082046700685C
(1662136125.442339) can0 080#00
(1662136125.442553) can0 181#080000000000
(1662136125.442754) can0 281#112132000400
(1662136125.442961) can0 381#79020C000400
(1662136125.446731) can0 036#359D4900BE9C4E01
(1662136125.449837) can0 201#06000000400D0300
(1662136125.449957) can0 003#00
(1662136125.450070) can0 080#00
(1662136125.450313) can0 6D0#30008204670001F6
(1662136125.450526) can0 181#080000000000
(1662136125.450727) can0 281#112132000400
(1662136125.450932) can0 381#79020C000400
(1662136125.456241) can0 080#052100AA
(1662136125.456522) can0 1838F380#0000220021220003
(1662136125.456800) can0 18EEFF80#F30080F300401E90
(1662136125.457089) can0 1839F380#00212221040003AC
(1662136125.458039) can0 201#06000000400D0300
(1662136125.458212) can0 080#00
(1662136125.458469) can0 181#080000000000
(1662136125.458671) can0 281#112132000400
(1662136125.458879) can0 381#78020C000400
(1662136125.465420) can0 201#06000000400D0300
(1662136125.465591) can0 080#00
(1662136125.465855) can0 181#080000000000
(1662136125.466053) can0 281#112132000400
(1662136125.466260) can0 381#79020C000400
(1662136125.473226) can0 201#06000000400D0300
(1662136125.473400) can0 080#00
(1662136125.473631) can0 181#080000000000
(1662136125.473830) can0 281#112132000400
(1662136125.473951) can0 003#00
(1662136125.474156) can0 381#79020C000400
(1662136125.474396) can0 6D0#31008304670000F7
(1662136125.481046) can0 201#06000000400D0300
(1662136125.481216) can0 080#00
(1662136125.481477) can0 181#080000000000
(1662136125.481674) can0 281#112132000400
(1662136125.481882) can0 381#79020C000400
(1662136125.482119) can0 001#FF7E0467001022D9
(1662136125.482354) can0 6D0#32008204679D32C6
(1662136125.488853) can0 201#06000000400D0300
(1662136125.489023) can0 080#00
(1662136125.489283) can0 181#080000000000
(1662136125.489481) can0 281#112132000400
(1662136125.489685) can0 381#79020C000400
(1662136125.489985) can0 6D0#33008304679D7208
(1662136125.496710) can0 201#06000000400D0300
(1662136125.496885) can0 080#00
(1662136125.497115) can0 181#080000000000
(1662136125.497316) can0 281#112132000400
(1662136125.497522) can0 381#79020C000400
(1662136125.497929) can0 003#00
(1662136125.504517) can0 201#06000000400D0300
(1662136125.504694) can0 080#00
(1662136125.504923) can0 181#080000000000
(1662136125.505122) can0 281#112132000400
(1662136125.505329) can0 381#79020C000400
(1662136125.505976) can0 6D0#34008404679D4CE4
(1662136125.512333) can0 201#06000000400D0300
(1662136125.512504) can0 080#00
(1662136125.512742) can0 181#080000000000
(1662136125.512938) can0 281#112132000400
(1662136125.513148) can0 381#78020C000400
(1662136125.520096) can0 201#06000000400D0300
(1662136125.520267) can0 080#00
(1662136125.520527) can0 181#080000000000
(1662136125.520726) can0 281#112132000400
(1662136125.520934) can0 381#79020C000400
(1662136125.521839) can0 003#00
(1662136125.527953) can0 201#06000000400D0300
(1662136125.528121) can0 080#00
(1662136125.528351) can0 181#080000000000
(1662136125.528551) can0 281#112132000400
(1662136125.528757) can0 381#79020C000400
(1662136125.529956) can0 002#9D6E9D3100000000
(1662136125.535769) can0 201#06000000400D0300
(1662136125.535941) can0 080#00
(1662136125.536173) can0 181#080000000000
(1662136125.536371) can0 281#112132000400
(1662136125.536578) can0 381#78020A000400
(1662136125.537950) can0 001#FF7B0467001022D9
(1662136125.538179) can0 6D0#35008504679C38D1
(1662136125.543577) can0 201#06000000400D0300
(1662136125.543750) can0 080#00
(1662136125.543980) can0 181#080000000000
(1662136125.544180) can0 281#112132000400
(1662136125.544404) can0 381#79020C000400
(1662136125.545841) can0 003#00
(1662136125.546727) can0 036#009D4700BE9C4CC8
(1662136125.551341) can0 201#06000000400D0300
(1662136125.551512) can0 080#00
(1662136125.551778) can0 181#080000000000
(1662136125.551976) can0 281#112132000400
(1662136125.552183) can0 381#78020A000400
(1662136125.554047) can0 6D0#36008504679C7610
(1662136125.556193) can0 080#062200AC
(1662136125.556476) can0 1838F380#0003210321220003
(1662136125.556761) can0 1839F380#00212221040003AC
(1662136125.559208) can0 201#06000000400D0300
(1662136125.559379) can0 080#00
(1662136125.559613) can0 181#080000000000
(1662136125.559806) can0 281#112132000400
(1662136125.560014) can0 381#79020C000400
(1662136125.561977) can0 6D0#37008604679C53EF
(1662136125.566962) can0 201#06000000400D0300
(1662136125.567132) can0 080#00
(1662136125.567362) can0 181#080000000000
(1662136125.567563) can0 281#112132000400
(1662136125.567768) can0 381#79020A000400
(1662136125.569902) can0 003#00
(1662136125.570143) can0 6D0#380085046700BEBE
(1662136125.574823) can0 201#06000000400D0300
(1662136125.574984) can0 080#00
(1662136125.575214) can0 181#080000000000
(1662136125.575416) can0 281#112132000400
(1662136125.575623) can0 381#78020C000400
(1662136125.577981) can0 6D0#390085046700BEBF
(1662136125.582595) can0 201#06000000400D0300
(1662136125.582765) can0 080#00
(1662136125.583025) can0 181#080000000000
(1662136125.583223) can0 281#112132000400
(1662136125.583430) can0 381#79020C000400
(1662136125.586051) can0 6D0#3A0085046700BEC0
(1662136125.590396) can0 201#06000000400D0300
(1662136125.590568) can0 080#00
(1662136125.590834) can0 181#080000000000
(1662136125.591035) can0 281#112132000400
(1662136125.591241) can0 381#79020C000400
(1662136125.593941) can0 001#FF7B0467001022D9
(1662136125.594056) can0 003#00
(1662136125.594290) can0 6D0#3B00850467A410B7
(1662136125.598213) can0 201#06000000400D0300
(1662136125.598377) can0 080#00
(1662136125.598608) can0 181#080000000000
(1662136125.598808) can0 281#112132000400
(1662136125.599019) can0 381#79020C000400
(1662136125.602061) can0 6D0#3C0084046761A80C
(1662136125.606021) can0 201#06000000400D0300
(1662136125.606192) can0 080#00
(1662136125.606458) can0 181#080000000000
(1662136125.606650) can0 281#112132000400
(1662136125.606855) can0 381#79020A000400
(1662136125.609971) can0 6D0#3D00840467002A2E
(1662136125.613828) can0 201#06000000400D0300
(1662136125.613999) can0 080#00
(1662136125.614259) can0 181#080000000000
(1662136125.614458) can0 281#112132000400
(1662136125.614664) can0 381#79020C000400
(1662136125.617827) can0 003#00
(1662136125.618072) can0 6D0#3E00830467000408
(1662136125.621651) can0 201#06000000400D0300
(1662136125.621821) can0 080#00
(1662136125.622080) can0 181#080000000000
(1662136125.622279) can0 281#112132000400
(1662136125.622486) can0 381#79020C000400
(1662136125.629452) can0 201#06000000400D0300
(1662136125.629626) can0 080#00
(1662136125.629886) can0 181#080000000000
(1662136125.630084) can0 281#112132000400
(1662136125.630288) can0 381#79020C000400
(1662136125.634022) can0 002#9D719D3400000000
(1662136125.637265) can0 201#06000000400D0300
(1662136125.637436) can0 080#00
(1662136125.637697) can0 181#080000000000
(1662136125.637893) can0 281#112132000400
(1662136125.638102) can0 381#79020C000400
(1662136125.641841) can0 003#00
(1662136125.642077) can0 6D0#3F00820467002A2E
(1662136125.645072) can0 201#06000000400D0300
(1662136125.645244) can0 080#00
(1662136125.645472) can0 181#080000000000
(1662136125.645674) can0 281#112132000400
(1662136125.645881) can0 381#79020C000400
(1662136125.646718) can0 036#019D4300BE9C46BF
(1662136125.650008) can0 001#FF7E0467001022D9
(1662136125.652887) can0 201#06000000400D0300
(1662136125.653057) can0 080#00
(1662136125.653315) can0 181#080000000000
(1662136125.653515) can0 281#112132000400
(1662136125.653721) can0 381#79020C000400
(1662136125.656173) can0 080#052100AA
(1662136125.656457) can0 1838F380#0006210621220003
(1662136125.656741) can0 18EEFF80#F30080F300401E90
(1662136125.657022) can0 1839F380#00212221040003AC
(1662136125.657981) can0 6D0#4000820467000409
(1662136125.660699) can0 201#06000000400D0300
(1662136125.660909) can0 080#00
(1662136125.661147) can0 181#080000000000
(1662136125.661337) can0 281#112132000400
(1662136125.661545) can0 381#79020C000400
(1662136125.665896) can0 003#00
(1662136125.666130) can0 6D0#4100830467002A31
(1662136125.668551) can0 201#06000000400D0300
(1662136125.668731) can0 080#00
(1662136125.668966) can0 181#080000000000
(1662136125.669158) can0 281#112132000400
(1662136125.669365) can0 381#79020C000400
(1662136125.673975) can0 6D0#420083046700121A
(1662136125.676368) can0 201#06000000400D0300
(1662136125.676538) can0 080#00
(1662136125.676775) can0 181#080000000000
(1662136125.676973) can0 281#112132000400
(1662136125.677182) can0 381#79020C000400
(1662136125.682045) can0 6D0#430083046701F5FF
(1662136125.684234) can0 201#06000000400D0300
(1662136125.684419) can0 080#00
(1662136125.684648) can0 181#080000000000
(1662136125.684836) can0 281#112132000400
(1662136125.685045) can0 381#79020C000400
(1662136125.689825) can0 003#00
(1662136125.690060) can0 6D0#440083046702333F
(1662136125.692113) can0 201#06000000400D0300
(1662136125.692284) can0 080#00
(1662136125.692514) can0 181#080000000000
(1662136125.692712) can0 281#112132000400
(1662136125.692919) can0 381#79020C000400
(1662136125.699792) can0 201#06000000400D0300
(1662136125.699961) can0 080#00
(1662136125.700195) can0 181#080000000000
(1662136125.700389) can0 281#112132000400
(1662136125.700595) can0 381#79020A000400
(1662136125.706010) can0 001#FF7D0467001022D9
(1662136125.707671) can0 201#06000000400D0300
(1662136125.707849) can0 080#00
(1662136125.708080) can0 181#080000000000
(1662136125.708279) can0 281#112132000400
(1662136125.708485) can0 381#79020C000400
(1662136125.713831) can0 003#00
(1662136125.714071) can0 6D0#450084046700B1BD
(1662136125.715542) can0 201#06000000400D0300
(1662136125.715721) can0 080#00
(1662136125.715958) can0 181#080000000000
(1662136125.716149) can0 281#112132000400
(1662136125.716358) can0 381#78020C000400
(1662136125.722047) can0 6D0#4600840467007B88
(1662136125.723297) can0 201#06000000400D0300
(1662136125.723465) can0 080#00
(1662136125.723696) can0 181#080000000000
(1662136125.723895) can0 281#112132000400
(1662136125.724102) can0 381#79020C000400
(1662136125.729959) can0 6D0#470085046709B6CE
(1662136125.731114) can0 201#06000000400D0300
(1662136125.731275) can0 080#00
(1662136125.731507) can0 181#080000000000
(1662136125.731705) can0 281#112132000400
(1662136125.731914) can0 381#79020C000400
(1662136125.738022) can0 002#9D6F9D3400000000
(1662136125.738139) can0 003#00
(1662136125.738375) can0 6D0#4800850467081B33
(1662136125.739092) can0 201#06000000400D0300
(1662136125.739264) can0 080#00
(1662136125.739492) can0 181#080000000000
(1662136125.739694) can0 281#112132000400
(1662136125.739903) can0 381#78020C000400
(1662136125.745992) can0 6D0#4900850467000011
(1662136125.746712) can0 036#029D4300BE9C49C3
(1662136125.746955) can0 201#06000000400D0300
(1662136125.747096) can0 080#00
(1662136125.747308) can0 181#080000000000
(1662136125.747508) can0 281#112132000400
(1662136125.747717) can0 381#78020C000400
(1662136125.754039) can0 6D0#4A00850467120B2F
(1662136125.754498) can0 201#06000000400D0300
(1662136125.754701) can0 080#00
(1662136125.754932) can0 181#080000000000
(1662136125.755131) can0 281#112132000400
(1662136125.755339) can0 381#79020C000400
(1662136125.756187) can0 080#062200AC
(1662136125.756470) can0 1838F380#000B210B21220003
(1662136125.756753) can0 1839F380#00212221040003AC
(1662136125.761932) can0 001#FF7A0467001022D9
(1662136125.762050) can0 003#00
(1662136125.762279) can0 6D0#4B00860467117BA0
(1662136125.762529) can0 201#06000000400D0300
(1662136125.762698) can0 080#00
(1662136125.762929) can0 181#080000000000
(1662136125.763128) can0 281#112132000400
(1662136125.763335) can0 381#78020A000400
(1662136125.770051) can0 201#06000000400D0300
(1662136125.770221) can0 080#00
(1662136125.770480) can0 181#080000000000
(1662136125.770679) can0 281#112132000400
(1662136125.770886) can0 381#79020C000400
(1662136125.777862) can0 201#06000000400D0300
(1662136125.778033) can0 080#00
(1662136125.778289) can0 181#080000000000
(1662136125.778492) can0 281#112132000400
(1662136125.778699) can0 381#79020C000400
(1662136125.785778) can0 201#06000000400D0300
(1662136125.785896) can0 003#00
(1662136125.786013) can0 080#00
(1662136125.786244) can0 6D0#4C008504671194B9
(1662136125.786457) can0 181#080000000000
(1662136125.786656) can0 281#112132000400
(1662136125.786861) can0 381#79020A000400
(1662136125.793525) can0 201#06000000400D0300
(1662136125.793698) can0 080#00
(1662136125.793928) can0 181#080000000000
(1662136125.794126) can0 281#112132000400
(1662136125.794333) can0 381#78020A000400
(1662136125.801299) can0 201#06000000400D0300
(1662136125.801473) can0 080#00
(1662136125.801733) can0 181#080000000000
(1662136125.801936) can0 281#112132000400
(1662136125.802142) can0 381#79020C000400
(1662136125.802371) can0 6D0#4D00840467076C87
(1662136125.809115) can0 201#06000000400D0300
(1662136125.809277) can0 080#00
(1662136125.809537) can0 181#080000000000
(1662136125.809735) can0 281#112132000400
(1662136125.809942) can0 381#79020C000400
(1662136125.810059) can0 003#00
(1662136125.816919) can0 201#06000000400D0300
(1662136125.817087) can0 080#00
(1662136125.817319) can0 181#080000000000
(1662136125.817517) can0 281#112132000400
(1662136125.817725) can0 381#79020C000400
(1662136125.817966) can0 001#FF7D0467001022D9
(1662136125.818204) can0 6D0#4E00830467000115
(1662136125.824783) can0 201#06000000400D0300
(1662136125.824951) can0 080#00
(1662136125.825184) can0 181#080000000000
(1662136125.825385) can0 281#112132000400
(1662136125.825589) can0 381#79020C000400
(1662136125.826050) can0 6D0#4F00830467000116
(1662136125.832586) can0 201#06000000400D0300
(1662136125.832760) can0 080#00
(1662136125.832992) can0 181#080000000000
(1662136125.833190) can0 281#112132000400
(1662136125.833397) can0 381#79020C000400
(1662136125.833816) can0 003#00
(1662136125.834054) can0 6D0#50008304674F3196
(1662136125.840396) can0 201#06000000400D0300
(1662136125.840566) can0 080#00
(1662136125.840802) can0 181#080000000000
(1662136125.841002) can0 281#112132000400
(1662136125.841206) can0 381#79020A000400
(1662136125.841943) can0 002#9D729D3300000000
(1662136125.846719) can0 036#039D3400BE9C36A2
(1662136125.848275) can0 201#06000000400D0300
(1662136125.848446) can0 080#00
(1662136125.848676) can0 181#080000000000
(1662136125.848877) can0 281#112132000400
(1662136125.849085) can0 381#78020C000400
(1662136125.855975) can0 201#06000000400D0300
(1662136125.856169) can0 080#052100AA
(1662136125.856284) can0 080#00
(1662136125.856497) can0 181#080000000000
(1662136125.856698) can0 281#112132000400
(1662136125.856904) can0 381#79020C000400
(1662136125.857183) can0 18EEFF80#F30080F300401E90
(1662136125.857472) can0 1838F380#0000220021220003
(1662136125.857754) can0 1839F380#00212221040003AC
(1662136125.857889) can0 003#00
(1662136125.858127) can0 6D0#5100820467213168
(1662136125.863839) can0 201#06000000400D0300
(1662136125.864013) can0 080#00
(1662136125.864248) can0 181#080000000000
(1662136125.864441) can0 281#112132000400
(1662136125.864652) can0 381#79020C000400
(1662136125.865968) can0 6D0#5200820467000017
(1662136125.871650) can0 201#06000000400D0300
(1662136125.871825) can0 080#00
(1662136125.872057) can0 181#080000000000
(1662136125.872256) can0 281#112132000400
(1662136125.872464) can0 381#79020C000400
(1662136125.874008) can0 001#FF7D0467001022D9
(1662136125.874250) can0 6D0#5300830467000019
(1662136125.879448) can0 201#06000000400D0300
(1662136125.879628) can0 080#00
(1662136125.879855) can0 181#080000000000
(1662136125.880055) can0 281#112132000400
(1662136125.880261) can0 381#79020C000400
(1662136125.881823) can0 003#00
(1662136125.882060) can0 6D0#5400830467023652
(1662136125.887276) can0 201#06000000400D0300
(1662136125.887435) can0 080#00
(1662136125.887667) can0 181#080000000000
(1662136125.887865) can0 281#112132000400
(1662136125.888071) can0 381#79020C000400
(1662136125.895027) can0 201#06000000400D0300
(1662136125.895198) can0 080#00
(1662136125.895428) can0 181#080000000000
(1662136125.895629) can0 281#112132000400
(1662136125.895836) can0 381#78020A000400
(1662136125.897958) can0 6D0#550084046700001C
(1662136125.902840) can0 201#06000000400D0300
(1662136125.903011) can0 080#00
(1662136125.903268) can0 181#080000000000
(1662136125.903470) can0 281#112132000400
(1662136125.903677) can0 381#79020C000400
(1662136125.905882) can0 003#00
(1662136125.910653) can0 201#06000000400D0300
(1662136125.910830) can0 080#00
(1662136125.911090) can0 181#080000000000
(1662136125.911288) can0 281#112132000400
(1662136125.911497) can0 381#78020C000400
(1662136125.913965) can0 6D0#560084046700001D
(1662136125.918466) can0 201#06000000400D0300
(1662136125.918641) can0 080#00
(1662136125.918899) can0 181#080000000000
(1662136125.919098) can0 281#112132000400
(1662136125.919304) can0 381#78020A000400
(1662136125.921972) can0 6D0#570085046700001F
(1662136125.926273) can0 201#06000000400D0300
(1662136125.926444) can0 080#00
(1662136125.926707) can0 181#080000000000
(1662136125.926906) can0 281#112132000400
(1662136125.927113) can0 381#78020A000400
(1662136125.929932) can0 001#FF7C0467001022D9
(1662136125.930050) can0 003#00
(1662136125.934085) can0 201#06000000400D0300
(1662136125.934256) can0 080#00
(1662136125.934515) can0 181#080000000000
(1662136125.934715) can0 281#112132000400
(1662136125.934924) can0 381#78020C000400
(1662136125.938046) can0 6D0#5800850467FFD8F7
(1662136125.941897) can0 201#06000000400D0300
(1662136125.942066) can0 080#00
(1662136125.942326) can0 181#080000000000
(1662136125.942526) can0 281#112132000400
(1662136125.942732) can0 381#79020C000400
(1662136125.945933) can0 002#9D6E9D3000000000
(1662136125.946166) can0 6D0#5900860467000022
(1662136125.946707) can0 036#049D6100BE9C6701
(1662136125.949711) can0 201#06000000400D0300
(1662136125.949888) can0 080#00
(1662136125.950148) can0 181#080000000000
(1662136125.950345) can0 281#112132000400
(1662136125.950552) can0 381#79020C000400
(1662136125.953893) can0 003#00
(1662136125.954129) can0 6D0#5A00860467000023
(1662136125.956182) can0 080#062200AC
(1662136125.956465) can0 1838F380#0003210321220003
(1662136125.956748) can0 1839F380#00212221040003AC
(1662136125.957872) can0 201#06000000400D0300
(1662136125.958042) can0 080#00
(1662136125.958274) can0 181#080000000000
(1662136125.958473) can0 281#112132000400
(1662136125.958678) can0 381#79020A000400
(1662136125.961963) can0 6D0#5B00860467000024
(1662136125.965329) can0 201#06000000400D0300
(1662136125.965500) can0 080#00
(1662136125.965768) can0 181#080000000000
(1662136125.965964) can0 281#112132000400
(1662136125.966172) can0 381#79020C000400
(1662136125.970034) can0 6D0#5C00860467000025
(1662136125.973141) can0 201#06000000400D0300
(1662136125.973313) can0 080#00
(1662136125.973569) can0 181#080000000000
(1662136125.973769) can0 281#112132000400
(1662136125.973976) can0 381#79020C000400
(1662136125.977811) can0 003#00
(1662136125.978046) can0 6D0#5D00850467000025
(1662136125.980957) can0 201#06000000400D0300
(1662136125.981124) can0 080#00
(1662136125.981385) can0 181#080000000000
(1662136125.981583) can0 281#112132000400
(1662136125.981792) can0 381#78020C000400
(1662136125.986000) can0 001#FF7B0467001022D9
(1662136125.988767) can0 201#06000000400D0300
(1662136125.988940) can0 080#00
(1662136125.989196) can0 181#080000000000
(1662136125.989398) can0 281#112132000400
(1662136125.989605) can0 381#79020C000600
(1662136125.993964) can0 6D0#5E00850467000026
(1662136125.996574) can0 201#06000000400D0300
(1662136125.996752) can0 080#00
(1662136125.997008) can0 181#080000000000
(1662136125.997211) can0 281#112132000400
(1662136125.997417) can0 381#78020A000400
(1662136126.001815) can0 003#00
(1662136126.002104) can0 1806E9F4#049800BE00000000
(1662136126.002396) can0 1806E5F4#049800BE00000000
(1662136126.002686) can0 1806E7F4#049800BE00000000
(1662136126.004621) can0 201#06000000400D0300
(1662136126.004798) can0 080#00
(1662136126.005027) can0 181#080000000000
(1662136126.005225) can0 281#112132000400
(1662136126.005434) can0 381#78020C000400
(1662136126.012202) can0 201#06000000400D0300
(1662136126.012369) can0 080#00
(1662136126.012630) can0 181#080000000000
(1662136126.012828) can0 281#112132000400
(1662136126.013038) can0 381#78020C000400
(1662136126.020005) can0 201#06000000400D0300
(1662136126.020177) can0 080#00
(1662136126.020438) can0 181#080000000000
(1662136126.020635) can0 281#112132000400
(1662136126.020846) can0 381#79020A000400
(1662136126.025811) can0 003#00
(1662136126.026058) can0 6D0#5F00830467000025
(1662136126.027997) can0 201#06000000400D0300
(1662136126.028160) can0 080#00
(1662136126.028390) can0 181#080000000000
(1662136126.028588) can0 281#112132000400
(1662136126.028795) can0 381#79020D000400
(1662136126.034039) can0 6D0#6000820467000025
(1662136126.035739) can0 201#06000000400D0300
(1662136126.035916) can0 080#00
(1662136126.036141) can0 181#080000000000
(1662136126.036340) can0 281#112132000400
(1662136126.036549) can0 381#78020C000400
(1662136126.041923) can0 001#FF7E0467001022D9
(1662136126.042157) can0 6D0#6100820467000026
(1662136126.043616) can0 201#06000000400D0300
(1662136126.043788) can0 080#00
(1662136126.044021) can0 181#080000000000
(1662136126.044219) can0 281#112132000400
(1662136126.044424) can0 381#79020C000400
(1662136126.046705) can0 036#059D6500BE9C6807
(1662136126.050013) can0 002#9D729D3500000000
(1662136126.050131) can0 003#00
(1662136126.050368) can0 6D0#6200820467000027
(1662136126.051495) can0 201#06000000400D0300
(1662136126.051663) can0 080#00
(1662136126.051894) can0 181#080000000000
(1662136126.052097) can0 281#112132000400
(1662136126.052300) can0 381#79020C000400
(1662136126.056166) can0 080#052100AA
(1662136126.056451) can0 1838F380#0006210621220003
(1662136126.056733) can0 18EEFF80#F30080F300401E90
(1662136126.057015) can0 1839F380#00212221040003AC
(1662136126.057975) can0 6D0#6300820467000028
(1662136126.059314) can0 201#06000000400D0300
(1662136126.059481) can0 080#00
(1662136126.059746) can0 181#080000000000
(1662136126.059945) can0 281#112132000400
(1662136126.060151) can0 381#79020C000400
(1662136126.066033) can0 6D0#6400820467000029
(1662136126.066976) can0 201#06000000400D0300
(1662136126.067149) can0 080#00
(1662136126.067392) can0 181#080000000000
(1662136126.067581) can0 281#112132000400
(1662136126.067784) can0 381#78020A000400
(1662136126.073808) can0 003#00
(1662136126.074047) can0 6D0#650082046700002A
(1662136126.074908) can0 201#06000000400D0300
(1662136126.075077) can0 080#00
(1662136126.075307) can0 181#080000000000
(1662136126.075506) can0 281#112132000400
(1662136126.075713) can0 381#79020C000400
(1662136126.082495) can0 201#06000000400D0300
(1662136126.082672) can0 080#00
(1662136126.082932) can0 181#080000000000
(1662136126.083131) can0 281#112132000400
(1662136126.083339) can0 381#79020C000400
(1662136126.090305) can0 201#06000000400D0300
(1662136126.090477) can0 080#00
(1662136126.090743) can0 181#080000000000
(1662136126.090944) can0 281#112132000400
(1662136126.091152) can0 381#78020C000400
(1662136126.097924) can0 001#FF7C0467001022D9
(1662136126.098042) can0 003#00
(1662136126.098286) can0 201#06000000400D0300
(1662136126.098528) can0 6D0#660084046700002D
(1662136126.098638) can0 080#00
(1662136126.098852) can0 181#080000000000
(1662136126.099054) can0 281#112132000400
(1662136126.099260) can0 381#78020C000400
(1662136126.105932) can0 201#06000000400D0300
(1662136126.106101) can0 080#00
(1662136126.106360) can0 181#080000000000
(1662136126.106559) can0 281#112132000400
(1662136126.106766) can0 381#79020D000400
(1662136126.113746) can0 201#06000000400D0300
(1662136126.113989) can0 6D0#6700840467FFFF2C
(1662136126.114094) can0 080#00
(1662136126.114309) can0 181#080000000000
(1662136126.114508) can0 281#112132000400
(1662136126.114714) can0 381#79020C000400
(1662136126.121556) can0 201#06000000400D0300
(1662136126.121732) can0 080#00
(1662136126.121886) can0 003#00
(1662136126.122096) can0 181#080000000000
(1662136126.122297) can0 281#112132000400
(1662136126.122504) can0 381#78020C000400
(1662136126.122742) can0 6D0#6E00840467004075
(1662136126.129403) can0 201#06000000400D0300
(1662136126.129574) can0 080#00
(1662136126.129812) can0 181#080000000000
(1662136126.130009) can0 281#112132000400
(1662136126.130216) can0 381#79020C000400
(1662136126.130447) can0 6D0#7300850467080043
(1662136126.137224) can0 201#06000000400D0300
(1662136126.137391) can0 080#00
(1662136126.137620) can0 181#080000000000
(1662136126.137818) can0 281#112132000400
(1662136126.138023) can0 381#79020C000400
(1662136126.138260) can0 6D0#7400850467080145
(1662136126.144987) can0 201#06000000400D0300
(1662136126.145159) can0 080#00
(1662136126.145419) can0 181#080000000000
(1662136126.145620) can0 281#112132000400
(1662136126.145827) can0 381#78020C000400
(1662136126.145945) can0 003#00
(1662136126.146182) can0 6D0#750085046700003D
(1662136126.146701) can0 036#069D5500BE9C5AEA
(1662136126.152837) can0 201#06000000400D0300
(1662136126.153010) can0 080#00
(1662136126.153246) can0 181#080000000000
(1662136126.153441) can0 281#112132000400
(1662136126.153647) can0 381#79020C000400
(1662136126.153928) can0 001#FF7B0467001022D9
(1662136126.154169) can0 002#9D6F9D3200000000
(1662136126.156178) can0 080#062200AC
(1662136126.156460) can0 1838F380#000B210B21220003
(1662136126.156743) can0 1839F380#00212221040003AC
(1662136126.160608) can0 201#06000000400D0300
(1662136126.160787) can0 080#00
(1662136126.161043) can0 181#080000000000
(1662136126.161244) can0 281#112132000400
(1662136126.161453) can0 381#78020C000400
(1662136126.168421) can0 201#06000000400D0300
(1662136126.168596) can0 080#00
(1662136126.168856) can0 181#080000000000
(1662136126.169055) can0 281#112132000400
(1662136126.169261) can0 381#79020C000400
(1662136126.169804) can0 003#00
(1662136126.170039) can0 6D0#760085046700003E
(1662136126.176278) can0 201#06000000400D0300
(1662136126.176442) can0 080#00
(1662136126.176675) can0 181#080000000000
(1662136126.176873) can0 281#112132000400
(1662136126.177082) can0 381#78020C000400
(1662136126.184043) can0 201#06000000400D0300
(1662136126.184209) can0 080#00
(1662136126.184466) can0 181#080000000000
(1662136126.184669) can0 281#112132000400
(1662136126.184876) can0 381#79020C000400
(1662136126.185954) can0 6D0#770085046700003F
(1662136126.191899) can0 201#06000000400D0300
(1662136126.192071) can0 080#00
(1662136126.192299) can0 181#080000000000
(1662136126.192500) can0 281#112132000400
(1662136126.192706) can0 381#79020C000400
(1662136126.193877) can0 003#00
(1662136126.199715) can0 201#06000000400D0300
(1662136126.199888) can0 080#00
(1662136126.200115) can0 181#080000000000
(1662136126.200316) can0 281#112132000400
(1662136126.200522) can0 381#78020A000400
(1662136126.201958) can0 6D0#780084046700003F
(1662136126.207516) can0 201#06000000400D0300
(1662136126.207692) can0 080#00
(1662136126.207924) can0 181#080000000000
(1662136126.208125) can0 281#112132000400
(1662136126.208330) can0 381#79020C000400
(1662136126.209987) can0 001#FF7C0467001022D9
(1662136126.215328) can0 201#06000000400D0300
(1662136126.215499) can0 080#00
(1662136126.215733) can0 181#080000000000
(1662136126.215933) can0 281#112132000400
(1662136126.216141) can0 381#79020D000400
(1662136126.217821) can0 003#00
(1662136126.218050) can0 6D0#790083046700003F
(1662136126.223142) can0 201#06000000400D0300
(1662136126.223309) can0 080#00
(1662136126.223541) can0 181#080000000000
(1662136126.223739) can0 281#112132000400
(1662136126.223946) can0 381#79020C000400
(1662136126.230910) can0 201#06000000400D0300
(1662136126.231081) can0 080#00
(1662136126.231337) can0 181#080000000000
(1662136126.231540) can0 281#112132000400
(1662136126.231746) can0 381#79020C000400
(1662136126.238724) can0 201#06000000400D0300
(1662136126.238896) can0 080#00
(1662136126.239150) can0 181#080000000000
(1662136126.239351) can0 281#112132000400
(1662136126.239556) can0 381#79020A000400
(1662136126.241881) can0 003#00
(1662136126.242111) can0 6D0#7A0082046700003F
(1662136126.246526) can0 201#06000000400D0300
(1662136126.246764) can0 036#079D4800BE9C4CD0
(1662136126.246877) can0 080#00
(1662136126.247091) can0 181#080000000000
(1662136126.247292) can0 281#112132000400
(1662136126.247500) can0 381#78020C000400
(1662136126.249951) can0 6D0#7B00820467000343
(1662136126.254339) can0 201#06000000400D0300
(1662136126.254508) can0 080#00
(1662136126.254773) can0 181#080000000000
(1662136126.254972) can0 281#112132000400
(1662136126.255179) can0 381#79020D000400
(1662136126.256221) can0 080#052100AA
(1662136126.256507) can0 1838F380#0000220021220003
(1662136126.256788) can0 18EEFF80#F30080F300401E90
(1662136126.257069) can0 1839F380#00212221040003AC
(1662136126.257984) can0 002#9D729D3500000000
(1662136126.262190) can0 201#06000000400D0300
(1662136126.262329) can0 080#00
(1662136126.262590) can0 181#080000000000
(1662136126.262789) can0 281#112132000400
(1662136126.262997) can0 381#78020C000400
(1662136126.265915) can0 001#FF7E0467001022D9
(1662136126.266030) can0 003#00
(1662136126.266279) can0 6D0#7C00820467000647
(1662136126.269966) can0 201#06000000400D0300
(1662136126.270137) can0 080#00
(1662136126.270397) can0 181#080000000000
(1662136126.270595) can0 281#112132000400
(1662136126.270802) can0 381#79020C000400
(1662136126.277808) can0 201#06000000400D0300
(1662136126.277951) can0 080#00
(1662136126.278211) can0 181#080000000000
(1662136126.278409) can0 281#112132000400
(1662136126.278617) can0 381#79020C000400
(1662136126.281948) can0 6D0#7D00830467003073
(1662136126.285590) can0 201#06000000400D0300
(1662136126.285765) can0 080#00
(1662136126.286023) can0 181#080000000000
(1662136126.286221) can0 281#112132000400
(1662136126.286427) can0 381#79020C000400
(1662136126.289877) can0 003#00
(1662136126.293395) can0 201#06000000400D0300
(1662136126.293569) can0 080#00
(1662136126.293832) can0 181#080000000000
(1662136126.294032) can0 281#112132000400
(1662136126.294238) can0 381#79020C000400
(1662136126.295706) can0 200#05009B009B000000
(1662136126.297949) can0 6D0#7E00840467000045
(1662136126.301204) can0 201#06000000400D0300
(1662136126.301377) can0 080#00
(1662136126.301634) can0 181#080000000000
(1662136126.301837) can0 281#112132000400
(1662136126.302043) can0 381#79020C000400
(1662136126.309016) can0 201#06000000400D0300
(1662136126.309187) can0 080#00
(1662136126.309445) can0 181#080000000000
(1662136126.309647) can0 281#112132000400
(1662136126.309854) can0 381#79020C000400
(1662136126.313875) can0 003#00
(1662136126.316826) can0 201#06000000400D0300
(1662136126.316997) can0 080#00
(1662136126.317227) can0 181#080000000000
(1662136126.317425) can0 281#112132000400
(1662136126.317632) can0 381#79020C000400
(1662136126.321915) can0 001#FF7B0467001022D9
(1662136126.322144) can0 6D0#7F0085046702EE37
(1662136126.324645) can0 201#06000000400D0300
(1662136126.324820) can0 080#00
(1662136126.325080) can0 181#080000000000
(1662136126.325278) can0 281#112132000400
(1662136126.325485) can0 381#79020C000400
(1662136126.332450) can0 201#06000000400D0300
(1662136126.332627) can0 080#00
(1662136126.332885) can0 181#080000000000
(1662136126.333085) can0 281#112132000400
(1662136126.333292) can0 381#79020C000400
(1662136126.337799) can0 003#00
(1662136126.338036) can0 6D0#8000850467000048
(1662136126.340369) can0 201#06000000400D0300
(1662136126.340540) can0 080#00
(1662136126.340780) can0 181#080000000000
(1662136126.340978) can0 281#112132000400
(1662136126.341185) can0 381#79020C000400
(1662136126.346700) can0 036#0C9D4200BE9C4ACD
(1662136126.348176) can0 201#06000000400D0300
(1662136126.348352) can0 080#00
(1662136126.348577) can0 181#080000000000
(1662136126.348777) can0 281#112132000400
(1662136126.348983) can0 381#79020C000400
(1662136126.353945) can0 6D0#00008504670103CC
(1662136126.355997) can0 201#06000000400D0300
(1662136126.356178) can0 080#062200AC
(1662136126.356292) can0 080#00
(1662136126.356580) can0 1838F380#0003210321220003
(1662136126.356790) can0 181#080000000000
(1662136126.356990) can0 281#112132000400
(1662136126.357196) can0 381#78020A000400
(1662136126.357477) can0 1839F380#00212221040003AC
(1662136126.361995) can0 002#9D6F9D3400000000
(1662136126.362115) can0 003#00
(1662136126.362360) can0 6D0#01008504670603D2
(1662136126.363944) can0 201#06000000400D0300
(1662136126.364109) can0 080#00
(1662136126.364370) can0 181#080000000000
(1662136126.364569) can0 281#112132000400
(1662136126.364775) can0 381#79020C000400
(1662136126.369956) can0 6D0#0200850467057A49
(1662136126.371613) can0 201#06000000400D0300
(1662136126.371791) can0 080#00
(1662136126.372026) can0 181#080000000000
(1662136126.372220) can0 281#112132000400
(1662136126.372426) can0 381#79020C000400
(1662136126.377914) can0 001#FF7B0467001022D9
(1662136126.379421) can0 201#06000000400D0300
(1662136126.379597) can0 080#00
(1662136126.379827) can0 181#080000000000
(1662136126.380026) can0 281#112132000400
(1662136126.380233) can0 381#79020D000400
(1662136126.385874) can0 003#00
(1662136126.387238) can0 201#06000000400D0300
(1662136126.387406) can0 080#00
(1662136126.387635) can0 181#080000000000
(1662136126.387835) can0 281#112132000400
(1662136126.388041) can0 381#78020A000400
(1662136126.393944) can0 6D0#03008404672403F1
(1662136126.395051) can0 201#06000000400D0300
(1662136126.395216) can0 080#00
(1662136126.395446) can0 181#080000000000
(1662136126.395646) can0 281#112132000400
(1662136126.395853) can0 381#79020C000400
(1662136126.402787) can0 201#06000000400D0300
(1662136126.402929) can0 080#00
(1662136126.403188) can0 181#080000000000
(1662136126.403388) can0 281#112132000400
(1662136126.403595) can0 381#79020C000400
(1662136126.409794) can0 003#00
(1662136126.410035) can0 6D0#040083046700E6B0
(1662136126.410738) can0 201#06000000400D0300
(1662136126.410912) can0 080#00
(1662136126.411142) can0 181#080000000000
(1662136126.411341) can0 281#112132000400
(1662136126.411548) can0 381#78020A000400
(1662136126.417946) can0 6D0#05008304670000CB
(1662136126.418478) can0 201#06000000400D0300
(1662136126.418652) can0 080#00
(1662136126.418882) can0 181#080000000000
(1662136126.419081) can0 281#112132000400
(1662136126.419291) can0 381#79020C000400
(1662136126.426011) can0 6D0#06008304670030FC
(1662136126.426258) can0 201#06000000400D0300
(1662136126.426461) can0 080#00
(1662136126.426698) can0 181#080000000000
(1662136126.426896) can0 281#112132000400
(1662136126.427104) can0 381#79020C000400
(1662136126.433907) can0 001#FF7E0467001022D9
(1662136126.434024) can0 003#00
(1662136126.434277) can0 201#06000000400D0300
(1662136126.434405) can0 080#00
(1662136126.434600) can0 181#080000000000
(1662136126.434801) can0 281#112132000400
(1662136126.435007) can0 381#79020C000400
(1662136126.435242) can0 6D0#0700820467001CE8
(1662136126.441807) can0 201#06000000400D0300
(1662136126.441979) can0 080#00
(1662136126.442234) can0 181#080000000000
(1662136126.442434) can0 281#112132000400
(1662136126.442645) can0 381#78020C000400
(1662136126.446699) can0 036#0D9D5B00BE9C5EFB
(1662136126.449621) can0 201#06000000400D0300
(1662136126.449798) can0 080#00
(1662136126.450035) can0 6D0#080082046700A875
(1662136126.450247) can0 181#080000000000
(1662136126.450447) can0 281#112132000400
(1662136126.450656) can0 381#78020C000400
(1662136126.456165) can0 080#052100AA
(1662136126.456453) can0 1838F380#0006210621220003
(1662136126.456736) can0 1839F380#00212221040003AC
(1662136126.457793) can0 201#06000000400D0300
(1662136126.457913) can0 003#00
(1662136126.458030) can0 080#00
(1662136126.458290) can0 181#080000000000
(1662136126.458490) can0 281#112132000400
(1662136126.458702) can0 381#79020C000400
(1662136126.458980) can0 18EEFF80#F30080F300401E90
(1662136126.465287) can0 201#06000000400D0300
(1662136126.465459) can0 080#00
(1662136126.465698) can0 181#080000000000
(1662136126.465893) can0 281#112132000400
(1662136126.466130) can0 002#9D729D3500000000
(1662136126.466336) can0 381#78020A000400
(1662136126.473048) can0 201#06000000400D0300
(1662136126.473221) can0 080#00
(1662136126.473456) can0 181#080000000000
(1662136126.473648) can0 281#112132000400
(1662136126.473855) can0 381#79020C000400
(1662136126.474093) can0 6D0#09008304670010DF
(1662136126.480900) can0 201#06000000400D0300
(1662136126.481040) can0 080#00
(1662136126.481313) can0 181#080000000000
(1662136126.481500) can0 281#112132000400
(1662136126.481706) can0 381#79020C000400
(1662136126.481864) can0 003#00
(1662136126.482102) can0 6D0#0A008304670013E3
(1662136126.488720) can0 201#06000000400D0300
(1662136126.488890) can0 080#00
(1662136126.489119) can0 181#080000000000
(1662136126.489322) can0 281#112132000400
(1662136126.489528) can0 381#79020C000400
(1662136126.489916) can0 001#FF7D0467001022D9
(1662136126.490146) can0 6D0#0B008304670000D1
(1662136126.496530) can0 201#06000000400D0300
(1662136126.496705) can0 080#00
(1662136126.496936) can0 181#080000000000
(1662136126.497134) can0 281#112132000400
(1662136126.497340) can0 381#79020C000400
(1662136126.498018) can0 6D0#0C00840467FF7C4E
(1662136126.504343) can0 201#06000000400D0300
(1662136126.504512) can0 080#00
(1662136126.504749) can0 181#080000000000
(1662136126.504952) can0 281#112132000400
(1662136126.505155) can0 381#79020C000400
(1662136126.505791) can0 003#00
(1662136126.506026) can0 6D0#0D0084046704673F
(1662136126.512153) can0 201#06000000400D0300
(1662136126.512325) can0 080#00
(1662136126.512554) can0 181#080000000000
(1662136126.512753) can0 281#112132000400
(1662136126.512959) can0 381#79020C000400
(1662136126.519914) can0 201#06000000400D0300
(1662136126.520087) can0 080#00
(1662136126.520316) can0 181#080000000000
(1662136126.520517) can0 281#112132000400
(1662136126.520721) can0 381#79020C000400
(1662136126.527764) can0 201#06000000400D0300
(1662136126.527907) can0 080#00
(1662136126.528165) can0 181#080000000000
(1662136126.528367) can0 281#112132000400
(1662136126.528572) can0 381#79020C000400
(1662136126.529789) can0 003#00
(1662136126.535585) can0 201#06000000400D0300
(1662136126.535761) can0 080#00
(1662136126.535990) can0 181#080000000000
(1662136126.536193) can0 281#112132000400
(1662136126.536406) can0 381#78020C000400
(1662136126.537946) can0 6D0#0E0085046704603A
(1662136126.543401) can0 201#06000000400D0300
(1662136126.543577) can0 080#00
(1662136126.543807) can0 181#080000000000
(1662136126.544007) can0 281#112132000400
(1662136126.544213) can0 381#79020C000400
(1662136126.545904) can0 001#FF7B0467001022D9
(1662136126.546698) can0 036#0E9D4B00BE9C50DE
(1662136126.551162) can0 201#06000000400D0300
(1662136126.551334) can0 080#00
(1662136126.551591) can0 181#080000000000
(1662136126.551791) can0 281#112132000400
(1662136126.551998) can0 381#79020C000400
(1662136126.553869) can0 003#00
(1662136126.554101) can0 6D0#0F0086046700AA82
(1662136126.556165) can0 080#062200AC
(1662136126.556445) can0 1838F380#000B210B21220003
(1662136126.556727) can0 1839F380#00212221040003AC
(1662136126.559136) can0 201#06000000400D0300
(1662136126.559306) can0 080#00
(1662136126.559537) can0 181#080000000000
(1662136126.559736) can0 281#112132000400
(1662136126.559943) can0 381#79020C000400
(1662136126.561940) can0 6D0#1000850467027F59
(1662136126.566787) can0 201#06000000400D0300
(1662136126.566959) can0 080#00
(1662136126.567216) can0 181#080000000000
(1662136126.567416) can0 281#112132000400
(1662136126.567623) can0 381#79020C000400
(1662136126.569981) can0 002#9D719D3600000000
(1662136126.574633) can0 201#06000000400D0300
(1662136126.574810) can0 080#00
(1662136126.575039) can0 181#080000000000
(1662136126.575245) can0 281#112132000400
(1662136126.575446) can0 381#79020C000400
(1662136126.577799) can0 003#00
(1662136126.578032) can0 6D0#110085046700350E
(1662136126.582406) can0 201#06000000400D0300
(1662136126.582582) can0 080#00
(1662136126.582840) can0 181#080000000000
(1662136126.583040) can0 281#112132000400
(1662136126.583246) can0 381#79020C000400
(1662136126.586015) can0 6D0#1200850467002701
(1662136126.590223) can0 201#06000000400D0300
(1662136126.590393) can0 080#00
(1662136126.590649) can0 181#080000000000
(1662136126.590849) can0 281#112132000400
(1662136126.591056) can0 381#79020C000400
(1662136126.593931) can0 6D0#130084046700643E
(1662136126.598025) can0 201#06000000400D0300
(1662136126.598197) can0 080#00
(1662136126.598427) can0 181#080000000000
(1662136126.598627) can0 281#112132000400
(1662136126.598835) can0 381#78020C000400
(1662136126.601974) can0 001#FF7C0467001022D9
(1662136126.602091) can0 003#00
(1662136126.602332) can0 6D0#14008404672C0C13
(1662136126.605842) can0 201#06000000400D0300
(1662136126.606012) can0 080#00
(1662136126.606268) can0 181#080000000000
(1662136126.606469) can0 281#112132000400
(1662136126.606675) can0 381#79020C000400
(1662136126.609947) can0 6D0#15008304678082DD
(1662136126.613651) can0 201#06000000400D0300
(1662136126.613829) can0 080#00
(1662136126.614087) can0 181#080000000000
(1662136126.614289) can0 281#112132000400
(1662136126.614495) can0 381#78020C000400
(1662136126.621497) can0 201#06000000400D0300
(1662136126.621674) can0 080#00
(1662136126.621901) can0 181#080000000000
(1662136126.622102) can0 281#112132000400
(1662136126.622308) can0 381#79020C000400
(1662136126.625855) can0 003#00
(1662136126.629270) can0 201#06000000400D0300
(1662136126.629443) can0 080#00
(1662136126.629705) can0 181#080000000000
(1662136126.629904) can0 281#112132000400
(1662136126.630111) can0 381#78020A000400
(1662136126.633935) can0 6D0#1600820467049877
(1662136126.637122) can0 201#06000000400D0300
(1662136126.637259) can0 080#00
(1662136126.637522) can0 181#080000000000
(1662136126.637722) can0 281#112132000400
(1662136126.637930) can0 381#78020C000400
(1662136126.644893) can0 201#06000000400D0300
(1662136126.645064) can0 080#00
(1662136126.645296) can0 181#080000000000
(1662136126.645493) can0 281#112132000400
(1662136126.645702) can0 381#78020A000400
(1662136126.646704) can0 036#0F9D5000BE9C53E7
(1662136126.649785) can0 003#00
(1662136126.650022) can0 6D0#170082046702BC9A
(1662136126.652744) can0 201#06000000400D0300
(1662136126.652887) can0 080#00
(1662136126.653145) can0 181#080000000000
(1662136126.653343) can0 281#112132000400
(1662136126.653550) can0 381#79020C000400
(1662136126.656151) can0 080#052100AA
(1662136126.656435) can0 1838F380#0000220021220003
(1662136126.656719) can0 18EEFF80#F30080F300401E90
(1662136126.657003) can0 1839F380#00212221040003AC
(1662136126.657973) can0 001#FF7E0467001022D9
(1662136126.658217) can0 6D0#1800820467000BE8
(1662136126.660618) can0 201#06000000400D0300
(1662136126.660797) can0 080#00
(1662136126.661029) can0 181#080000000000
(1662136126.661228) can0 281#112132000400
(1662136126.661433) can0 381#79020C000400
(1662136126.665940) can0 6D0#19008204670402E4
(1662136126.668381) can0 201#06000000400D0300
(1662136126.668542) can0 080#00
(1662136126.668777) can0 181#080000000000
(1662136126.668978) can0 281#112132000400
(1662136126.669183) can0 381#79020C000400
(1662136126.673978) can0 002#9D719D3200000000
(1662136126.674097) can0 003#00
(1662136126.674342) can0 6D0#1A008304670015F5
(1662136126.676375) can0 201#06000000400D0300
(1662136126.676547) can0 080#00
(1662136126.676812) can0 181#080000000000
(1662136126.677015) can0 281#112132000400
(1662136126.677221) can0 381#79020C000400
(1662136126.681948) can0 6D0#1B008304670000E1
(1662136126.684057) can0 201#06000000400D0300
(1662136126.684225) can0 080#00
(1662136126.684455) can0 181#080000000000
(1662136126.684656) can0 281#112132000400
(1662136126.684861) can0 381#79020C000400
(1662136126.691758) can0 201#06000000400D0300
(1662136126.691931) can0 080#00
(1662136126.692190) can0 181#080000000000
(1662136126.692389) can0 281#112132000400
(1662136126.692596) can0 381#79020C000400
(1662136126.697855) can0 003#00
(1662136126.699688) can0 201#06000000400D0300
(1662136126.699859) can0 080#00
(1662136126.700088) can0 181#080000000000
(1662136126.700288) can0 281#112132000400
(1662136126.700493) can0 381#79020A000400
(1662136126.705935) can0 6D0#1C0084046703B69C
(1662136126.707486) can0 201#06000000400D0300
(1662136126.707665) can0 080#00
(1662136126.707893) can0 181#080000000000
(1662136126.708093) can0 281#112132000400
(1662136126.708298) can0 381#79020A000400
(1662136126.713969) can0 001#FF7C0467001022D9
(1662136126.715299) can0 201#06000000400D0300
(1662136126.715471) can0 080#00
(1662136126.715705) can0 181#080000000000
(1662136126.715906) can0 281#112132000400
(1662136126.716112) can0 381#78020A000400
(1662136126.721792) can0 003#00
(1662136126.722028) can0 6D0#1D008504670013F8
(1662136126.723171) can0 201#06000000400D0300
(1662136126.723344) can0 080#00
(1662136126.723574) can0 181#080000000000
(1662136126.723774) can0 281#112132000400
(1662136126.723980) can0 381#79020C000400
(1662136126.730013) can0 6D0#1E008504670000E6
(1662136126.730932) can0 201#06000000400D0300
(1662136126.731103) can0 080#00
(1662136126.731334) can0 181#080000000000
(1662136126.731532) can0 281#112132000400
(1662136126.731738) can0 381#79020C000400
(1662136126.737933) can0 6D0#1F00850467001C03
(1662136126.738748) can0 201#06000000400D0300
(1662136126.738917) can0 080#00
(1662136126.739147) can0 181#080000000000
(1662136126.739347) can0 281#112132000400
(1662136126.739554) can0 381#79020C000400
(1662136126.745850) can0 003#00
(1662136126.746089) can0 6D0#20008504670008F0
(1662136126.746596) can0 201#06000000400D0300
(1662136126.746833) can0 036#109D4C00BE9C51E2
(1662136126.746947) can0 080#00
(1662136126.747159) can0 181#080000000000
(1662136126.747361) can0 281#112132000400
(1662136126.747567) can0 381#79020C000400
(1662136126.753935) can0 6D0#21008604670000EA
(1662136126.754317) can0 201#06000000400D0300
(1662136126.754486) can0 080#00
(1662136126.754751) can0 181#080000000000
(1662136126.754950) can0 281#112132000400
(1662136126.755158) can0 381#78020C000400
(1662136126.756166) can0 080#062200AC
(1662136126.756448) can0 1838F380#0003210321220003
(1662136126.756733) can0 1839F380#00212221040003AC
(1662136126.762107) can0 201#06000000400D0300
(1662136126.762280) can0 080#00
(1662136126.762517) can0 181#080000000000
(1662136126.762708) can0 281#112132000400
(1662136126.762915) can0 381#79020C000400
(1662136126.769868) can0 201#06000000400D0300
(1662136126.769988) can0 003#00
(1662136126.770230) can0 001#FF7A0467001022D9
(1662136126.770339) can0 080#00
(1662136126.770553) can0 181#080000000000
(1662136126.770754) can0 281#112132000400
(1662136126.770960) can0 381#79020C000400
(1662136126.777720) can0 201#06000000400D0300
(1662136126.777980) can0 002#9D719D3200000000
(1662136126.778095) can0 080#00
(1662136126.778308) can0 181#080000000000
(1662136126.778508) can0 281#112132000400
(1662136126.778713) can0 381#79020A000400
(1662136126.778955) can0 6D0#22008504670000EA
(1662136126.785605) can0 201#06000000400D0300
(1662136126.785785) can0 080#00
(1662136126.786018) can0 6D0#2300850467046756
(1662136126.786231) can0 181#080000000000
(1662136126.786430) can0 281#112132000400
(1662136126.786637) can0 381#79020C000400
(1662136126.793309) can0 201#06000000400D0300
(1662136126.793478) can0 080#00
(1662136126.793742) can0 181#080000000000
(1662136126.793860) can0 003#00
(1662136126.794061) can0 281#112132000400
(1662136126.794270) can0 381#78020C000400
(1662136126.801117) can0 201#06000000400D0300
(1662136126.801287) can0 080#00
(1662136126.801547) can0 181#080000000000
(1662136126.801745) can0 281#112132000400
(1662136126.801952) can0 381#79020C000400
(1662136126.802188) can0 6D0#240084046700311C
(1662136126.808926) can0 201#06000000400D0300
(1662136126.809097) can0 080#00
(1662136126.809357) can0 181#080000000000
(1662136126.809556) can0 281#112132000400
(1662136126.809765) can0 381#78020C000400
(1662136126.810056) can0 1806E7F4#049800BE00000000
(1662136126.810347) can0 1806E9F4#049800BE00000000
(1662136126.810636) can0 1806E5F4#049800BE00000000
(1662136126.816786) can0 201#06000000400D0300
(1662136126.816960) can0 080#00
(1662136126.817191) can0 181#080000000000
(1662136126.817389) can0 281#112132000400
(1662136126.817598) can0 381#78020C000400
(1662136126.817776) can0 003#00
(1662136126.818021) can0 6D0#25008204670009F3
(1662136126.824596) can0 201#06000000400D0300
(1662136126.824774) can0 080#00
(1662136126.825003) can0 181#080000000000
(1662136126.825201) can0 281#112132000400
(1662136126.825409) can0 381#79020C000400
(1662136126.825969) can0 001#FF7E0467001022D9
(1662136126.826200) can0 6D0#26008204672A8398
(1662136126.832408) can0 201#06000000400D0300
(1662136126.832587) can0 080#00
(1662136126.832816) can0 181#080000000000
(1662136126.833016) can0 281#112132000400
(1662136126.833222) can0 381#79020C000400
(1662136126.833936) can0 6D0#2700820467FF7D68
(1662136126.840214) can0 201#06000000400D0300
(1662136126.840384) can0 080#00
(1662136126.840613) can0 181#080000000000
(1662136126.840816) can0 281#112132000400
(1662136126.841021) can0 381#79020C000400
(1662136126.841779) can0 003#00
(1662136126.846689) can0 036#119D4A00BE9C4BDB
(1662136126.848109) can0 201#06000000400D0300
(1662136126.848271) can0 080#00
(1662136126.848502) can0 181#080000000000
(1662136126.848701) can0 281#112132000400
(1662136126.848908) can0 381#79020C000400
(1662136126.855795) can0 201#06000000400D0300
(1662136126.855968) can0 080#00
(1662136126.856226) can0 181#080000000000
(1662136126.856427) can0 281#112132000400
(1662136126.856631) can0 381#79020C000400
(1662136126.856915) can0 1839F380#00212221040003AC
(1662136126.857202) can0 1838F380#0006210621220003
(1662136126.857364) can0 080#052100AA
(1662136126.857930) can0 6D0#280082046700220F
(1662136126.858890) can0 18EEFF80#F30080F300401E90
(1662136126.863644) can0 201#06000000400D0300
(1662136126.863823) can0 080#00
(1662136126.864052) can0 181#080000000000
(1662136126.864252) can0 281#112132000400
(1662136126.864463) can0 381#79020C000400
(1662136126.865847) can0 003#00
(1662136126.871460) can0 201#06000000400D0300
(1662136126.871637) can0 080#00
(1662136126.871870) can0 181#080000000000
(1662136126.872068) can0 281#112132000400
(1662136126.872275) can0 381#78020C000600
(1662136126.873927) can0 6D0#2900830467002110
(1662136126.879272) can0 201#06000000400D0300
(1662136126.879448) can0 080#00
(1662136126.879681) can0 181#080000000000
(1662136126.879881) can0 281#112132000400
(1662136126.880088) can0 381#79020C000400
(1662136126.881962) can0 001#FF7D0467001022D9
(1662136126.882200) can0 002#9D709D3100000000
(1662136126.887039) can0 201#06000000400D0300
(1662136126.887212) can0 080#00
(1662136126.887467) can0 181#080000000000
(1662136126.887670) can0 281#112132000400
(1662136126.887876) can0 381#79020D000400
(1662136126.889804) can0 003#00
(1662136126.890030) can0 6D0#2A00840467002112
(1662136126.894848) can0 201#06000000400D0300
(1662136126.895020) can0 080#00
(1662136126.895277) can0 181#080000000000
(1662136126.895479) can0 281#112132000400
(1662136126.895682) can0 381#79020A000400
(1662136126.902702) can0 201#06000000400D0300
(1662136126.902875) can0 080#00
(1662136126.903104) can0 181#080000000000
(1662136126.903303) can0 281#112132000400
(1662136126.903510) can0 381#79020C000400
(1662136126.905920) can0 6D0#2B008504670000F3
(1662136126.910475) can0 201#06000000400D0300
(1662136126.910647) can0 080#00
(1662136126.910907) can0 181#080000000000
(1662136126.911107) can0 281#112132000400
(1662136126.911316) can0 381#78020C000400
(1662136126.913784) can0 003#00
(1662136126.918288) can0 201#06000000400D0300
(1662136126.918455) can0 080#00
(1662136126.918722) can0 181#080000000000
(1662136126.918922) can0 281#112132000400
(1662136126.919130) can0 381#78020C000400
(1662136126.926092) can0 201#06000000400D0300
(1662136126.926262) can0 080#00
(1662136126.926521) can0 181#080000000000
(1662136126.926722) can0 281#112132000400
(1662136126.926928) can0 381#79020C000400
(1662136126.929921) can0 6D0#2C008504670000F4
(1662136126.933906) can0 201#06000000400D0300
(1662136126.934076) can0 080#00
(1662136126.934336) can0 181#080000000000
(1662136126.934535) can0 281#112132000400
(1662136126.934745) can0 381#79020C000400
(1662136126.937953) can0 001#FF7B0467001022D9
(1662136126.938074) can0 003#00
(1662136126.941757) can0 201#06000000400D0300
(1662136126.941929) can0 080#00
(1662136126.942164) can0 181#080000000000
(1662136126.942360) can0 281#112132000400
(1662136126.942564) can0 381#78020D000400
(1662136126.945936) can0 6D0#2D00850467002217
(1662136126.946684) can0 036#249D5F00BE9C651D
(1662136126.949532) can0 201#06000000400D0300
(1662136126.949708) can0 080#00
(1662136126.949962) can0 181#080000000000
(1662136126.950164) can0 281#112132000400
(1662136126.950370) can0 381#79020C000400
(1662136126.956152) can0 080#062200AC
(1662136126.956437) can0 1838F380#000B210B21220003
(1662136126.956722) can0 1839F380#00212221040003AC
(1662136126.957702) can0 201#06000000400D0300
(1662136126.957874) can0 080#00
(1662136126.958100) can0 181#080000000000
(1662136126.958302) can0 281#112132000400
(1662136126.958509) can0 381#79020C000400
(1662136126.961769) can0 003#00
(1662136126.962003) can0 6D0#2E0086046700655C
(1662136126.965156) can0 201#06000000400D0300
(1662136126.965324) can0 080#00
(1662136126.965584) can0 181#080000000000
(1662136126.965783) can0 281#112132000400
(1662136126.965990) can0 381#79020C000400
(1662136126.969993) can0 6D0#2F0085046700685F
(1662136126.972962) can0 201#06000000400D0300
(1662136126.973131) can0 080#00
(1662136126.973389) can0 181#080000000000
(1662136126.973587) can0 281#112132000400
(1662136126.973796) can0 381#79020C000400
(1662136126.977921) can0 6D0#30008504670001F9
(1662136126.980778) can0 201#06000000400D0300
(1662136126.980946) can0 080#00
(1662136126.981205) can0 181#080000000000
(1662136126.981402) can0 281#112132000400
(1662136126.981609) can0 381#79020C000400
(1662136126.985892) can0 002#9D709D3600000000
(1662136126.986011) can0 003#00
(1662136126.988583) can0 201#06000000400D0300
(1662136126.988760) can0 080#00
(1662136126.989017) can0 181#080000000000
(1662136126.989218) can0 281#112132000400
(1662136126.989425) can0 381#78020C000600
(1662136126.993957) can0 001#FF7B0467001022D9
(1662136126.996394) can0 201#06000000400D0300
(1662136126.996570) can0 080#00
(1662136126.996829) can0 181#080000000000
(1662136126.997028) can0 281#112132000400
(1662136126.997235) can0 381#79020C000400
(1662136127.001928) can0 6D0#31008304670000F7
(1662136127.004310) can0 201#06000000400D0300
(1662136127.004480) can0 080#00
(1662136127.004719) can0 181#080000000000
(1662136127.004915) can0 281#112132000400
(1662136127.005122) can0 381#79020C000400
(1662136127.009840) can0 003#00
(1662136127.012131) can0 201#06000000400D0300
(1662136127.012302) can0 080#00
(1662136127.012532) can0 181#080000000000
(1662136127.012733) can0 281#112132000400
(1662136127.012938) can0 381#79020C000400
(1662136127.017917) can0 6D0#32008304679D33C8
(1662136127.019938) can0 201#06000000400D0300
(1662136127.020109) can0 080#00
(1662136127.020336) can0 181#080000000000
(1662136127.020538) can0 281#112132000400
(1662136127.020743) can0 381#79020C000400
(1662136127.027644) can0 201#06000000400D0300
(1662136127.027817) can0 080#00
(1662136127.028077) can0 181#080000000000
(1662136127.028276) can0 281#112132000400
(1662136127.028484) can0 381#79020D000400
(1662136127.033769) can0 003#00
(1662136127.034001) can0 6D0#33008204679D7308
(1662136127.035626) can0 201#06000000400D0300
(1662136127.035792) can0 080#00
(1662136127.036021) can0 181#080000000000
(1662136127.036219) can0 281#112132000400
(1662136127.036426) can0 381#79020D000400
(1662136127.042001) can0 6D0#34008204679D50E6
(1662136127.043370) can0 201#06000000400D0300
(1662136127.043544) can0 080#00
(1662136127.043774) can0 181#080000000000
(1662136127.043973) can0 281#112132000400
(1662136127.044179) can0 381#79020C000400
(1662136127.046681) can0 036#259D4B00BE9C4FF4
(1662136127.049888) can0 001#FF7E0467001022D9
(1662136127.050115) can0 6D0#35008204679C37CD
(1662136127.051241) can0 201#06000000400D0300
(1662136127.051414) can0 080#00
(1662136127.051649) can0 181#080000000000
(1662136127.051850) can0 281#112132000400
(1662136127.052056) can0 381#79020C000400
(1662136127.056211) can0 080#052100AA
(1662136127.056497) can0 1838F380#0000220021220003
(1662136127.056779) can0 18EEFF80#F30080F300401E90
(1662136127.057061) can0 1839F380#00212221040003AC
(1662136127.057786) can0 003#00
(1662136127.059230) can0 201#06000000400D0300
(1662136127.059400) can0 080#00
(1662136127.059634) can0 181#080000000000
(1662136127.059835) can0 281#112132000400
(1662136127.060042) can0 381#79020C000400
(1662136127.066700) can0 201#06000000400D0300
(1662136127.066868) can0 080#00
(1662136127.067128) can0 181#080000000000
(1662136127.067328) can0 281#112132000400
(1662136127.067534) can0 381#79020D000400
(1662136127.073910) can0 6D0#36008304679C770F
(1662136127.074606) can0 201#06000000400D0300
(1662136127.074782) can0 080#00
(1662136127.075017) can0 181#080000000000
(1662136127.075210) can0 281#112132000400
(1662136127.075415) can0 381#79020A000400
(1662136127.081844) can0 003#00
(1662136127.082082) can0 6D0#37008304679C53EC
(1662136127.082482) can0 201#06000000400D0300
(1662136127.082663) can0 080#00
(1662136127.082901) can0 181#080000000000
(1662136127.083090) can0 281#112132000400
(1662136127.083298) can0 381#79020C000400
(1662136127.089883) can0 002#9D729D3200000000
(1662136127.090121) can0 6D0#380084046700BEBD
(1662136127.090366) can0 201#06000000400D0300
(1662136127.090484) can0 080#00
(1662136127.090755) can0 181#080000000000
(1662136127.090954) can0 281#112132000400
(1662136127.091161) can0 381#79020C000400
(1662136127.097936) can0 201#06000000400D0300
(1662136127.098108) can0 080#00
(1662136127.098368) can0 181#080000000000
(1662136127.098567) can0 281#112132000400
(1662136127.098774) can0 381#78020A000400
(1662136127.105753) can0 201#06000000400D0300
(1662136127.105873) can0 003#00
(1662136127.106114) can0 001#FF7C0467001022D9
(1662136127.106229) can0 080#00
(1662136127.106442) can0 181#080000000000
(1662136127.106642) can0 281#112132000400
(1662136127.106849) can0 381#78020C000400
(1662136127.107091) can0 6D0#390084046700BEBE
(1662136127.113606) can0 201#06000000400D0300
(1662136127.113780) can0 080#00
(1662136127.114012) can0 181#080000000000
(1662136127.114211) can0 281#112132000400
(1662136127.114417) can0 381#79020D000400
(1662136127.121376) can0 201#06000000400D0300
(1662136127.121582) can0 080#00
(1662136127.121809) can0 181#080000000000
(1662136127.122011) can0 281#112132000400
(1662136127.122216) can0 381#79020C000400
(1662136127.122452) can0 6D0#3A0085046700BEC0
(1662136127.129231) can0 201#06000000400D0300
(1662136127.129403) can0 080#00
(1662136127.129636) can0 181#080000000000
(1662136127.129836) can0 281#112132000400
(1662136127.129954) can0 003#00
(1662136127.130162) can0 381#79020C000400
(1662136127.136998) can0 201#06000000400D0300
(1662136127.137170) can0 080#00
(1662136127.137425) can0 181#080000000000
(1662136127.137629) can0 281#112132000400
(1662136127.137835) can0 381#79020C000400
(1662136127.144807) can0 201#06000000400D0300
(1662136127.144981) can0 080#00
(1662136127.145240) can0 181#080000000000
(1662136127.145439) can0 281#112132000400
(1662136127.145647) can0 381#79020C000400
(1662136127.145919) can0 6D0#3B00850467A410B7
(1662136127.146680) can0 036#269D5100BE9C5501
(1662136127.152664) can0 201#06000000400D0300
(1662136127.152837) can0 080#00
(1662136127.153067) can0 181#080000000000
(1662136127.153266) can0 281#112132000400
(1662136127.153473) can0 381#79020C000400
(1662136127.153835) can0 003#00
(1662136127.156152) can0 080#062200AC
(1662136127.156438) can0 1838F380#0003210321220003
(1662136127.156717) can0 1839F380#00212221040003AC
