(1662126575.585407) can0 381#78020A000700
(1662126575.589636) can0 001#0000040E000125D9
(1662126575.592425) can0 201#0F000000400D0300
(1662126575.592604) can0 080#00
(1662126575.592835) can0 181#88001A040000
(1662126575.593036) can0 281#173610040000
(1662126575.593237) can0 381#78020A000700
(1662126575.600198) can0 201#0F000000400D0300
(1662126575.600372) can0 080#00
(1662126575.600626) can0 181#880014040000
(1662126575.600827) can0 281#173610040000
(1662126575.601036) can0 381#780209000700
(1662126575.605663) can0 6D0#040000040E006B59
(1662126575.608182) can0 201#0F000000400D0300
(1662126575.608355) can0 080#00
(1662126575.608614) can0 181#880012040000
(1662126575.608809) can0 281#173610040000
(1662126575.609012) can0 381#78020A000700
(1662126575.613735) can0 6D0#050000040E0000EF
(1662126575.615941) can0 201#0F000000400D0300
(1662126575.616113) can0 080#00
(1662126575.616366) can0 181#880012040000
(1662126575.616563) can0 281#173610040000
(1662126575.616766) can0 381#78020A000700
(1662126575.621666) can0 6D0#060000040E003020
(1662126575.623734) can0 201#0F000000400D0300
(1662126575.623916) can0 080#00
(1662126575.624140) can0 181#88001B040000
(1662126575.624341) can0 281#173610040000
(1662126575.624543) can0 381#78020A000700
(1662126575.629749) can0 6D0#070000040E001C0D
(1662126575.631554) can0 201#0F000000400D0300
(1662126575.631736) can0 080#00
(1662126575.631992) can0 181#880014040000
(1662126575.632191) can0 281#173610040000
(1662126575.632394) can0 381#78020A000700
(1662126575.637662) can0 6D0#080000040E00BFB1
(1662126575.639364) can0 201#0F000000400D0300
(1662126575.639543) can0 080#00
(1662126575.639767) can0 181#88000E040000
(1662126575.639965) can0 281#173610040000
(1662126575.640172) can0 381#9F020A000700
(1662126575.645710) can0 001#0000040E000125D9
(1662126575.645951) can0 002#90FD90965F000000
(1662126575.646194) can0 6D0#090000040E0001F4
(1662126575.647296) can0 201#0F000000400D0300
(1662126575.647472) can0 080#00
(1662126575.647697) can0 181#880010040000
(1662126575.647896) can0 281#173610040000
(1662126575.648103) can0 381#E2020A000700
(1662126575.649850) can0 080#062400AE
(1662126575.650127) can0 1838F380#000B230B23240306
(1662126575.650406) can0 1839F380#00232423040306B8
(1662126575.653661) can0 6D0#0A0000040E00180C
(1662126575.654990) can0 201#0F001600400D0300
(1662126575.655166) can0 080#00
(1662126575.655421) can0 181#880012040000
(1662126575.655620) can0 281#173610040000
(1662126575.655822) can0 381#250309000700
(1662126575.661662) can0 6D0#0B0000040E005F54
(1662126575.662795) can0 201#0F003200400D0300
(1662126575.662974) can0 080#00
(1662126575.663224) can0 181#880009040000
(1662126575.663426) can0 281#173610040000
(1662126575.663626) can0 381#5D030A000700
(1662126575.670493) can0 201#0F004900400D0300
(1662126575.670674) can0 080#00
(1662126575.670935) can0 181#880003040000
(1662126575.671135) can0 281#173610040000
(1662126575.671338) can0 381#92030A000700
(1662126575.677736) can0 6D0#0C0000040E0000F6
(1662126575.678421) can0 201#0F005F00400D0300
(1662126575.678595) can0 080#00
(1662126575.678859) can0 181#88000C040000
(1662126575.679062) can0 281#183610040000
(1662126575.679263) can0 381#BD030A000700
(1662126575.685664) can0 6D0#0D0000040E040E09
(1662126575.686217) can0 201#0F007100400D0300
(1662126575.686400) can0 080#00
(1662126575.686627) can0 181#880009040000
(1662126575.686823) can0 281#173610040000
(1662126575.687023) can0 381#DB030A000700
(1662126575.693740) can0 6D0#0E0000040E040E0A
(1662126575.693999) can0 201#0F007E00400D0300
(1662126575.694102) can0 080#00
(1662126575.694319) can0 181#880009040000
(1662126575.694520) can0 281#173610040000
(1662126575.694722) can0 381#F5030A000700
(1662126575.701631) can0 001#0000040E000125D9
(1662126575.701872) can0 201#0F008900400D0300
(1662126575.702114) can0 6D0#0F0000040E00716A
(1662126575.702229) can0 080#00
(1662126575.702437) can0 181#880005040000
(1662126575.702641) can0 281#183610040000
(1662126575.702850) can0 381#08040A000700
(1662126575.709585) can0 201#0F009100400D0300
(1662126575.709827) can0 6D0#100000040E01AAA5
(1662126575.709942) can0 080#00
(1662126575.710151) can0 181#88000E040000
(1662126575.710353) can0 281#17361A040000
(1662126575.710560) can0 381#19040A000700
(1662126575.717395) can0 201#0F009800400D0300
(1662126575.717573) can0 080#00
(1662126575.717815) can0 6D0#110000040E00120D
(1662126575.718023) can0 181#880009040000
(1662126575.718221) can0 281#173610040000
(1662126575.718424) can0 381#280409000700
(1662126575.725205) can0 201#0F009E00400D0300
(1662126575.725386) can0 080#00
(1662126575.725612) can0 181#880005040000
(1662126575.725811) can0 281#17361A040000
(1662126575.726012) can0 381#390409000700
(1662126575.726254) can0 6D0#120000040E005B57
(1662126575.733049) can0 201#0F00A500400D0300
(1662126575.733222) can0 080#00
(1662126575.733480) can0 181#880007040000
(1662126575.733675) can0 281#17361A040000
(1662126575.733878) can0 381#46040A000700
(1662126575.740827) can0 201#0F00AA00400D0300
(1662126575.741009) can0 080#00
(1662126575.741234) can0 181#88000C040000
(1662126575.741438) can0 281#17361A040000
(1662126575.741636) can0 381#54040A000700
(1662126575.748653) can0 201#0F00B000400D0300
(1662126575.748836) can0 080#00
(1662126575.749092) can0 181#880005040000
(1662126575.749291) can0 281#17361A040000
(1662126575.749497) can0 381#64040A000700
(1662126575.749747) can0 002#90FF90975F000000
(1662126575.749979) can0 6D0#130000040E006461
(1662126575.750261) can0 1838F380#0000230023240306
(1662126575.750545) can0 1839F380#00232423040306B8
(1662126575.750710) can0 080#052300AC
(1662126575.752363) can0 18EEFF80#F30080F300401E90
(1662126575.756457) can0 201#0F00B700400D0300
(1662126575.756638) can0 080#00
(1662126575.756900) can0 181#8800FF030000
(1662126575.757102) can0 281#17361A040000
(1662126575.757308) can0 381#70040A000700
(1662126575.757634) can0 001#0000040E000125D9
(1662126575.757871) can0 6D0#140000040E2893B9
(1662126575.764270) can0 201#0F00BC00400D0300
(1662126575.764444) can0 080#00
(1662126575.764669) can0 181#880007040000
(1662126575.764868) can0 281#17361A040000
(1662126575.765074) can0 381#7F040A000700
(1662126575.772090) can0 201#0F00C200400D0300
(1662126575.772262) can0 080#00
(1662126575.772487) can0 181#880007040000
(1662126575.772688) can0 281#17361A040000
(1662126575.772891) can0 381#8C040A000700
(1662126575.773659) can0 6D0#150000040E7FFF7D
(1662126575.779905) can0 201#0F00C800400D0300
(1662126575.780084) can0 080#00
(1662126575.780336) can0 181#8800FF030000
(1662126575.780540) can0 281#18361A040000
(1662126575.780740) can0 381#9D040A000700
(1662126575.787700) can0 201#0F00CF00400D0300
(1662126575.787883) can0 080#00
(1662126575.788109) can0 181#8800FC030000
(1662126575.788309) can0 281#17361A040000
(1662126575.788510) can0 381#AC040A000700
(1662126575.789652) can0 6D0#160000040E04989C
(1662126575.795528) can0 201#0F00D500400D0300
(1662126575.795749) can0 080#00
(1662126575.795973) can0 181#880005040000
(1662126575.796172) can0 281#17361A040000
(1662126575.796374) can0 381#B90409000700
(1662126575.803318) can0 201#0F00DA00400D0300
(1662126575.803496) can0 080#00
(1662126575.803721) can0 181#880003040000
(1662126575.803921) can0 281#17361A040000
(1662126575.804128) can0 381#C8040A000700
(1662126575.805655) can0 6D0#170000040E02BCBF
(1662126575.811120) can0 201#0F00E100400D0300
(1662126575.811306) can0 080#00
(1662126575.811532) can0 181#8800FF030000
(1662126575.811729) can0 281#17361A040000
(1662126575.811936) can0 381#D9040A000700
(1662126575.813636) can0 001#0000040E000125D9
(1662126575.813876) can0 6D0#180000040E000B0D
(1662126575.818958) can0 201#0F00E800400D0300
(1662126575.819135) can0 080#00
(1662126575.819390) can0 181#8800FF030000
(1662126575.819592) can0 281#17361A040000
(1662126575.819795) can0 381#EE040A000700
(1662126575.826752) can0 201#0F00F000400D0300
(1662126575.826938) can0 080#00
(1662126575.827161) can0 181#880005040000
(1662126575.827362) can0 281#18361A040000
(1662126575.827565) can0 381#0B050A000700
(1662126575.829730) can0 6D0#190000040E004043
(1662126575.834527) can0 201#0F00FD00400D0300
(1662126575.834742) can0 080#00
(1662126575.834966) can0 181#8800FA030000
(1662126575.835164) can0 281#17361A040000
(1662126575.835364) can0 381#30050A000700
(1662126575.837657) can0 6D0#1A0000040E00191D
(1662126575.842391) can0 201#0F000C01400D0300
(1662126575.842568) can0 080#00
(1662126575.842830) can0 181#8800F6030000
(1662126575.843029) can0 281#17361A040000
(1662126575.843231) can0 381#58050A000700
(1662126575.845725) can0 6D0#1B0000040E006065
(1662126575.849834) can0 080#062400AE
(1662126575.850113) can0 1838F380#0003240323240306
(1662126575.850362) can0 201#0F001D01400D0300
(1662126575.850636) can0 1839F380#00232423040306B8
(1662126575.850747) can0 080#00
(1662126575.850956) can0 181#8800FA030000
(1662126575.851156) can0 281#17361A040000
(1662126575.851357) can0 381#84050A000700
(1662126575.853628) can0 002#90FF90995F000000
(1662126575.853869) can0 6D0#1C0000040E03B6BF
(1662126575.858002) can0 201#0F002F01400D0300
(1662126575.858182) can0 080#00
(1662126575.858409) can0 181#880001040000
(1662126575.858611) can0 281#18361A040000
(1662126575.858813) can0 381#B0050A000700
(1662126575.861732) can0 6D0#1D0000040E00787F
(1662126575.865211) can0 200#05009B009B000000
(1662126575.865887) can0 201#0F004101400D0300
(1662126575.866069) can0 080#00
(1662126575.866323) can0 181#8800FA030000
(1662126575.866524) can0 281#17361A040000
(1662126575.866723) can0 381#DD050A000700
(1662126575.869623) can0 001#0000040E000125D9
(1662126575.869867) can0 6D0#1E0000040E000008
(1662126575.873625) can0 201#0F005401400D0300
(1662126575.873809) can0 080#00
(1662126575.874043) can0 181#8800F4030000
(1662126575.874229) can0 281#17361A040000
(1662126575.874434) can0 381#08060A000700
(1662126575.877720) can0 6D0#1F0000040E00959E
(1662126575.881428) can0 201#0F006601400D0300
(1662126575.881611) can0 080#00
(1662126575.881881) can0 181#8800FA030000
(1662126575.882081) can0 281#18361A040000
(1662126575.882284) can0 381#31060A000700
(1662126575.885658) can0 6D0#200000040E000812
(1662126575.889252) can0 201#0F007701400D0300
(1662126575.889434) can0 080#00
(1662126575.889693) can0 181#8800FC030000
(1662126575.889890) can0 281#18361A040000
(1662126575.890096) can0 381#57060A000700
(1662126575.893655) can0 6D0#210000040E00000B
(1662126575.897058) can0 201#0F008701400D0300
(1662126575.897235) can0 080#00
(1662126575.897456) can0 181#8800F4030000
(1662126575.897659) can0 281#18361A040000
(1662126575.897865) can0 381#7C060A000700
(1662126575.904873) can0 201#0F009601400D0300
(1662126575.905050) can0 080#00
(1662126575.905272) can0 181#8800F4030000
(1662126575.905478) can0 281#18361A040000
(1662126575.905676) can0 381#9A060A000700
(1662126575.912672) can0 201#0F00A301400D0300
(1662126575.912862) can0 080#00
(1662126575.913093) can0 181#8800FD030000
(1662126575.913292) can0 281#17361A040000
(1662126575.913497) can0 381#B60609000700
(1662126575.917661) can0 6D0#220000040E000814
(1662126575.920488) can0 201#0F00AF01400D0300
(1662126575.920676) can0 080#00
(1662126575.920898) can0 181#8800FA030000
(1662126575.921097) can0 281#17361A040000
(1662126575.921304) can0 381#CF060A000700
(1662126575.925691) can0 001#0000040E000125D9
(1662126575.928299) can0 201#0F00B901400D0300
(1662126575.928479) can0 080#00
(1662126575.928702) can0 181#8800F6030000
(1662126575.928903) can0 281#17361A040000
(1662126575.929109) can0 381#E6060A000700
(1662126575.933648) can0 6D0#230000040E040E1F
(1662126575.936189) can0 201#0F00C301400D0300
(1662126575.936369) can0 080#00
(1662126575.936621) can0 181#8800F2030000
(1662126575.936823) can0 281#18361A040000
(1662126575.937028) can0 381#FC060A000700
(1662126575.943919) can0 201#0F00CC01400D0300
(1662126575.944095) can0 080#00
(1662126575.944324) can0 181#8800FD030000
(1662126575.944526) can0 281#18361A040000
(1662126575.944728) can0 381#0E070A000700
(1662126575.949653) can0 6D0#240000040E00D3E1
(1662126575.949827) can0 080#052300AC