(1655549890.393211) can0 201#06000000400D0300
(1655549890.393385) can0 080#00
(1655549890.393612) can0 181#A10000000000
(1655549890.393813) can0 281#001C8E030000
(1655549890.394017) can0 381#79020D000700
(1655549890.397169) can0 001#FF7304200010
(1655549890.397408) can0 6D0#79008D0420000002
(1655549890.401017) can0 201#06000000400D0300
(1655549890.401188) can0 080#00
(1655549890.401428) can0 181#A10000000000
(1655549890.401624) can0 281#001C8E030000
(1655549890.401826) can0 381#79020C000700
(1655549890.405174) can0 001#FF7304200010
(1655549890.408828) can0 201#06000000400D0300
(1655549890.409007) can0 080#00
(1655549890.409234) can0 181#A10000000000
(1655549890.409439) can0 281#001C8E030000
(1655549890.409644) can0 381#79020C000700
(1655549890.413237) can0 001#FF7304200010
(1655549890.413408) can0 080#061B00A5
(1655549890.413687) can0 1838F380#00031B03191B0306
(1655549890.413967) can0 1839F380#00191B1A0403069C
(1655549890.416642) can0 201#06000000400D0300
(1655549890.416813) can0 080#00
(1655549890.417047) can0 181#A10000000000
(1655549890.417254) can0 281#001C8E030000
(1655549890.417454) can0 381#79020C000700
(1655549890.421174) can0 001#FF7204200010
(1655549890.421412) can0 6D0#7A008E0420000004
(1655549890.424490) can0 201#06000000400D0300
(1655549890.424619) can0 080#00
(1655549890.424853) can0 181#A10000000000
(1655549890.425057) can0 281#001C8E030000
(1655549890.425261) can0 381#79020C000700
(1655549890.429249) can0 001#FF7104200010
(1655549890.429479) can0 6D0#7B008F0420000309
(1655549890.432261) can0 201#06000000400D0300
(1655549890.432434) can0 080#00
(1655549890.432663) can0 181#A10000000000
(1655549890.432867) can0 281#001C8E030000
(1655549890.433071) can0 381#79020C000700
(1655549890.437167) can0 001#FF7104200010
(1655549890.437407) can0 6D0#7C008F042000060D
(1655549890.440069) can0 201#06000000400D0300
(1655549890.440242) can0 080#00
(1655549890.440472) can0 181#A10000000000
(1655549890.440678) can0 281#001C8E030000
(1655549890.440880) can0 381#79020C000700
(1655549890.445245) can0 001#FF7104200010
(1655549890.445482) can0 6D0#7D008F0420003038
(1655549890.447891) can0 201#06000000400D0300
(1655549890.448065) can0 080#00
(1655549890.448295) can0 181#A10000000000
(1655549890.448499) can0 281#001C8E030000
(1655549890.448703) can0 381#79020C000700
(1655549890.453167) can0 001#FF7104200010
(1655549890.453410) can0 6D0#7E008F0420000009
(1655549890.455712) can0 201#06000000400D0300
(1655549890.455891) can0 080#00
(1655549890.456145) can0 181#A10000000000
(1655549890.456352) can0 281#001C8E030000
(1655549890.456558) can0 381#79020C000700
(1655549890.461235) can0 001#FF7104200010
(1655549890.461475) can0 6D0#7F008F042002EEFA
(1655549890.463617) can0 201#06000000400D0300
(1655549890.463763) can0 080#00
(1655549890.464029) can0 181#A10000000000
(1655549890.464233) can0 281#001C8E030000
(1655549890.464437) can0 381#79020C000700
(1655549890.469166) can0 001#FF7204200010
(1655549890.469410) can0 6D0#80008E042000000A
(1655549890.471456) can0 201#06000000400D0300
(1655549890.471632) can0 080#00
(1655549890.471887) can0 181#A10000000000
(1655549890.472093) can0 281#001C8E030000
(1655549890.472296) can0 381#79020C000700
(1655549890.477169) can0 001#FF7204200010
(1655549890.479207) can0 201#06000000400D0300
(1655549890.479379) can0 080#00
(1655549890.479635) can0 181#A10000000000
(1655549890.479839) can0 281#001C8E030000
(1655549890.480045) can0 381#79020C000700
(1655549890.485239) can0 001#FF7204200010
(1655549890.487050) can0 201#06000000400D0300
(1655549890.487195) can0 080#00
(1655549890.487453) can0 181#A10000000000
(1655549890.487658) can0 281#001C8E030000
(1655549890.487859) can0 381#79020D000700
(1655549890.493163) can0 001#FF7304200010
(1655549890.493403) can0 6D0#00008D042001038D
(1655549890.494922) can0 201#06000000400D0300
(1655549890.495101) can0 080#00
(1655549890.495330) can0 181#A10000000000
(1655549890.495533) can0 281#001C8E030000
(1655549890.495738) can0 381#79020C000700
(1655549890.501232) can0 001#FF7304200010
(1655549890.502633) can0 201#06000000400D0300
(1655549890.502809) can0 080#00
(1655549890.503070) can0 181#A10000000000
(1655549890.503277) can0 281#001C8E030000
(1655549890.503478) can0 381#79020C000700
(1655549890.509162) can0 001#FF7304200010
(1655549890.509402) can0 6D0#01008D0420060393
(1655549890.510546) can0 201#06000000400D0300
(1655549890.510689) can0 080#00
(1655549890.510950) can0 181#A10000000000
(1655549890.511156) can0 281#001C8E030000
(1655549890.511360) can0 381#79020C000700
(1655549890.513459) can0 080#051900A2
(1655549890.513739) can0 1838F380#00061906191B0306
(1655549890.514020) can0 18EEFF80#F30080F300401E90
(1655549890.514300) can0 1839F380#00191B1A0403069C
(1655549890.517232) can0 001#FF7404200010
(1655549890.517469) can0 6D0#02008C0420057A09
(1655549890.518363) can0 201#06000000400D0300
(1655549890.518538) can0 080#00
(1655549890.518769) can0 181#A10000000000
(1655549890.518971) can0 281#001C8E030000
(1655549890.519176) can0 381#79020C000700
(1655549890.525164) can0 001#FF7404200010
(1655549890.525396) can0 6D0#03008C04202403B2
(1655549890.526178) can0 201#06000000400D0300
(1655549890.526352) can0 080#00
(1655549890.526580) can0 181#A10000000000
(1655549890.526785) can0 281#001C8E030000
(1655549890.526988) can0 381#79020C000700
(1655549890.533232) can0 001#FF7504200010
(1655549890.533468) can0 6D0#04008B042000EE79
(1655549890.533938) can0 201#06000000400D0300
(1655549890.534118) can0 080#00
(1655549890.534376) can0 181#A10000000000
(1655549890.534580) can0 281#001C8E030000
(1655549890.534792) can0 381#79020C000700
(1655549890.541162) can0 001#FF7504200010
(1655549890.541400) can0 6D0#05008B042000008C
(1655549890.541791) can0 201#06000000400D0300
(1655549890.541972) can0 080#00
(1655549890.542199) can0 181#A10000000000
(1655549890.542406) can0 281#001C8E030000
(1655549890.542608) can0 381#79020C000700
(1655549890.549163) can0 001#FF7504200010
(1655549890.549505) can0 201#06000000400D0300
(1655549890.549677) can0 080#00
(1655549890.549937) can0 181#A10000000000
(1655549890.550139) can0 281#001C8E030000
(1655549890.550342) can0 381#79020D000700
(1655549890.557238) can0 201#06000000400D0300
(1655549890.557446) can0 001#FF7504200010
(1655549890.557561) can0 080#00
(1655549890.557772) can0 181#A10000000000
(1655549890.557976) can0 281#001C8E030000
(1655549890.558181) can0 381#79020C000700
(1655549890.565049) can0 201#06000000400D0300
(1655549890.565260) can0 001#FF7404200010
(1655549890.565374) can0 080#00
(1655549890.565585) can0 181#A10000000000
(1655549890.565787) can0 281#001C8E030000
(1655549890.565992) can0 381#79020C000700
(1655549890.566230) can0 6D0#06008C04200030BE
(1655549890.572877) can0 201#06000000400D0300
(1655549890.573054) can0 080#00
(1655549890.573260) can0 001#FF7404200010
(1655549890.573472) can0 181#A10000000000
(1655549890.573676) can0 281#001C8E030000
(1655549890.573879) can0 381#79020C000700
(1655549890.574116) can0 6D0#07008C0420001CAB
(1655549890.580687) can0 201#06000000400D0300
(1655549890.580862) can0 080#00
(1655549890.581120) can0 181#A10000000000
(1655549890.581327) can0 001#FF7304200010
(1655549890.581530) can0 281#001C8E030000
(1655549890.581733) can0 381#79020C000700
(1655549890.581971) can0 6D0#08008D042000BB4C
(1655549890.588499) can0 201#06000000400D0300
(1655549890.588674) can0 080#00
(1655549890.588925) can0 181#A10000000000
(1655549890.589130) can0 281#001C8E030000
(1655549890.589343) can0 001#FF7304200010
(1655549890.589542) can0 381#79020C000700
(1655549890.589776) can0 6D0#09008D04200010A2
(1655549890.596307) can0 201#06000000400D0300
(1655549890.596487) can0 080#00
(1655549890.596738) can0 181#A10000000000
(1655549890.596943) can0 281#001C8E030000
(1655549890.597146) can0 381#79020C000700
(1655549890.597352) can0 001#FF7304200010
(1655549890.597589) can0 6D0#0A008D0420000FA2
(1655549890.604108) can0 201#06000000400D0300
(1655549890.604284) can0 080#00
(1655549890.604509) can0 181#A10000000000
(1655549890.604716) can0 281#001C8E030000
(1655549890.604926) can0 381#79020C000700
(1655549890.605227) can0 001#FF7304200010
(1655549890.605516) can0 1806E9F4#0498009600000000
(1655549890.605806) can0 1806E5F4#0498009600000000
(1655549890.606103) can0 1806E7F4#0498009600000000
(1655549890.611932) can0 201#06000000400D0300
(1655549890.612116) can0 080#00
(1655549890.612370) can0 181#A10000000000
(1655549890.612573) can0 281#001C8E030000
(1655549890.612778) can0 381#79020C000700
(1655549890.613158) can0 001#FF7104200010
(1655549890.613398) can0 6D0#0B008F0420000096
(1655549890.613677) can0 1838F380#000B190B191B0306
(1655549890.613958) can0 1839F380#00191B1A0403069C
(1655549890.614135) can0 080#061B00A5
(1655549890.619743) can0 201#06000000400D0300
(1655549890.619919) can0 080#00
(1655549890.620175) can0 181#A10000000000
(1655549890.620380) can0 281#001C8E030000
(1655549890.620592) can0 381#79020C000700
(1655549890.621168) can0 001#FF7104200010
(1655549890.627550) can0 201#06000000400D0300
(1655549890.627725) can0 080#00
(1655549890.627985) can0 181#A10000000000
(1655549890.628191) can0 281#001C8E030000
(1655549890.628395) can0 381#79020C000700
(1655549890.629233) can0 001#FF7104200010
(1655549890.635402) can0 201#06000000400D0300
(1655549890.635546) can0 080#00
(1655549890.635803) can0 181#A10000000000
(1655549890.636006) can0 281#001C8E030000
(1655549890.636211) can0 381#79020C000700
(1655549890.637160) can0 001#FF7104200010
(1655549890.637395) can0 6D0#0C008F0420FF7107
(1655549890.643172) can0 201#06000000400D0300
(1655549890.643347) can0 080#00
(1655549890.643605) can0 181#A10000000000
(1655549890.643808) can0 281#001C8E030000
(1655549890.644014) can0 381#79020C000700
(1655549890.645233) can0 001#FF7104200010
(1655549890.645474) can0 6D0#0D008F04200420BC
(1655549890.650985) can0 201#06000000400D0300
(1655549890.651160) can0 080#00
(1655549890.651415) can0 181#A10000000000
(1655549890.651622) can0 281#001C8E030000
(1655549890.651825) can0 381#79020C000700
(1655549890.653155) can0 001#FF7104200010
(1655549890.653399) can0 6D0#0E008F0420041EBB
(1655549890.658799) can0 201#06000000400D0300
(1655549890.658976) can0 080#00
(1655549890.659234) can0 181#A10000000000
(1655549890.659440) can0 281#001C8E030000
(1655549890.659644) can0 381#79020C000700
(1655549890.661227) can0 001#FF7104200010
(1655549890.661464) can0 6D0#0F008F0420006C06
(1655549890.666612) can0 201#06000000400D0300
(1655549890.666787) can0 080#00
(1655549890.667047) can0 181#A10000000000
(1655549890.667253) can0 281#001C8E030000
(1655549890.667457) can0 381#79020C000700
(1655549890.669155) can0 001#FF7104200010
(1655549890.669395) can0 6D0#10008F0420019531
(1655549890.674420) can0 201#06000000400D0300
(1655549890.674593) can0 080#00
(1655549890.674852) can0 181#A10000000000
(1655549890.675058) can0 281#001C8E030000
(1655549890.675269) can0 381#79020C000700
(1655549890.677237) can0 001#FF7204200010
(1655549890.677476) can0 6D0#11008E0420000FAA
(1655549890.682216) can0 201#06000000400D0300
(1655549890.682389) can0 080#00
(1655549890.682615) can0 181#A10000000000
(1655549890.682821) can0 281#001C8E030000
(1655549890.683026) can0 381#79020C000700
(1655549890.685156) can0 001#FF7204200010
(1655549890.685393) can0 6D0#12008E04200047E3
(1655549890.690023) can0 201#06000000400D0300
(1655549890.690199) can0 080#00
(1655549890.690426) can0 181#A10000000000
(1655549890.690631) can0 281#001C8E030000
(1655549890.690836) can0 381#79020C000700
(1655549890.693164) can0 001#FF7204200010
(1655549890.697844) can0 201#06000000400D0300
(1655549890.698028) can0 080#00
(1655549890.698249) can0 181#A10000000000
(1655549890.698453) can0 281#001C8E030000
(1655549890.698659) can0 381#79020C000700
(1655549890.701226) can0 001#FF7204200010
(1655549890.705648) can0 201#06000000400D0300
(1655549890.705821) can0 080#00
(1655549890.706058) can0 181#A10000000000
(1655549890.706262) can0 281#001C8E030000
(1655549890.706470) can0 381#79020C000700
(1655549890.709153) can0 001#FF7304200010
(1655549890.709394) can0 6D0#13008D0420006400
(1655549890.713458) can0 201#06000000400D0300
(1655549890.713740) can0 1839F380#00191B1A0403069C
(1655549890.713855) can0 080#00
(1655549890.714066) can0 181#A10000000000
(1655549890.714269) can0 281#001C8E030000
(1655549890.714476) can0 381#79020C000700
(1655549890.714763) can0 1838F380#00001B00191B0306
(1655549890.714927) can0 080#051900A2
(1655549890.715952) can0 18EEFF80#F30080F300401E90
(1655549890.717229) can0 001#FF7404200010
(1655549890.717466) can0 6D0#14008C042029470C
(1655549890.721268) can0 201#06000000400D0300
(1655549890.721443) can0 080#00
(1655549890.721669) can0 181#A10000000000
(1655549890.721874) can0 281#001C8E030000
(1655549890.722077) can0 381#79020C000700
(1655549890.725152) can0 001#FF7404200010
(1655549890.725390) can0 6D0#15008C0420808BA8
(1655549890.729084) can0 201#06000000400D0300
(1655549890.729257) can0 080#00
(1655549890.729485) can0 181#A10000000000
(1655549890.729688) can0 281#001C8E030000
(1655549890.729893) can0 381#79020C000700
(1655549890.733230) can0 001#FF7504200010
(1655549890.733468) can0 6D0#16008B0420049839
(1655549890.736900) can0 201#06000000400D0300
(1655549890.737073) can0 080#00
(1655549890.737302) can0 181#A10000000000
(1655549890.737507) can0 281#001C8E030000
(1655549890.737710) can0 381#79020C000700
(1655549890.741151) can0 001#FF7504200010
(1655549890.741389) can0 6D0#17008B042002BC5C
(1655549890.744709) can0 201#06000000400D0300
(1655549890.744887) can0 080#00
(1655549890.745114) can0 181#A10000000000
(1655549890.745319) can0 281#001C8E030000
(1655549890.745520) can0 381#79020C000700
(1655549890.749220) can0 001#FF7504200010
(1655549890.749462) can0 6D0#18008B04200003A2
(1655549890.752515) can0 201#06000000400D0300
(1655549890.752689) can0 080#00
(1655549890.752915) can0 181#A10000000000
(1655549890.753119) can0 281#001C8E030000
(1655549890.753326) can0 381#79020C000700
(1655549890.757152) can0 001#FF7504200010
(1655549890.757391) can0 6D0#19008B04200004A4
(1655549890.760328) can0 201#06000000400D0300
(1655549890.760502) can0 080#00
(1655549890.760729) can0 181#A10000000000
(1655549890.760933) can0 281#001C8E030000
(1655549890.761136) can0 381#79020C000700
(1655549890.765153) can0 001#FF7504200010
(1655549890.768139) can0 201#06000000400D0300
(1655549890.768308) can0 080#00
(1655549890.768539) can0 181#A10000000000
(1655549890.768742) can0 281#001C8E030000
(1655549890.768946) can0 381#79020C000700
(1655549890.773219) can0 001#FF7504200010
(1655549890.775955) can0 201#06000000400D0300
(1655549890.776131) can0 080#00
(1655549890.776359) can0 181#A10000000000
(1655549890.776565) can0 281#001C8E030000
(1655549890.776767) can0 381#79020C000700
(1655549890.781151) can0 001#FF7304200010
(1655549890.781391) can0 6D0#1A008D0420000FB2
(1655549890.783760) can0 201#06000000400D0300
(1655549890.783938) can0 080#00
(1655549890.784168) can0 181#A10000000000
(1655549890.784372) can0 281#001C8E030000
(1655549890.784576) can0 381#79020C000700
(1655549890.789226) can0 001#FF7304200010
(1655549890.789465) can0 6D0#1B008D04200000A4
(1655549890.791651) can0 201#06000000400D0300
(1655549890.791823) can0 080#00
(1655549890.792084) can0 181#A10000000000
(1655549890.792293) can0 281#001C8E030000
(1655549890.792495) can0 381#79020C000700
(1655549890.794975) can0 200#05009B009B000000
(1655549890.797151) can0 001#FF7204200010
(1655549890.797391) can0 6D0#1C008E0420032AD3
(1655549890.799521) can0 201#06000000400D0300
(1655549890.799697) can0 080#00
(1655549890.799960) can0 181#A10000000000
(1655549890.800162) can0 281#001C8E030000
(1655549890.800365) can0 381#79020C000700
(1655549890.805226) can0 001#FF7204200010
(1655549890.807268) can0 201#06000000400D0300
(1655549890.807441) can0 080#00
(1655549890.807698) can0 181#A10000000000
(1655549890.807913) can0 281#001C84030000
(1655549890.808110) can0 381#79020C000700
(1655549890.813151) can0 001#FF7204200010
(1655549890.813391) can0 6D0#1D008E0420000FB6
(1655549890.813670) can0 1838F380#00031B03191B0306
(1655549890.813950) can0 1839F380#00191B1A0403069C
(1655549890.814124) can0 080#061B00A5
(1655549890.815489) can0 201#06000000400D0300
(1655549890.815663) can0 080#00
(1655549890.815891) can0 181#A10000000000
(1655549890.816095) can0 281#001C8E030000
(1655549890.816299) can0 381#79020C000700
(1655549890.821221) can0 001#FF7104200010
(1655549890.822998) can0 201#06000000400D0300
(1655549890.823172) can0 080#00
(1655549890.823400) can0 181#A10000000000
(1655549890.823605) can0 281#001C8E030000
(1655549890.823809) can0 381#79020C000700
(1655549890.829147) can0 001#FF7104200010
(1655549890.829385) can0 6D0#1E008F04200000A9
(1655549890.830769) can0 201#06000000400D0300
(1655549890.830973) can0 080#00
(1655549890.831203) can0 181#A10000000000
(1655549890.831407) can0 281#001C8E030000
(1655549890.831611) can0 381#79020C000700
(1655549890.837148) can0 001#FF7104200010
(1655549890.838511) can0 201#06000000400D0300
(1655549890.838686) can0 080#00
(1655549890.838948) can0 181#A10000000000
(1655549890.839154) can0 281#001C8E030000
(1655549890.839357) can0 381#79020C000700
(1655549890.845217) can0 001#FF7104200010
(1655549890.846325) can0 201#06000000400D0300
(1655549890.846499) can0 080#00
(1655549890.846756) can0 181#A10000000000
(1655549890.846960) can0 281#001C8E030000
(1655549890.847166) can0 381#79020C000700
(1655549890.853145) can0 001#FF7104200010
(1655549890.853385) can0 6D0#1F008F0420001DC7
(1655549890.854245) can0 201#06000000400D0300
(1655549890.854419) can0 080#00
(1655549890.854649) can0 181#A10000000000
(1655549890.854855) can0 281#001C8E030000
(1655549890.855068) can0 381#79020C000700
(1655549890.861225) can0 001#FF7104200010
(1655549890.861464) can0 6D0#20008F04200008B3
(1655549890.862010) can0 201#06000000400D0300
(1655549890.862184) can0 080#00
(1655549890.862441) can0 181#A10000000000
(1655549890.862646) can0 281#001C8E030000
(1655549890.862849) can0 381#79020C000700
(1655549890.869146) can0 001#FF7104200010
(1655549890.869385) can0 6D0#21008F04200000AC
(1655549890.869814) can0 201#06000000400D0300
(1655549890.869992) can0 080#00
(1655549890.870250) can0 181#A10000000000
(1655549890.870455) can0 281#001C8E030000
(1655549890.870658) can0 381#79020C000700
(1655549890.877216) can0 001#FF7204200010
(1655549890.877452) can0 6D0#22008E0420000CB8
(1655549890.877698) can0 201#06000000400D0300
(1655549890.877859) can0 080#00
(1655549890.878082) can0 181#A10000000000
(1655549890.878286) can0 281#001C8E030000
(1655549890.878490) can0 381#79020C000700
(1655549890.885146) can0 001#FF7204200010
(1655549890.885395) can0 201#06000000400D0300
(1655549890.885631) can0 6D0#23008E04200420D1
(1655549890.885744) can0 080#00
(1655549890.885959) can0 181#A10000000000
(1655549890.886162) can0 281#001C8E030000
(1655549890.886367) can0 381#79020C000700
(1655549890.893111) can0 201#06000000400D0300
(1655549890.893320) can0 001#FF7304200010
(1655549890.893445) can0 080#00
(1655549890.893646) can0 181#A10000000000
(1655549890.893850) can0 281#001C8E030000
(1655549890.894054) can0 381#79020C000700
(1655549890.894292) can0 6D0#24008D04200016C3
(1655549890.900940) can0 201#06000000400D0300
(1655549890.901149) can0 001#FF7304200010
(1655549890.901262) can0 080#00
(1655549890.901475) can0 181#A10000000000
(1655549890.901680) can0 281#001C8E030000
(1655549890.901884) can0 381#79020C000700
(1655549890.902120) can0 6D0#25008D04200005B3
(1655549890.908749) can0 201#06000000400D0300
(1655549890.908928) can0 080#00
(1655549890.909168) can0 001#FF7404200010
(1655549890.909382) can0 181#A10000000000
(1655549890.909583) can0 281#001C8E030000
(1655549890.909788) can0 381#79020C000700
(1655549890.910025) can0 6D0#26008C0420A32F80
(1655549890.913443) can0 080#051900A2
(1655549890.913725) can0 1838F380#00061906191B0306
(1655549890.914005) can0 18EEFF80#F30080F300401E90
(1655549890.914285) can0 1839F380#00191B1A0403069C
(1655549890.916663) can0 201#06000000400D0300
(1655549890.916848) can0 080#00
(1655549890.917069) can0 181#A10000000000
(1655549890.917276) can0 001#FF7404200010
(1655549890.917480) can0 281#001C8E030000
(1655549890.917683) can0 381#79020A000700
(1655549890.917918) can0 6D0#27008C0420FF7321
(1655549890.924372) can0 201#06000000400D0300
(1655549890.924548) can0 080#00
(1655549890.924806) can0 181#A10000000000
(1655549890.925029) can0 281#001C84030000
(1655549890.925218) can0 001#FF7404200010
(1655549890.925423) can0 381#79020C000700
(1655549890.925659) can0 6D0#28008C0420001BCB
(1655549890.932184) can0 201#06000000400D0300
(1655549890.932356) can0 080#00
(1655549890.932621) can0 181#A10000000000
(1655549890.932819) can0 281#001C8E030000
(1655549890.933023) can0 381#79020C000700
(1655549890.933229) can0 001#FF7504200010
(1655549890.933463) can0 6D0#29008B04200019C9
(1655549890.939978) can0 201#06000000400D0300
(1655549890.940156) can0 080#00
(1655549890.940382) can0 181#A10000000000
(1655549890.940586) can0 281#001C8E030000
(1655549890.940790) can0 381#79020C000700
(1655549890.941146) can0 001#FF7504200010
(1655549890.941386) can0 6D0#2A008B04200019CA
(1655549890.947811) can0 201#06000000400D0300
(1655549890.947989) can0 080#00
(1655549890.948245) can0 181#A10000000000
(1655549890.948449) can0 281#001C8E030000
(1655549890.948654) can0 381#79020C000700
(1655549890.949214) can0 001#FF7504200010
(1655549890.955617) can0 201#06000000400D0300
(1655549890.955793) can0 080#00
(1655549890.956056) can0 181#A10000000000
(1655549890.956261) can0 281#001C8E030000
(1655549890.956464) can0 381#79020C000700
(1655549890.957139) can0 001#FF7504200010
(1655549890.957385) can0 6D0#2B008B04200000B2
(1655549890.963428) can0 201#06000000400D0300
(1655549890.963602) can0 080#00
(1655549890.963860) can0 181#A10000000000
(1655549890.964063) can0 281#001C8E030000
(1655549890.964266) can0 381#79020C000700
(1655549890.965211) can0 001#FF7404200010
(1655549890.965450) can0 6D0#2C008C04200000B4
(1655549890.971238) can0 201#06000000400D0300
(1655549890.971410) can0 080#00
(1655549890.971639) can0 181#A10000000000
(1655549890.971846) can0 281#001C84030000
(1655549890.972049) can0 381#79020C000700
(1655549890.973140) can0 001#FF7404200010
(1655549890.973378) can0 6D0#2D008C04200019CE
(1655549890.979054) can0 201#06000000400D0300
(1655549890.979229) can0 080#00
(1655549890.979484) can0 181#A10000000000
(1655549890.979688) can0 281#001C8E030000
(1655549890.979893) can0 381#79020C000700
(1655549890.981224) can0 001#FF7304200010
(1655549890.981465) can0 6D0#2E008D042000681F
(1655549890.986865) can0 201#06000000400D0300
(1655549890.987042) can0 080#00
(1655549890.987300) can0 181#A10000000000
(1655549890.987505) can0 281#001C8E030000
(1655549890.987710) can0 381#79020A000700
(1655549890.989139) can0 001#FF7304200010
(1655549890.989374) can0 6D0#2F008D0420006B23
(1655549890.994674) can0 201#06000000400D0300
(1655549890.994853) can0 080#00
(1655549890.995109) can0 181#A10000000000
(1655549890.995315) can0 281#001C84030000
(1655549890.995526) can0 381#79020C000700
(1655549890.997211) can0 001#FF7304200010
(1655549890.997457) can0 6D0#30008D04200001BA
(1655549891.002481) can0 201#06000000400D0300
(1655549891.002655) can0 080#00
(1655549891.002919) can0 181#A10000000000
(1655549891.003125) can0 281#001C8E030000
(1655549891.003326) can0 381#79020C000700
(1655549891.005141) can0 001#FF7204200010
(1655549891.005381) can0 6D0#31008E04200000BB
(1655549891.010282) can0 201#06000000400D0300
(1655549891.010457) can0 080#00
(1655549891.010684) can0 181#A10000000000
(1655549891.010888) can0 281#001C8E030000
(1655549891.011091) can0 381#79020C000700
(1655549891.013209) can0 001#FF7204200010
(1655549891.013395) can0 080#061B00A5
(1655549891.013675) can0 1838F380#000B190B191B0306
(1655549891.013961) can0 1839F380#00191B1A0403069C
(1655549891.018091) can0 201#06000000400D0300
(1655549891.018264) can0 080#00
(1655549891.018492) can0 181#A10000000000
(1655549891.018696) can0 281#001C8E030000
(1655549891.018900) can0 381#79020C000700
(1655549891.021136) can0 001#FF7104200010
(1655549891.021371) can0 6D0#32008F042092FE4D
(1655549891.025905) can0 201#06000000400D0300
(1655549891.026085) can0 080#00
(1655549891.026314) can0 181#A10000000000
(1655549891.026518) can0 281#001C8E030000
(1655549891.026721) can0 381#79020C000700
(1655549891.029205) can0 001#FF7104200010
(1655549891.033705) can0 201#06000000400D0300
(1655549891.033891) can0 080#00
(1655549891.034119) can0 181#A10000000000
(1655549891.034323) can0 281#001C8E030000
(1655549891.034528) can0 381#79020C000700
(1655549891.037137) can0 001#FF7104200010
(1655549891.037374) can0 6D0#33008F042093AEFF
(1655549891.041525) can0 201#06000000400D0300
(1655549891.041703) can0 080#00
(1655549891.041937) can0 181#A10000000000
(1655549891.042138) can0 281#001C84030000
(1655549891.042343) can0 381#79020C000700
(1655549891.045207) can0 001#FF7104200010
(1655549891.045441) can0 6D0#34008F0420936ABC
(1655549891.049333) can0 201#06000000400D0300
(1655549891.049505) can0 080#00
(1655549891.049742) can0 181#A10000000000
(1655549891.049941) can0 281#001C8E030000
(1655549891.050145) can0 381#79020C000700
(1655549891.053136) can0 001#FF7104200010
(1655549891.053369) can0 6D0#35008F042092A3F5
(1655549891.057146) can0 201#06000000400D0300
(1655549891.057321) can0 080#00
(1655549891.057547) can0 181#A10000000000
(1655549891.057752) can0 281#001C84030000
(1655549891.057958) can0 381#79020C000700
(1655549891.061209) can0 001#FF7104200010
(1655549891.061446) can0 6D0#36008F0420934CA0
(1655549891.064955) can0 201#06000000400D0300
(1655549891.065129) can0 080#00
(1655549891.065358) can0 181#A10000000000
(1655549891.065565) can0 281#001C84030000
(1655549891.065768) can0 381#79020C000700
(1655549891.069134) can0 001#FF7104200010
(1655549891.069370) can0 6D0#37008F0420931C71
(1655549891.072774) can0 201#06000000400D0300
(1655549891.072951) can0 080#00
(1655549891.073180) can0 181#A10000000000
(1655549891.073388) can0 281#001C84030000
(1655549891.073593) can0 381#79020C000700
(1655549891.077209) can0 001#FF7204200010
(1655549891.077449) can0 6D0#38008E04200032F4
(1655549891.080577) can0 201#06000000400D0300
(1655549891.080749) can0 080#00
(1655549891.080983) can0 181#A10000000000
(1655549891.081189) can0 281#001C8E030000
(1655549891.081393) can0 381#79020C000700
(1655549891.085136) can0 001#FF7204200010
(1655549891.085372) can0 6D0#39008E0420004609
(1655549891.088390) can0 201#06000000400D0300
(1655549891.088565) can0 080#00
(1655549891.088791) can0 181#A10000000000
(1655549891.088999) can0 281#001C84030000
(1655549891.089201) can0 381#79020C000700
(1655549891.093209) can0 001#FF7304200010
(1655549891.093451) can0 6D0#3A008D04200037FA
(1655549891.096199) can0 201#06000000400D0300
(1655549891.096374) can0 080#00
(1655549891.096603) can0 181#A10000000000
(1655549891.096808) can0 281#001C8E030000
(1655549891.097013) can0 381#79020C000700
(1655549891.101133) can0 001#FF7304200010
(1655549891.101375) can0 6D0#3B008D0420A41078
(1655549891.104015) can0 201#06000000400D0300
(1655549891.104191) can0 080#00
(1655549891.104416) can0 181#A10000000000
(1655549891.104622) can0 281#001C8E030000
(1655549891.104826) can0 381#79020C000700
(1655549891.109132) can0 001#FF7404200010
(1655549891.109370) can0 6D0#3C008C042061A8CD
(1655549891.111826) can0 201#06000000400D0300
(1655549891.112002) can0 080#00
(1655549891.112233) can0 181#A10000000000
(1655549891.112437) can0 281#001C8E030000
(1655549891.112640) can0 381#79020C000700
(1655549891.113386) can0 080#051900A2
(1655549891.113672) can0 1838F380#00001B00191B0306
(1655549891.113954) can0 1839F380#00191B1A0403069C
(1655549891.115600) can0 18EEFF80#F30080F300401E90
(1655549891.117204) can0 001#FF7404200010
(1655549891.117446) can0 6D0#3D008C0420002AEF
(1655549891.119712) can0 201#06000000400D0300
(1655549891.119890) can0 080#00
(1655549891.120149) can0 181#A10000000000
(1655549891.120352) can0 281#001C8E030000
(1655549891.120557) can0 381#79020C000700
(1655549891.125131) can0 001#FF7404200010
(1655549891.125371) can0 6D0#3E008C04200004CA
(1655549891.127521) can0 201#06000000400D0300
(1655549891.127695) can0 080#00
(1655549891.127958) can0 181#A10000000000
(1655549891.128162) can0 281#001C8E030000
(1655549891.128366) can0 381#79020C000700
(1655549891.133200) can0 001#FF7504200010
(1655549891.133438) can0 6D0#3F008B0420002AF0
(1655549891.135429) can0 201#06000000400D0300
(1655549891.135580) can0 080#00
(1655549891.135837) can0 181#A10000000000
(1655549891.136036) can0 281#001C84030000
(1655549891.136241) can0 381#79020C000700
(1655549891.141131) can0 001#FF7504200010
(1655549891.141375) can0 6D0#40008B04200004CB
(1655549891.143206) can0 201#06000000400D0300
(1655549891.143381) can0 080#00
(1655549891.143638) can0 181#A10000000000
(1655549891.143842) can0 281#001C8E030000
(1655549891.144046) can0 381#79020C000700
(1655549891.149202) can0 001#FF7504200010
(1655549891.149441) can0 6D0#41008B0420002AF2
(1655549891.151060) can0 201#06000000400D0300
(1655549891.151233) can0 080#00
(1655549891.151469) can0 181#A10000000000
(1655549891.151666) can0 281#001C8E030000
(1655549891.151871) can0 381#79020C000700
(1655549891.157134) can0 001#FF7504200010
(1655549891.157375) can0 6D0#42008B04200002CB
(1655549891.158830) can0 201#06000000400D0300
(1655549891.159012) can0 080#00
(1655549891.159268) can0 181#A10000000000
(1655549891.159473) can0 281#001C84030000
(1655549891.159686) can0 381#79020C000700
(1655549891.165199) can0 001#FF7404200010
(1655549891.166584) can0 201#06000000400D0300
(1655549891.166754) can0 080#00
(1655549891.167019) can0 181#A10000000000
(1655549891.167225) can0 281#001C8E030000
(1655549891.167426) can0 381#79020C000700
(1655549891.173132) can0 001#FF7404200010
(1655549891.173371) can0 6D0#43008C0420011BE7
(1655549891.174456) can0 201#06000000400D0300
(1655549891.174628) can0 080#00
(1655549891.174887) can0 181#A10000000000
(1655549891.175091) can0 281#001C8E030000
(1655549891.175296) can0 381#79020C000700
(1655549891.181209) can0 001#FF7304200010
(1655549891.181456) can0 6D0#44008D0420023302
(1655549891.182308) can0 201#06000000400D0300
(1655549891.182486) can0 080#00
(1655549891.182711) can0 181#A10000000000
(1655549891.182916) can0 281#001C8E030000
(1655549891.183120) can0 381#79020C000700
(1655549891.189129) can0 001#FF7304200010
(1655549891.189365) can0 6D0#45008D0420006432
(1655549891.190118) can0 201#06000000400D0300
(1655549891.190293) can0 080#00
(1655549891.190521) can0 181#A10000000000
(1655549891.190734) can0 281#001C8E030000
(1655549891.190931) can0 381#79020C000700
(1655549891.197200) can0 001#FF7304200010
(1655549891.197815) can0 201#06000000400D0300
(1655549891.197991) can0 080#00
(1655549891.198223) can0 181#A10000000000
(1655549891.198426) can0 281#001C8E030000
(1655549891.198632) can0 381#79020C000700
(1655549891.205129) can0 001#FF7304200010
(1655549891.205626) can0 201#06000000400D0300
(1655549891.205799) can0 080#00
(1655549891.206065) can0 181#A10000000000
(1655549891.206281) can0 281#001C84030000
(1655549891.206477) can0 381#79020C000700
(1655549891.213138) can0 001#FF7204200010
(1655549891.213396) can0 201#06000000400D0300
(1655549891.213494) can0 080#00
(1655549891.213774) can0 1839F380#00191B1A0403069C
(1655549891.213989) can0 181#A10000000000
(1655549891.214192) can0 281#001C8E030000
(1655549891.214397) can0 381#79020C000700
(1655549891.214677) can0 1838F380#00031B03191B0306
(1655549891.214846) can0 080#061B00A5
(1655549891.215093) can0 6D0#46008E0420006E3E
(1655549891.221135) can0 001#FF7204200010
(1655549891.221383) can0 201#06000000400D0300
(1655549891.221603) can0 080#00
(1655549891.221813) can0 181#A10000000000
(1655549891.222025) can0 281#001C8E030000
(1655549891.222223) can0 381#79020C000700
(1655549891.228993) can0 201#06000000400D0300
(1655549891.229210) can0 001#FF7204200010
(1655549891.229319) can0 080#00
(1655549891.229530) can0 181#A10000000000
(1655549891.229745) can0 281#001C8E030000
(1655549891.229940) can0 381#79020C000700
(1655549891.236802) can0 201#06000000400D0300
(1655549891.236979) can0 080#00
(1655549891.237201) can0 001#FF7104200010
(1655549891.237413) can0 181#A10000000000
(1655549891.237617) can0 281#001C8E030000
(1655549891.237820) can0 381#79020C000700
(1655549891.238048) can0 6D0#47008F042009D7B2
(1655549891.244628) can0 201#06000000400D0300
(1655549891.244809) can0 080#00
(1655549891.245065) can0 181#A10000000000
(1655549891.245269) can0 001#FF7004200010
(1655549891.245482) can0 281#001C8E030000
(1655549891.245679) can0 381#79020C000700
(1655549891.245915) can0 6D0#4800900420081EFA
(1655549891.252436) can0 201#06000000400D0300
(1655549891.252611) can0 080#00
(1655549891.252839) can0 181#A10000000000
(1655549891.253046) can0 281#001C84030000
(1655549891.253253) can0 001#FF7104200010
(1655549891.253453) can0 381#79020C000700
(1655549891.253689) can0 6D0#49008F04200000D4
(1655549891.260252) can0 201#06000000400D0300
(1655549891.260427) can0 080#00
(1655549891.260682) can0 181#A10000000000
(1655549891.260886) can0 281#001C8E030000
(1655549891.261094) can0 381#79020C000700
(1655549891.261299) can0 001#FF7104200010
(1655549891.261534) can0 6D0#4A008F0420121F06
(1655549891.268049) can0 201#06000000400D0300
(1655549891.268219) can0 080#00
(1655549891.268449) can0 181#A10000000000
(1655549891.268653) can0 281#001C8E030000
(1655549891.268853) can0 381#79020D000700
(1655549891.269198) can0 001#FF7104200010
(1655549891.269428) can0 6D0#4B008F04200D896C
(1655549891.275872) can0 201#06000000400D0300
(1655549891.276053) can0 080#00
(1655549891.276309) can0 181#A10000000000
(1655549891.276515) can0 281#001C84030000
(1655549891.276728) can0 381#79020C000700
(1655549891.277138) can0 001#FF7204200010
(1655549891.277372) can0 6D0#4C008E0420089876
(1655549891.283681) can0 201#06000000400D0300
(1655549891.283863) can0 080#00
(1655549891.284121) can0 181#A10000000000
(1655549891.284326) can0 281#001C8E030000
(1655549891.284530) can0 381#79020C000700
(1655549891.285205) can0 001#FF7204200010
(1655549891.291495) can0 201#06000000400D0300
(1655549891.291670) can0 080#00
(1655549891.291933) can0 181#A10000000000
(1655549891.292139) can0 281#001C8E030000
(1655549891.292343) can0 381#79020C000700
(1655549891.293127) can0 001#FF7204200010
(1655549891.293361) can0 6D0#4D008E0420076C4A
(1655549891.299304) can0 201#06000000400D0300
(1655549891.299480) can0 080#00
(1655549891.299739) can0 181#A10000000000
(1655549891.299947) can0 281#001C84030000
(1655549891.300147) can0 381#79020C000700
(1655549891.301196) can0 001#FF7204200010
(1655549891.307117) can0 201#06000000400D0300
(1655549891.307293) can0 080#00
(1655549891.307558) can0 181#A10000000000
(1655549891.307754) can0 281#001C8E030000
(1655549891.307958) can0 381#79020C000700
(1655549891.309124) can0 001#FF7404200010
(1655549891.309374) can0 6D0#4E008C04200001D7
(1655549891.313383) can0 080#051900A2
(1655549891.313668) can0 1838F380#00061906191B0306
(1655549891.313947) can0 1839F380#00191B1A0403069C
(1655549891.315276) can0 201#06000000400D0300
(1655549891.315451) can0 080#00
(1655549891.315730) can0 18EEFF80#F30080F300401E90
(1655549891.315947) can0 181#A10000000000
(1655549891.316147) can0 281#001C8E030000
(1655549891.316349) can0 381#79020C000700
(1655549891.317201) can0 001#FF7404200010
(1655549891.317441) can0 6D0#4F008C04200001D8
(1655549891.322741) can0 201#06000000400D0300
(1655549891.322919) can0 080#00
(1655549891.323177) can0 181#A10000000000
(1655549891.323384) can0 281#001C84030000
(1655549891.323588) can0 381#79020C000700
(1655549891.325125) can0 001#FF7404200010
(1655549891.325358) can0 6D0#50008C04204F3158
(1655549891.330549) can0 201#06000000400D0300
(1655549891.330721) can0 080#00
(1655549891.330984) can0 181#A10000000000
(1655549891.331191) can0 281#001C8E030000
(1655549891.331395) can0 381#79020C000700
(1655549891.333192) can0 001#FF7504200010
(1655549891.333425) can0 6D0#51008B042021312A
(1655549891.338366) can0 201#06000000400D0300
(1655549891.338535) can0 080#00
(1655549891.338793) can0 181#A10000000000
(1655549891.338998) can0 281#001C8E030000
(1655549891.339200) can0 381#79020C000700
(1655549891.341122) can0 001#FF7504200010
(1655549891.341361) can0 6D0#52008B04200000D9
(1655549891.346157) can0 201#06000000400D0300
(1655549891.346331) can0 080#00
(1655549891.346561) can0 181#A10000000000
(1655549891.346767) can0 281#001C84030000
(1655549891.346971) can0 381#79020C000700
(1655549891.349190) can0 001#FF7504200010
(1655549891.349427) can0 6D0#53008B04200000DA
(1655549891.353970) can0 201#06000000400D0300
(1655549891.354147) can0 080#00
(1655549891.354374) can0 181#A10000000000
(1655549891.354578) can0 281#001C8E030000
(1655549891.354785) can0 381#79020C000700
(1655549891.357122) can0 001#FF7504200010
(1655549891.357358) can0 6D0#54008B0420023613
(1655549891.361781) can0 201#06000000400D0300
(1655549891.361958) can0 080#00
(1655549891.362190) can0 181#A10000000000
(1655549891.362396) can0 281#001C84030000
(1655549891.362601) can0 381#79020C000700
(1655549891.365192) can0 001#FF7404200010
(1655549891.369590) can0 201#06000000400D0300
(1655549891.369766) can0 080#00
(1655549891.369999) can0 181#A10000000000
(1655549891.370210) can0 281#001C84030000
(1655549891.370417) can0 381#79020C000700
(1655549891.373122) can0 001#FF7304200010
(1655549891.373362) can0 6D0#55008D04200000DE
(1655549891.377401) can0 201#06000000400D0300
(1655549891.377581) can0 080#00
(1655549891.377805) can0 181#A10000000000
(1655549891.378010) can0 281#001C84030000
(1655549891.378215) can0 381#79020C000700
(1655549891.381196) can0 001#FF7304200010
(1655549891.385214) can0 201#06000000400D0300
(1655549891.385390) can0 080#00
(1655549891.385619) can0 181#A10000000000
(1655549891.385823) can0 281#001C84030000
(1655549891.386030) can0 381#79020C000700
(1655549891.389125) can0 001#FF7304200010
(1655549891.389364) can0 6D0#56008D04200000DF
(1655549891.393021) can0 201#06000000400D0300
(1655549891.393196) can0 080#00
(1655549891.393426) can0 181#A10000000000
(1655549891.393633) can0 281#001C84030000
(1655549891.393840) can0 381#79020C000700
(1655549891.397188) can0 001#FF7304200010
(1655549891.400836) can0 201#06000000400D0300
(1655549891.401017) can0 080#00
(1655549891.401250) can0 181#A10000000000
(1655549891.401450) can0 281#001C84030000
(1655549891.401655) can0 381#79020C000700
(1655549891.405124) can0 001#FF7204200010
(1655549891.405363) can0 6D0#57008E04200000E1
(1655549891.408643) can0 201#06000000400D0300
(1655549891.408828) can0 080#00
(1655549891.409050) can0 181#A10000000000
(1655549891.409261) can0 281#001C84030000
(1655549891.409462) can0 381#79020C000700
(1655549891.413190) can0 001#FF7204200010
(1655549891.413479) can0 1806E9F4#0498009600000000
(1655549891.413770) can0 1806E5F4#0498009600000000
(1655549891.414056) can0 1806E7F4#0498009600000000
(1655549891.414338) can0 1839F380#00191B1A0403069C
(1655549891.414619) can0 1838F380#000B190B191B0306
(1655549891.414787) can0 080#061B00A5
(1655549891.415023) can0 6D0#58008E0420FFD8B9
(1655549891.416882) can0 201#06000000400D0300
(1655549891.417059) can0 080#00
(1655549891.417289) can0 181#A10000000000
(1655549891.417514) can0 281#001C8E030000
(1655549891.417703) can0 381#79020C000700
(1655549891.421118) can0 001#FF7104200010
(1655549891.421357) can0 6D0#59008F04200000E4
(1655549891.424268) can0 201#06000000400D0300
(1655549891.424458) can0 080#00
(1655549891.424676) can0 181#A10000000000
(1655549891.424878) can0 281#001C8E030000
(1655549891.425081) can0 381#79020C000700
(1655549891.429185) can0 001#FF7004200010
(1655549891.429424) can0 6D0#5A009004200000E6
(1655549891.432078) can0 201#06000000400D0300
(1655549891.432254) can0 080#00
(1655549891.432480) can0 181#A10000000000
(1655549891.432685) can0 281#001C8E030000
(1655549891.432890) can0 381#79020C000700
(1655549891.437118) can0 001#FF7104200010
(1655549891.437355) can0 6D0#5B008F04200000E6
(1655549891.439890) can0 201#06000000400D0300
(1655549891.440070) can0 080#00
(1655549891.440298) can0 181#A10000000000
(1655549891.440505) can0 281#001C8E030000
(1655549891.440709) can0 381#79020C000700
(1655549891.445186) can0 001#FF7004200010
(1655549891.445427) can0 6D0#5C009004200000E8
(1655549891.447721) can0 201#06000000400D0300
(1655549891.447903) can0 080#00
(1655549891.448159) can0 181#A10000000000
(1655549891.448361) can0 281#001C8E030000
(1655549891.448563) can0 381#79020C000700
(1655549891.453118) can0 001#FF7104200010
(1655549891.453359) can0 6D0#5D008F04200000E8
(1655549891.455590) can0 201#06000000400D0300
(1655549891.455766) can0 080#00
(1655549891.456025) can0 181#A10000000000
(1655549891.456233) can0 281#001C84030000
(1655549891.456443) can0 381#79020C000700
(1655549891.461188) can0 001#FF7104200010
(1655549891.463403) can0 201#06000000400D0300
(1655549891.463574) can0 080#00
(1655549891.463830) can0 181#A10000000000
(1655549891.464046) can0 281#001C84030000
(1655549891.464242) can0 381#79020C000700
(1655549891.469117) can0 001#FF7104200010
(1655549891.469353) can0 6D0#5E008F04200000E9
(1655549891.471273) can0 201#06000000400D0300
(1655549891.471447) can0 080#00
(1655549891.471708) can0 181#A10000000000
(1655549891.471914) can0 281#001C84030000
(1655549891.472118) can0 381#79020C000700
(1655549891.477194) can0 001#FF7204200010
(1655549891.477429) can0 6D0#5F008E04200000E9
(1655549891.479119) can0 201#06000000400D0300
(1655549891.479265) can0 080#00
(1655549891.479530) can0 181#A10000000000
(1655549891.479727) can0 281#001C8E030000
(1655549891.479931) can0 381#79020C000700
(1655549891.485118) can0 001#FF7204200010
(1655549891.485358) can0 6D0#60008E04200000EA
(1655549891.486904) can0 201#06000000400D0300
(1655549891.487107) can0 080#00
(1655549891.487339) can0 181#A10000000000
(1655549891.487543) can0 281#001C84030000
(1655549891.487746) can0 381#79020C000700
(1655549891.493198) can0 001#FF7304200010
(1655549891.493434) can0 6D0#61008D04200000EA
(1655549891.494743) can0 201#06000000400D0300
(1655549891.494920) can0 080#00
(1655549891.495146) can0 181#A10000000000
(1655549891.495360) can0 281#001C84030000
(1655549891.495571) can0 381#79020C000700
(1655549891.501125) can0 001#FF7304200010
(1655549891.501373) can0 6D0#62008D04200000EB
(1655549891.502519) can0 201#06000000400D0300
(1655549891.502702) can0 080#00
(1655549891.502961) can0 181#A10000000000
(1655549891.503161) can0 281#001C84030000
(1655549891.503366) can0 381#79020C000700
(1655549891.509119) can0 001#FF7404200010
(1655549891.509355) can0 6D0#63008C04200000EB
(1655549891.510362) can0 201#06000000400D0300
(1655549891.510513) can0 080#00
(1655549891.510764) can0 181#A10000000000
(1655549891.510971) can0 281#001C84030000
(1655549891.511185) can0 381#79020C000700
(1655549891.513370) can0 080#051900A2
(1655549891.513656) can0 1838F380#00001B00191B0306
(1655549891.513937) can0 18EEFF80#F30080F300401E90
(1655549891.514217) can0 1839F380#00191B1A0403069C
(1655549891.517185) can0 001#FF7404200010
(1655549891.517443) can0 6D0#64008C04200000EC
(1655549891.518184) can0 201#06000000400D0300
(1655549891.518360) can0 080#00
(1655549891.518589) can0 181#A10000000000
(1655549891.518793) can0 281#001C84030000
(1655549891.518999) can0 381#79020C000700
(1655549891.525114) can0 001#FF7404200010
(1655549891.525351) can0 6D0#65008C04200000ED
(1655549891.525996) can0 201#06000000400D0300
(1655549891.526172) can0 080#00
(1655549891.526397) can0 181#A10000000000
(1655549891.526605) can0 281#001C84030000
(1655549891.526812) can0 381#79020C000700
(1655549891.533191) can0 001#FF7504200010
(1655549891.533426) can0 6D0#66008B04200000ED
(1655549891.533798) can0 201#06000000400D0300
(1655549891.533984) can0 080#00
(1655549891.534207) can0 181#A10000000000
(1655549891.534413) can0 281#001C84030000
(1655549891.534616) can0 381#79020C000700
(1655549891.541114) can0 001#FF7504200010
(1655549891.541352) can0 6D0#67008B0420FFFFEC
(1655549891.541598) can0 201#06000000400D0300
(1655549891.541742) can0 080#00
(1655549891.542008) can0 181#A10000000000
(1655549891.542213) can0 281#001C8E030000
(1655549891.542422) can0 381#79020C000700
(1655549891.549181) can0 001#FF7504200010
(1655549891.549430) can0 201#06000000400D0300
(1655549891.549665) can0 6D0#6E008B0420004035
(1655549891.549779) can0 080#00
(1655549891.549992) can0 181#A10000000000
(1655549891.550200) can0 281#001C84030000
(1655549891.550404) can0 381#79020C000700
(1655549891.557062) can0 201#06000000400D0300
(1655549891.557264) can0 001#FF7504200010
(1655549891.557377) can0 080#00
(1655549891.557593) can0 181#A10000000000
(1655549891.557799) can0 281#001C84030000
(1655549891.558003) can0 381#79020C000700
(1655549891.558241) can0 6D0#73008B0420080103
(1655549891.564883) can0 201#06000000400D0300
(1655549891.565062) can0 080#00
(1655549891.565267) can0 001#FF7404200010
(1655549891.565479) can0 181#A10000000000
(1655549891.565684) can0 281#001C8E030000
(1655549891.565888) can0 381#79020C000700
(1655549891.566126) can0 6D0#74008C0420080004
(1655549891.572695) can0 201#06000000400D0300
(1655549891.572878) can0 080#00
(1655549891.573114) can0 001#FF7304200010
(1655549891.573326) can0 181#A10000000000
(1655549891.573533) can0 281#001C84030000
(1655549891.573736) can0 381#79020C000700
(1655549891.573972) can0 6D0#75008D04200000FE
(1655549891.580504) can0 201#06000000400D0300
(1655549891.580677) can0 080#00
(1655549891.580945) can0 181#A10000000000
(1655549891.581147) can0 281#001C84030000
(1655549891.581354) can0 001#FF7304200010
(1655549891.581567) can0 381#79020C000700
(1655549891.581796) can0 6D0#76008D04200000FF
(1655549891.588317) can0 201#06000000400D0300
(1655549891.588489) can0 080#00
(1655549891.588746) can0 181#A10000000000
(1655549891.588952) can0 281#001C84030000
(1655549891.589159) can0 001#FF7304200010
(1655549891.589363) can0 381#79020C000700
(1655549891.589604) can0 6D0#77008D0420000000
(1655549891.596124) can0 201#06000000400D0300
(1655549891.596297) can0 080#00
(1655549891.596528) can0 181#A10000000000
(1655549891.596733) can0 281#001C84030000
(1655549891.596939) can0 381#79020C000700
(1655549891.597181) can0 001#FF7304200010
(1655549891.603926) can0 201#06000000400D0300
(1655549891.604098) can0 080#00
(1655549891.604329) can0 181#A10000000000
(1655549891.604539) can0 281#001C84030000
(1655549891.604737) can0 381#79020C000700
(1655549891.605110) can0 001#FF7304200010
(1655549891.605351) can0 6D0#78008D0420000001
(1655549891.611747) can0 201#06000000400D0300
(1655549891.611928) can0 080#00
(1655549891.612183) can0 181#A10000000000
(1655549891.612390) can0 281#001C84030000
(1655549891.612595) can0 381#79020C000700
(1655549891.613116) can0 001#FF7304200010
(1655549891.613386) can0 080#061B00A5
(1655549891.613665) can0 1838F380#00031B03191B0306
(1655549891.613937) can0 1839F380#00191B1A0403069C
(1655549891.619562) can0 201#06000000400D0300
(1655549891.619742) can0 080#00
(1655549891.620006) can0 181#A10000000000
(1655549891.620205) can0 281#001C84030000
(1655549891.620410) can0 381#79020C000700
(1655549891.621181) can0 001#FF7304200010
(1655549891.627369) can0 201#06000000400D0300
(1655549891.627549) can0 080#00
(1655549891.627805) can0 181#A10000000000
(1655549891.628009) can0 281#001C84030000
(1655549891.628209) can0 381#79020C000700
(1655549891.629108) can0 001#FF7104200010
(1655549891.629347) can0 6D0#79008F0420000004
(1655549891.635222) can0 201#06000000400D0300
(1655549891.635363) can0 080#00
(1655549891.635622) can0 181#A10000000000
(1655549891.635825) can0 281#001C8E030000
(1655549891.636031) can0 381#79020C000700
(1655549891.637180) can0 001#FF7104200010
(1655549891.637418) can0 6D0#7A008F0420000005
(1655549891.642991) can0 201#06000000400D0300
(1655549891.643164) can0 080#00
(1655549891.643426) can0 181#A10000000000
(1655549891.643630) can0 281#001C84030000
(1655549891.643834) can0 381#79020C000700
(1655549891.645108) can0 001#FF7104200010
(1655549891.645344) can0 6D0#7B008F0420000309
(1655549891.650806) can0 201#06000000400D0300
(1655549891.650985) can0 080#00
(1655549891.651243) can0 181#A10000000000
(1655549891.651449) can0 281#001C84030000
(1655549891.651653) can0 381#79020C000700
(1655549891.653178) can0 001#FF7104200010
(1655549891.658613) can0 201#06000000400D0300
(1655549891.658793) can0 080#00
(1655549891.659051) can0 181#A10000000000
(1655549891.659260) can0 281#001C84030000
(1655549891.659461) can0 381#79020C000700
(1655549891.661108) can0 001#FF7104200010
(1655549891.661350) can0 6D0#7C008F042000060D
(1655549891.666431) can0 201#06000000400D0300
(1655549891.666604) can0 080#00
(1655549891.666862) can0 181#A10000000000
(1655549891.667065) can0 281#001C84030000
(1655549891.667277) can0 381#79020C000700
(1655549891.669180) can0 001#FF7104200010
(1655549891.669420) can0 6D0#7D008F0420003038
(1655549891.674220) can0 201#06000000400D0300
(1655549891.674400) can0 080#00
(1655549891.674626) can0 181#A10000000000
(1655549891.674834) can0 281#001C84030000
(1655549891.675038) can0 381#79020C000700
(1655549891.677109) can0 001#FF7204200010
(1655549891.677350) can0 6D0#7E008E0420000008
(1655549891.682032) can0 201#06000000400D0300
(1655549891.682205) can0 080#00
(1655549891.682434) can0 181#A10000000000
(1655549891.682642) can0 281#001C84030000
(1655549891.682847) can0 381#79020C000700
(1655549891.685120) can0 001#FF7204200010
(1655549891.689846) can0 201#06000000400D0300
(1655549891.690024) can0 080#00
(1655549891.690253) can0 181#A10000000000
(1655549891.690457) can0 281#001C8E030000
(1655549891.690662) can0 381#79020C000700
(1655549891.693177) can0 001#FF7204200010
(1655549891.697658) can0 201#06000000400D0300
(1655549891.697836) can0 080#00
(1655549891.698065) can0 181#A10000000000
(1655549891.698272) can0 281#001C84030000
(1655549891.698477) can0 381#79020C000700
(1655549891.701112) can0 001#FF7304200010
(1655549891.701355) can0 6D0#7F008D042002EEF8
(1655549891.705467) can0 201#06000000400D0300
(1655549891.705650) can0 080#00
(1655549891.705871) can0 181#A10000000000
(1655549891.706076) can0 281#001C84030000
(1655549891.706282) can0 381#79020C000700
(1655549891.709106) can0 001#FF7404200010
(1655549891.709347) can0 6D0#80008C0420000008
(1655549891.713278) can0 201#06000000400D0300
(1655549891.713452) can0 080#051900A2
(1655549891.713561) can0 080#00
(1655549891.713774) can0 181#A10000000000
(1655549891.713985) can0 281#001C8E030000
(1655549891.714182) can0 381#79020C000700
(1655549891.714503) can0 1839F380#00191B1A0403069C
(1655549891.714745) can0 1838F380#00061906191B0306
(1655549891.715025) can0 18EEFF80#F30080F300401E90
(1655549891.717173) can0 001#FF7404200010
(1655549891.717423) can0 6D0#00008C042001038C
(1655549891.721087) can0 201#06000000400D0300
(1655549891.721261) can0 080#00
(1655549891.721490) can0 181#A10000000000
(1655549891.721694) can0 281#001C84030000
(1655549891.721906) can0 381#79020C000700
(1655549891.725103) can0 001#FF7504200010
(1655549891.725343) can0 6D0#01008B0420060391
(1655549891.728896) can0 201#06000000400D0300
(1655549891.729076) can0 080#00
(1655549891.729303) can0 181#A10000000000
(1655549891.729508) can0 281#001C84030000
(1655549891.729715) can0 381#79020C000700
(1655549891.733178) can0 001#FF7504200010
(1655549891.733416) can0 6D0#02008B0420057A08
(1655549891.736709) can0 201#06000000400D0300
(1655549891.736889) can0 080#00
(1655549891.737117) can0 181#A10000000000
(1655549891.737328) can0 281#001C8E030000
(1655549891.737528) can0 381#79020C000700
(1655549891.741104) can0 001#FF7504200010
(1655549891.741342) can0 6D0#03008B04202403B1
(1655549891.744524) can0 201#06000000400D0300
(1655549891.744698) can0 080#00
(1655549891.744930) can0 181#A10000000000
(1655549891.745147) can0 281#001C84030000
(1655549891.745341) can0 381#79020D000700
(1655549891.749185) can0 001#FF7504200010
(1655549891.749421) can0 6D0#04008B042000EE79
(1655549891.752332) can0 201#06000000400D0300
(1655549891.752505) can0 080#00
(1655549891.752733) can0 181#A10000000000
(1655549891.752942) can0 281#001C84030000
(1655549891.753146) can0 381#79020C000700
(1655549891.757100) can0 001#FF7504200010
(1655549891.757341) can0 6D0#05008B042000008C
(1655549891.760145) can0 201#06000000400D0300
(1655549891.760318) can0 080#00
(1655549891.760558) can0 181#A10000000000
(1655549891.760754) can0 281#001C8E030000
(1655549891.760959) can0 381#79020C000700
(1655549891.765106) can0 001#FF7504200010
(1655549891.767951) can0 201#06000000400D0300
(1655549891.768128) can0 080#00
(1655549891.768356) can0 181#A10000000000
(1655549891.768564) can0 281#001C84030000
(1655549891.768768) can0 381#79020C000700
(1655549891.773176) can0 001#FF7504200010
(1655549891.775768) can0 201#06000000400D0300
(1655549891.775949) can0 080#00
(1655549891.776180) can0 181#A10000000000
(1655549891.776384) can0 281#001C84030000
(1655549891.776587) can0 381#79020D000700
(1655549891.781102) can0 001#FF7304200010
(1655549891.781340) can0 6D0#06008D04200030BF
(1655549891.783651) can0 201#06000000400D0300
(1655549891.783835) can0 080#00
(1655549891.784094) can0 181#A10000000000
(1655549891.784299) can0 281#001C84030000
(1655549891.784502) can0 381#79020C000700
(1655549891.789175) can0 001#FF7304200010
(1655549891.789424) can0 6D0#07008D0420001CAC
(1655549891.791562) can0 201#06000000400D0300
(1655549891.791706) can0 080#00
(1655549891.791969) can0 181#A10000000000
(1655549891.792176) can0 281#001C84030000
(1655549891.792378) can0 381#79020C000700
(1655549891.794854) can0 200#05009B009B000000
(1655549891.797099) can0 001#FF7304200010
(1655549891.797347) can0 6D0#08008D042000C859
(1655549891.799339) can0 201#06000000400D0300
(1655549891.799515) can0 080#00
(1655549891.799771) can0 181#A10000000000
(1655549891.799985) can0 281#001C84030000
(1655549891.800184) can0 381#79020C000700
(1655549891.805170) can0 001#FF7304200010
(1655549891.807084) can0 201#06000000400D0300
(1655549891.807259) can0 080#00
(1655549891.807517) can0 181#A10000000000
(1655549891.807728) can0 281#001C84030000
(1655549891.807927) can0 381#79020C000700
(1655549891.813101) can0 001#FF7204200010
(1655549891.813337) can0 6D0#09008E04200010A3
(1655549891.813617) can0 1838F380#000B190B191B0306
(1655549891.813898) can0 1839F380#00191B1A0403069C
(1655549891.814070) can0 080#061B00A5
(1655549891.815316) can0 201#06000000400D0300
(1655549891.815487) can0 080#00
(1655549891.815718) can0 181#A10000000000
(1655549891.815925) can0 281#001C84030000
(1655549891.816129) can0 381#79020C000700
(1655549891.821169) can0 001#FF7104200010
(1655549891.822807) can0 201#06000000400D0300
(1655549891.822985) can0 080#00
(1655549891.823215) can0 181#A10000000000
(1655549891.823421) can0 281#001C84030000
(1655549891.823625) can0 381#79020C000700
(1655549891.829104) can0 001#FF7104200010
(1655549891.829340) can0 6D0#0A008F0420000FA4
(1655549891.830584) can0 201#06000000400D0300
(1655549891.830758) can0 080#00
(1655549891.831018) can0 181#A10000000000
(1655549891.831227) can0 281#001C84030000
(1655549891.831431) can0 381#79020C000700
(1655549891.837106) can0 001#FF7104200010
(1655549891.838331) can0 201#06000000400D0300
(1655549891.838505) can0 080#00
(1655549891.838763) can0 181#A10000000000
(1655549891.838970) can0 281#001C84030000
(1655549891.839172) can0 381#79020C000700
(1655549891.845178) can0 001#FF7104200010
(1655549891.846146) can0 201#06000000400D0300
(1655549891.846316) can0 080#00
(1655549891.846574) can0 181#A10000000000
(1655549891.846781) can0 281#001C84030000
(1655549891.846983) can0 381#79020C000700
(1655549891.853096) can0 001#FF7004200010
(1655549891.853337) can0 6D0#0B00900420000097
(1655549891.854069) can0 201#06000000400D0300
(1655549891.854240) can0 080#00
(1655549891.854487) can0 181#A10000000000
(1655549891.854677) can0 281#001C84030000
(1655549891.854882) can0 381#79020C000700
(1655549891.861174) can0 001#FF7104200010
(1655549891.861415) can0 6D0#0C008F0420FF7107
(1655549891.861821) can0 201#06000000400D0300
(1655549891.862001) can0 080#00
(1655549891.862261) can0 181#A10000000000
(1655549891.862469) can0 281#001C84030000
(1655549891.862672) can0 381#79020C000700
(1655549891.869096) can0 001#FF7104200010
(1655549891.869339) can0 6D0#0D008F04200420BC
(1655549891.869584) can0 201#06000000400D0300
(1655549891.869699) can0 080#00
(1655549891.869948) can0 181#A10000000000
(1655549891.870156) can0 281#001C84030000
(1655549891.870361) can0 381#79020C000700
(1655549891.877170) can0 001#FF7204200010
(1655549891.877418) can0 201#06000000400D0300
(1655549891.877657) can0 6D0#0E008E0420041EBA
(1655549891.877771) can0 080#00
(1655549891.877985) can0 181#A10000000000
(1655549891.878191) can0 281#001C84030000
(1655549891.878396) can0 381#79020C000700
(1655549891.885126) can0 201#06000000400D0300
(1655549891.885332) can0 001#FF7304200010
(1655549891.885449) can0 080#00
(1655549891.885662) can0 181#A10000000000
(1655549891.885869) can0 281#001C84030000
(1655549891.886072) can0 381#79020C000700
(1655549891.886309) can0 6D0#0F008D0420006C04
(1655549891.892929) can0 201#06000000400D0300
(1655549891.893171) can0 001#FF7304200010
(1655549891.893288) can0 080#00
(1655549891.893503) can0 181#A10000000000
(1655549891.893706) can0 281#001C84030000
(1655549891.893916) can0 381#79020C000700
(1655549891.894149) can0 6D0#10008D042001952F
(1655549891.900757) can0 201#06000000400D0300
(1655549891.900942) can0 080#00
(1655549891.901144) can0 001#FF7304200010
(1655549891.901356) can0 181#A10000000000
(1655549891.901563) can0 281#001C84030000
(1655549891.901764) can0 381#79020C000700
(1655549891.902013) can0 6D0#11008D0420000FA9
(1655549891.908567) can0 201#06000000400D0300
(1655549891.908742) can0 080#00
(1655549891.909004) can0 181#A10000000000
(1655549891.909211) can0 001#FF7304200010
(1655549891.909415) can0 281#001C84030000
(1655549891.909623) can0 381#79020C000700
(1655549891.909858) can0 6D0#12008C04200047E1
(1655549891.913424) can0 080#051900A2
(1655549891.913713) can0 1838F380#00001B00191B0306
(1655549891.913993) can0 18EEFF80#F30080F300401E90
(1655549891.914273) can0 1839F380#00191B1A0403069C
(1655549891.916503) can0 201#06000000400D0300
(1655549891.916686) can0 080#00
(1655549891.916947) can0 181#A10000000000
(1655549891.917147) can0 001#FF7304200010
(1655549891.917352) can0 281#001C8E030000
(1655549891.917553) can0 381#79020C000700
(1655549891.924175) can0 201#06000000400D0300
(1655549891.924352) can0 080#00
(1655549891.924585) can0 181#A10000000000
(1655549891.924792) can0 281#001C84030000
(1655549891.924990) can0 381#79020C000700
(1655549891.925197) can0 001#FF7404200010
(1655549891.925434) can0 6D0#13008C04200064FF
(1655549891.931985) can0 201#06000000400D0300
(1655549891.932161) can0 080#00
(1655549891.932388) can0 181#A10000000000
(1655549891.932596) can0 281#001C84030000
(1655549891.932801) can0 381#79020C000700
(1655549891.933095) can0 001#FF7504200010
(1655549891.933332) can0 6D0#14008B042029480C
(1655549891.939811) can0 201#06000000400D0300
(1655549891.939991) can0 080#00
(1655549891.940248) can0 181#A10000000000
(1655549891.940463) can0 281#001C84030000
(1655549891.940660) can0 381#79020C000700
(1655549891.941164) can0 001#FF7504200010
(1655549891.941404) can0 6D0#15008B0420808AA6
(1655549891.947626) can0 201#06000000400D0300
(1655549891.947804) can0 080#00
(1655549891.948063) can0 181#A10000000000
(1655549891.948272) can0 281#001C84030000
(1655549891.948475) can0 381#79020C000700
(1655549891.949092) can0 001#FF7504200010
(1655549891.949331) can0 6D0#16008B0420049839
(1655549891.955435) can0 201#06000000400D0300
(1655549891.955616) can0 080#00
(1655549891.955880) can0 181#A10000000000
(1655549891.956080) can0 281#001C84030000
(1655549891.956284) can0 381#79020C000700
(1655549891.957164) can0 001#FF7404200010
(1655549891.957402) can0 6D0#17008C042002BC5D
(1655549891.963246) can0 201#06000000400D0300
(1655549891.963420) can0 080#00
(1655549891.963678) can0 181#A10000000000
(1655549891.963885) can0 281#001C84030000
(1655549891.964089) can0 381#79020C000700
(1655549891.965092) can0 001#FF7404200010
(1655549891.965329) can0 6D0#18008C04200003A3
(1655549891.971055) can0 201#06000000400D0300
(1655549891.971230) can0 080#00
(1655549891.971460) can0 181#A10000000000
(1655549891.971666) can0 281#001C84030000
(1655549891.971868) can0 381#79020C000700
(1655549891.973165) can0 001#FF7404200010
(1655549891.973404) can0 6D0#19008C04200004A5
(1655549891.978874) can0 201#06000000400D0300
(1655549891.979082) can0 080#00
(1655549891.979310) can0 181#A10000000000
(1655549891.979517) can0 281#001C84030000
(1655549891.979719) can0 381#79020C000700
(1655549891.981091) can0 001#FF7304200010
(1655549891.981332) can0 6D0#1A008D0420000FB2
(1655549891.986673) can0 201#06000000400D0300
(1655549891.986854) can0 080#00
(1655549891.987112) can0 181#A10000000000
(1655549891.987318) can0 281#001C84030000
(1655549891.987520) can0 381#79020C000700
(1655549891.989092) can0 001#FF7304200010
(1655549891.994496) can0 201#06000000400D0300
(1655549891.994668) can0 080#00
(1655549891.994933) can0 181#A10000000000
(1655549891.995138) can0 281#001C84030000
(1655549891.995341) can0 381#79020C000700
(1655549891.997166) can0 001#FF7304200010
(1655549892.002284) can0 201#06000000400D0300
(1655549892.002460) can0 080#00
(1655549892.002688) can0 181#A10000000000
(1655549892.002893) can0 281#001C84030000
(1655549892.003099) can0 381#79020C000700
(1655549892.005092) can0 001#FF7204200010
(1655549892.005330) can0 6D0#1B008E04200000A5
(1655549892.010100) can0 201#06000000400D0300
(1655549892.010272) can0 080#00
(1655549892.010503) can0 181#A10000000000
(1655549892.010709) can0 281#001C84030000
(1655549892.010913) can0 381#79020C000700
(1655549892.013170) can0 001#FF7204200010
(1655549892.013417) can0 6D0#1C008E0420032AD3
(1655549892.013694) can0 1839F380#00191B1A0403069C
(1655549892.013970) can0 1838F380#00031B03191B0306
(1655549892.014141) can0 080#061B00A5
(1655549892.017907) can0 201#06000000400D0300
(1655549892.018081) can0 080#00
(1655549892.018313) can0 181#A10000000000
(1655549892.018518) can0 281#001C84030000
(1655549892.018721) can0 381#79020C000700
(1655549892.021092) can0 001#FF7104200010
(1655549892.021334) can0 6D0#1D008F0420000FB7
(1655549892.025724) can0 201#06000000400D0300
(1655549892.025903) can0 080#00
(1655549892.026132) can0 181#A10000000000
(1655549892.026337) can0 281#001C84030000
(1655549892.026544) can0 381#79020C000700
(1655549892.029156) can0 001#FF7104200010
(1655549892.029397) can0 6D0#1E008F04200000A9
(1655549892.033529) can0 201#06000000400D0300
(1655549892.033701) can0 080#00
(1655549892.033954) can0 181#A10000000000
(1655549892.034154) can0 281#001C84030000
(1655549892.034358) can0 381#79020C000700
(1655549892.037094) can0 001#FF7104200010
(1655549892.037330) can0 6D0#1F008F0420001DC7
(1655549892.041344) can0 201#06000000400D0300
(1655549892.041525) can0 080#00
(1655549892.041747) can0 181#A10000000000
(1655549892.041953) can0 281#001C84030000
(1655549892.042157) can0 381#79020C000700
(1655549892.045158) can0 001#FF7104200010
(1655549892.045401) can0 6D0#20008F04200008B3
(1655549892.049151) can0 201#06000000400D0300
(1655549892.049327) can0 080#00
(1655549892.049556) can0 181#A10000000000
(1655549892.049762) can0 281#001C84030000
(1655549892.049964) can0 381#79020C000700
(1655549892.053087) can0 001#FF7104200010
(1655549892.053328) can0 6D0#21008F04200000AC
(1655549892.056966) can0 201#06000000400D0300
(1655549892.057141) can0 080#00
(1655549892.057367) can0 181#A10000000000
(1655549892.057582) can0 281#001C84030000
(1655549892.057779) can0 381#79020C000700
(1655549892.061091) can0 001#FF7104200010
(1655549892.064777) can0 201#06000000400D0300
(1655549892.064958) can0 080#00
(1655549892.065185) can0 181#A10000000000
(1655549892.065400) can0 281#001C84030000
(1655549892.065601) can0 381#79020C000700
(1655549892.069156) can0 001#FF7104200010
(1655549892.072589) can0 201#06000000400D0300
(1655549892.072768) can0 080#00
(1655549892.072996) can0 181#A10000000000
(1655549892.073211) can0 281#001C84030000
(1655549892.073409) can0 381#79020C000700
(1655549892.077088) can0 001#FF7204200010
(1655549892.077327) can0 6D0#22008E0420000CB8
(1655549892.080394) can0 201#06000000400D0300
(1655549892.080571) can0 080#00
(1655549892.080797) can0 181#A10000000000
(1655549892.081006) can0 281#001C84030000
(1655549892.081210) can0 381#79020C000700
(1655549892.085157) can0 001#FF7204200010
(1655549892.088209) can0 201#06000000400D0300
(1655549892.088379) can0 080#00
(1655549892.088611) can0 181#A10000000000
(1655549892.088818) can0 281#001C84030000
(1655549892.089023) can0 381#79020C000700
(1655549892.093086) can0 001#FF7304200010
(1655549892.093339) can0 6D0#23008D04200420D0
(1655549892.096018) can0 201#06000000400D0300
(1655549892.096194) can0 080#00
(1655549892.096421) can0 181#A10000000000
(1655549892.096627) can0 281#001C84030000
(1655549892.096831) can0 381#79020C000700
(1655549892.101152) can0 001#FF7304200010
(1655549892.103835) can0 201#06000000400D0300
(1655549892.104017) can0 080#00
(1655549892.104246) can0 181#A10000000000
(1655549892.104499) can0 281#001C84030000
(1655549892.104657) can0 381#79020C000700
(1655549892.109084) can0 001#FF7304200010
(1655549892.109322) can0 6D0#24008D04200016C3
(1655549892.111645) can0 201#06000000400D0300
(1655549892.111820) can0 080#00
(1655549892.112050) can0 181#A10000000000
(1655549892.112253) can0 281#001C84030000
(1655549892.112461) can0 381#79020C000700
(1655549892.113365) can0 080#051900A2
(1655549892.113648) can0 1838F380#00061906191B0306
(1655549892.113930) can0 1839F380#00191B1A0403069C
(1655549892.115587) can0 18EEFF80#F30080F300401E90
(1655549892.117158) can0 001#FF7404200010
(1655549892.117394) can0 6D0#25008C04200005B2
(1655549892.119566) can0 201#06000000400D0300
(1655549892.119713) can0 080#00
(1655549892.119974) can0 181#A10000000000
(1655549892.120181) can0 281#001C84030000
(1655549892.120384) can0 381#79020C000700
(1655549892.125085) can0 001#FF7404200010
(1655549892.125318) can0 6D0#26008C0420A33081
(1655549892.127404) can0 201#06000000400D0300
(1655549892.127578) can0 080#00
(1655549892.127836) can0 181#A10000000000
(1655549892.128043) can0 281#001C84030000
(1655549892.128248) can0 381#79020A000700
(1655549892.133092) can0 001#FF7404200010
(1655549892.135154) can0 201#06000000400D0300
(1655549892.135330) can0 080#00
(1655549892.135585) can0 181#A10000000000
(1655549892.135791) can0 281#001C84030000
(1655549892.135998) can0 381#79020C000700
(1655549892.141152) can0 001#FF7504200010
(1655549892.142961) can0 201#06000000400D0300
(1655549892.143136) can0 080#00
(1655549892.143394) can0 181#A10000000000
(1655549892.143600) can0 281#001C84030000
(1655549892.143806) can0 381#79020C000700
(1655549892.149083) can0 001#FF7504200010
(1655549892.149324) can0 6D0#27008B0420FF7320
(1655549892.150869) can0 201#06000000400D0300
(1655549892.151051) can0 080#00
(1655549892.151279) can0 181#A10000000000
(1655549892.151484) can0 281#001C84030000
(1655549892.151690) can0 381#79020C000700
(1655549892.157153) can0 001#FF7504200010
(1655549892.157393) can0 6D0#28008B0420001BCA
(1655549892.158648) can0 201#06000000400D0300
(1655549892.158828) can0 080#00
(1655549892.159089) can0 181#A10000000000
(1655549892.159298) can0 281#001C84030000
(1655549892.159497) can0 381#79020C000700
(1655549892.165083) can0 001#FF7404200010
(1655549892.165321) can0 6D0#29008C04200019CA
(1655549892.166494) can0 201#06000000400D0300
(1655549892.166638) can0 080#00
(1655549892.166898) can0 181#A10000000000
(1655549892.167106) can0 281#001C84030000
(1655549892.167310) can0 381#79020C000700
(1655549892.173158) can0 001#FF7404200010
(1655549892.173398) can0 6D0#2A008C04200019CB
(1655549892.174314) can0 201#06000000400D0300
(1655549892.174490) can0 080#00
(1655549892.174717) can0 181#A10000000000
(1655549892.174925) can0 281#001C84030000
(1655549892.175131) can0 381#79020C000700
(1655549892.181081) can0 001#FF7304200010
(1655549892.181323) can0 6D0#2B008D04200000B4
(1655549892.182127) can0 201#06000000400D0300
(1655549892.182299) can0 080#00
(1655549892.182532) can0 181#A10000000000
(1655549892.182734) can0 281#001C84030000
(1655549892.182939) can0 381#79020C000700
(1655549892.189158) can0 001#FF7304200010
(1655549892.189399) can0 6D0#2C008D04200000B5
(1655549892.189893) can0 201#06000000400D0300
(1655549892.190067) can0 080#00
(1655549892.190325) can0 181#A10000000000
(1655549892.190530) can0 281#001C84030000
(1655549892.190735) can0 381#79020C000700
(1655549892.197081) can0 001#FF7304200010
(1655549892.197321) can0 6D0#2D008D04200019CF
(1655549892.197705) can0 201#06000000400D0300
(1655549892.197884) can0 080#00
(1655549892.198140) can0 181#A10000000000
(1655549892.198349) can0 281#001C84030000
(1655549892.198552) can0 381#79020C000700
(1655549892.205081) can0 001#FF7304200010
(1655549892.205453) can0 201#06000000400D0300
(1655549892.205624) can0 080#00
(1655549892.205888) can0 181#A10000000000
(1655549892.206097) can0 281#001C84030000
(1655549892.206301) can0 381#79020C000700
(1655549892.213184) can0 201#06000000400D0300
(1655549892.213394) can0 001#FF7304200010
(1655549892.213507) can0 080#00
(1655549892.213721) can0 181#A10000000000
(1655549892.213928) can0 281#001C84030000
(1655549892.214132) can0 381#79020C000700
(1655549892.214412) can0 1839F380#00191B1A0403069C
(1655549892.214693) can0 1838F380#000B190B191B0306
(1655549892.214861) can0 080#061B00A5
(1655549892.221009) can0 201#06000000400D0300
(1655549892.221307) can0 1806E9F4#0498009600000000
(1655549892.221416) can0 080#00
(1655549892.221626) can0 181#A10000000000
(1655549892.221833) can0 281#001C84030000
(1655549892.222038) can0 381#79020C000700
(1655549892.222328) can0 1806E5F4#0498009600000000
(1655549892.222612) can0 1806E7F4#0498009600000000
(1655549892.222819) can0 001#FF7304200010
(1655549892.228828) can0 201#06000000400D0300
(1655549892.229082) can0 001#FF7304200010
(1655549892.229195) can0 080#00
(1655549892.229410) can0 181#A10000000000
(1655549892.229616) can0 281#001C84030000
(1655549892.229821) can0 381#79020C000700
(1655549892.236619) can0 201#06000000400D0300
(1655549892.236807) can0 080#00
(1655549892.237048) can0 181#A10000000000
(1655549892.237247) can0 001#FF7104200010
(1655549892.237448) can0 281#001C84030000
(1655549892.237652) can0 381#79020C000700
(1655549892.244431) can0 201#06000000400D0300
(1655549892.244605) can0 080#00
(1655549892.244835) can0 181#A10000000000
(1655549892.245040) can0 281#001C84030000
(1655549892.245244) can0 001#FF7104200010
(1655549892.245450) can0 381#79020C000700
(1655549892.245688) can0 6D0#2E008F0420006821
(1655549892.252255) can0 201#06000000400D0300
(1655549892.252431) can0 080#00
(1655549892.252657) can0 181#A10000000000
(1655549892.252863) can0 281#001C84030000
(1655549892.253065) can0 381#79020C000700
(1655549892.253273) can0 001#FF7104200010
(1655549892.260059) can0 201#06000000400D0300
(1655549892.260230) can0 080#00
(1655549892.260458) can0 181#A10000000000
(1655549892.260662) can0 281#001C84030000
(1655549892.260873) can0 381#79020C000700
(1655549892.261081) can0 001#FF7104200010
(1655549892.267888) can0 201#06000000400D0300
(1655549892.268058) can0 080#00
(1655549892.268317) can0 181#A10000000000
(1655549892.268522) can0 281#001C84030000
(1655549892.268724) can0 381#79020C000700
(1655549892.269080) can0 001#FF7204200010
(1655549892.269317) can0 6D0#2F008E0420006B24
(1655549892.275690) can0 201#06000000400D0300
(1655549892.275870) can0 080#00
(1655549892.276126) can0 181#A10000000000
(1655549892.276332) can0 281#001C84030000
(1655549892.276544) can0 381#79020C000700
(1655549892.277079) can0 001#FF7204200010
(1655549892.283498) can0 201#06000000400D0300
(1655549892.283673) can0 080#00
(1655549892.283938) can0 181#A10000000000
(1655549892.284144) can0 281#001C84030000
(1655549892.284350) can0 381#79020C000700
(1655549892.285079) can0 001#FF7304200010
(1655549892.285320) can0 6D0#30008D04200001BA
(1655549892.291314) can0 201#06000000400D0300
(1655549892.291486) can0 080#00
(1655549892.291746) can0 181#A10000000000
(1655549892.291953) can0 281#001C84030000
(1655549892.292158) can0 381#79020C000700
(1655549892.293077) can0 001#FF7304200010
(1655549892.293322) can0 6D0#31008D04200000BA
(1655549892.299122) can0 201#06000000400D0300
(1655549892.299296) can0 080#00
(1655549892.299557) can0 181#A10000000000
(1655549892.299766) can0 281#001C84030000
(1655549892.299966) can0 381#79020C000700
(1655549892.301143) can0 001#FF7304200010
(1655549892.306934) can0 201#06000000400D0300
(1655549892.307108) can0 080#00
(1655549892.307370) can0 181#A10000000000
(1655549892.307574) can0 281#001C84030000
(1655549892.307778) can0 381#79020C000700
(1655549892.309075) can0 001#FF7404200010
(1655549892.309309) can0 6D0#32008C042092FF4B
(1655549892.313358) can0 080#051900A2
(1655549892.313647) can0 1838F380#00001B00191B0306
(1655549892.313927) can0 1839F380#00191B1A0403069C
(1655549892.315094) can0 201#06000000400D0300
(1655549892.315268) can0 080#00
(1655549892.315499) can0 181#A10000000000
(1655549892.315705) can0 281#001C84030000
(1655549892.315908) can0 381#79020C000700
(1655549892.316187) can0 18EEFF80#F30080F300401E90
(1655549892.317075) can0 001#FF7404200010
(1655549892.322558) can0 201#06000000400D0300
(1655549892.322732) can0 080#00
(1655549892.322995) can0 181#A10000000000
(1655549892.323201) can0 281#001C84030000
(1655549892.323408) can0 381#79020C000700
(1655549892.325075) can0 001#FF7404200010
(1655549892.330366) can0 201#06000000400D0300
(1655549892.330542) can0 080#00
(1655549892.330797) can0 181#A10000000000
(1655549892.331004) can0 281#001C84030000
(1655549892.331211) can0 381#79020C000700
(1655549892.333144) can0 001#FF7504200010
(1655549892.333379) can0 6D0#33008B042093B502
(1655549892.338164) can0 201#06000000400D0300
(1655549892.338338) can0 080#00
(1655549892.338567) can0 181#A10000000000
(1655549892.338773) can0 281#001C84030000
(1655549892.338977) can0 381#79020C000700
(1655549892.341072) can0 001#FF7504200010
(1655549892.341312) can0 6D0#34008B0420936FBD
(1655549892.345975) can0 201#06000000400D0300
(1655549892.346154) can0 080#00
(1655549892.346377) can0 181#A10000000000
(1655549892.346584) can0 281#001C84030000
(1655549892.346788) can0 381#79020C000700
(1655549892.349143) can0 001#FF7504200010
(1655549892.353790) can0 201#06000000400D0300
(1655549892.353970) can0 080#00
(1655549892.354199) can0 181#A10000000000
(1655549892.354408) can0 281#001C84030000
(1655549892.354611) can0 381#79020C000700
(1655549892.357072) can0 001#FF7504200010
(1655549892.357309) can0 6D0#35008B042092A7F5
(1655549892.361595) can0 201#06000000400D0300
(1655549892.361774) can0 080#00
(1655549892.362003) can0 181#A10000000000
(1655549892.362210) can0 281#001C84030000
(1655549892.362413) can0 381#79020C000700
(1655549892.365145) can0 001#FF7404200010
(1655549892.365380) can0 6D0#36008C04209350A1
(1655549892.369405) can0 201#06000000400D0300
(1655549892.369580) can0 080#00
(1655549892.369811) can0 181#A10000000000
(1655549892.370017) can0 281#001C84030000
(1655549892.370218) can0 381#79020C000700
(1655549892.373072) can0 001#FF7404200010
(1655549892.373318) can0 6D0#37008C0420931E70
(1655549892.377216) can0 201#06000000400D0300
(1655549892.377392) can0 080#00
(1655549892.377621) can0 181#A10000000000
(1655549892.377825) can0 281#001C84030000
(1655549892.378031) can0 381#79020C000700
(1655549892.381154) can0 001#FF7304200010
(1655549892.381390) can0 6D0#38008D04200032F3
(1655549892.385033) can0 201#06000000400D0300
(1655549892.385209) can0 080#00
(1655549892.385436) can0 181#A10000000000
(1655549892.385641) can0 281#001C84030000
(1655549892.385846) can0 381#79020C000700
(1655549892.389071) can0 001#FF7304200010
(1655549892.389307) can0 6D0#39008D0420004608
(1655549892.392840) can0 201#06000000400D0300
(1655549892.393020) can0 080#00
(1655549892.393252) can0 181#A10000000000
(1655549892.393457) can0 281#001C84030000
(1655549892.393662) can0 381#79020C000700
(1655549892.397078) can0 001#FF7304200010
(1655549892.400652) can0 201#06000000400D0300
(1655549892.400833) can0 080#00
(1655549892.401058) can0 181#A10000000000
(1655549892.401264) can0 281#001C84030000
(1655549892.401471) can0 381#79020C000700
(1655549892.405140) can0 001#FF7304200010
(1655549892.408460) can0 201#06000000400D0300
(1655549892.408635) can0 080#00
(1655549892.408868) can0 181#A10000000000
(1655549892.409083) can0 281#001C84030000
(1655549892.409281) can0 381#79020C000700
(1655549892.413073) can0 001#FF7204200010
(1655549892.413314) can0 6D0#3A008E04200037FB
(1655549892.413593) can0 1838F380#00031B03191B0306
(1655549892.413874) can0 1839F380#00191B1A0403069C
(1655549892.414054) can0 080#061B00A5
(1655549892.416386) can0 201#06000000400D0300
(1655549892.416531) can0 080#00
(1655549892.416787) can0 181#A10000000000
(1655549892.416991) can0 281#001C84030000
(1655549892.417198) can0 381#79020C000700
(1655549892.421140) can0 001#FF7104200010
(1655549892.421382) can0 6D0#3B008F0420A4107A
(1655549892.424084) can0 201#06000000400D0300
(1655549892.424261) can0 080#00
(1655549892.424487) can0 181#A10000000000
(1655549892.424695) can0 281#001C84030000
(1655549892.424898) can0 381#79020C000700
(1655549892.429077) can0 001#FF7104200010
(1655549892.429308) can0 6D0#3C008F042061A8D0
(1655549892.431896) can0 201#06000000400D0300
(1655549892.432068) can0 080#00
(1655549892.432305) can0 181#A10000000000
(1655549892.432503) can0 281#001C84030000
(1655549892.432710) can0 381#79020C000700
(1655549892.437148) can0 001#FF7104200010
(1655549892.437395) can0 6D0#3D008F0420002AF2
(1655549892.439709) can0 201#06000000400D0300
(1655549892.439887) can0 080#00
(1655549892.440123) can0 181#A10000000000
(1655549892.440322) can0 281#001C84030000
(1655549892.440527) can0 381#79020C000700
(1655549892.445070) can0 001#FF7104200010
(1655549892.445310) can0 6D0#3E008F04200004CD
(1655549892.447598) can0 201#06000000400D0300
(1655549892.447776) can0 080#00
(1655549892.448035) can0 181#A10000000000
(1655549892.448241) can0 281#001C84030000
(1655549892.448446) can0 381#79020C000700
(1655549892.453140) can0 001#FF7004200010
(1655549892.453377) can0 6D0#3F00900420002AF5
(1655549892.455474) can0 201#06000000400D0300
(1655549892.455648) can0 080#00
(1655549892.455909) can0 181#A10000000000
(1655549892.456115) can0 281#001C84030000
(1655549892.456321) can0 381#79020C000700
(1655549892.461068) can0 001#FF7104200010
(1655549892.461309) can0 6D0#40008F04200004CF
(1655549892.463282) can0 201#06000000400D0300
(1655549892.463455) can0 080#00
(1655549892.463715) can0 181#A10000000000
(1655549892.463921) can0 281#001C84030000
(1655549892.464123) can0 381#79020C000700
(1655549892.469073) can0 001#FF7104200010
(1655549892.471026) can0 201#06000000400D0300
(1655549892.471200) can0 080#00
(1655549892.471456) can0 181#A10000000000
(1655549892.471664) can0 281#001C84030000
(1655549892.471872) can0 381#79020C000700
(1655549892.477139) can0 001#FF7204200010
(1655549892.478843) can0 201#06000000400D0300
(1655549892.479056) can0 080#00
(1655549892.479281) can0 181#A10000000000
(1655549892.479488) can0 281#001C84030000
(1655549892.479692) can0 381#79020C000700
(1655549892.485070) can0 001#FF7204200010
(1655549892.485310) can0 6D0#41008E0420002AF5
(1655549892.486714) can0 201#06000000400D0300
(1655549892.486923) can0 080#00
(1655549892.487152) can0 181#A10000000000
(1655549892.487358) can0 281#001C84030000
(1655549892.487563) can0 381#79020C000700
(1655549892.493139) can0 001#FF7204200010
(1655549892.493378) can0 6D0#42008E04200002CE
(1655549892.494556) can0 201#06000000400D0300
(1655549892.494702) can0 080#00
(1655549892.494969) can0 181#A10000000000
(1655549892.495173) can0 281#001C84030000
(1655549892.495380) can0 381#79020C000700
(1655549892.501067) can0 001#FF7404200010
(1655549892.502270) can0 201#06000000400D0300
(1655549892.502444) can0 080#00
(1655549892.502705) can0 181#A10000000000
(1655549892.502910) can0 281#001C84030000
(1655549892.503115) can0 381#79020C000700
(1655549892.509136) can0 001#FF7404200010
(1655549892.509373) can0 6D0#43008C0420011BE7
(1655549892.510194) can0 201#06000000400D0300
(1655549892.510367) can0 080#00
(1655549892.510593) can0 181#A10000000000
(1655549892.510801) can0 281#001C84030000
(1655549892.511006) can0 381#79020C000700
(1655549892.513358) can0 080#051900A2
(1655549892.513639) can0 1838F380#00061906191B0306
(1655549892.513921) can0 1839F380#00191B1A0403069C
(1655549892.515577) can0 18EEFF80#F30080F300401E90
(1655549892.517065) can0 001#FF7404200010
(1655549892.517304) can0 6D0#44008C0420023301
(1655549892.518076) can0 201#06000000400D0300
(1655549892.518254) can0 080#00
(1655549892.518475) can0 181#A10000000000
(1655549892.518686) can0 281#001C84030000
(1655549892.518888) can0 381#79020C000700
(1655549892.525135) can0 001#FF7404200010
(1655549892.525367) can0 6D0#45008C0420006431
(1655549892.525764) can0 201#06000000400D0300
(1655549892.525941) can0 080#00
(1655549892.526199) can0 181#A10000000000
(1655549892.526407) can0 281#001C84030000
(1655549892.526612) can0 381#79020C000700
(1655549892.533065) can0 001#FF7504200010
(1655549892.533299) can0 6D0#46008B0420006E3B
(1655549892.533543) can0 201#06000000400D0300
(1655549892.533659) can0 080#00
(1655549892.533894) can0 181#A10000000000
(1655549892.534099) can0 281#001C84030000
(1655549892.534304) can0 381#79020C000700
(1655549892.541065) can0 001#FF7504200010
(1655549892.541319) can0 201#06000000400D0300
(1655549892.541505) can0 080#00
(1655549892.541763) can0 181#A10000000000
(1655549892.541970) can0 281#001C84030000
(1655549892.542173) can0 381#79020C000700
(1655549892.549062) can0 201#06000000400D0300
(1655549892.549267) can0 001#FF7504200010
(1655549892.549383) can0 080#00
(1655549892.549597) can0 181#A10000000000
(1655549892.549802) can0 281#001C84030000
(1655549892.550013) can0 381#79020C000700
(1655549892.556874) can0 201#06000000400D0300
(1655549892.557087) can0 001#FF7504200010
(1655549892.557196) can0 080#00
(1655549892.557407) can0 181#A10000000000
(1655549892.557622) can0 281#001C84030000
(1655549892.557819) can0 381#79020C000700
(1655549892.558050) can0 6D0#47008B042009CBA2
(1655549892.564708) can0 201#06000000400D0300
(1655549892.564880) can0 080#00
(1655549892.565137) can0 181#A10000000000
(1655549892.565343) can0 001#FF7404200010
(1655549892.565548) can0 281#001C84030000
(1655549892.565753) can0 381#79020C000700
(1655549892.565989) can0 6D0#48008C0420081DF5
(1655549892.572513) can0 201#06000000400D0300
(1655549892.572687) can0 080#00
(1655549892.572949) can0 181#A10000000000
(1655549892.573154) can0 001#FF7404200010
(1655549892.573361) can0 281#001C84030000
(1655549892.573568) can0 381#79020C000700
(1655549892.573804) can0 6D0#49008C04200000D1
(1655549892.580320) can0 201#06000000400D0300
(1655549892.580493) can0 080#00
(1655549892.580724) can0 181#A10000000000
(1655549892.580929) can0 281#001C84030000
(1655549892.581140) can0 001#FF7304200010
(1655549892.581338) can0 381#79020C000700
(1655549892.581570) can0 6D0#4A008D0420122B10
(1655549892.588133) can0 201#06000000400D0300
(1655549892.588305) can0 080#00
(1655549892.588565) can0 181#A10000000000
(1655549892.588771) can0 281#001C84030000
(1655549892.588973) can0 381#79020C000700
(1655549892.589188) can0 001#FF7304200010
(1655549892.589415) can0 6D0#4B008D04200D7758
(1655549892.595926) can0 201#06000000400D0300
(1655549892.596104) can0 080#00
(1655549892.596327) can0 181#A10000000000
(1655549892.596532) can0 281#001C84030000
(1655549892.596739) can0 381#79020C000700
(1655549892.597130) can0 001#FF7304200010
(1655549892.597366) can0 6D0#4C008D0420089875
(1655549892.603758) can0 201#06000000400D0300
(1655549892.603937) can0 080#00
(1655549892.604196) can0 181#A10000000000
(1655549892.604403) can0 281#001C84030000
(1655549892.604607) can0 381#79020C000700
(1655549892.605064) can0 001#FF7204200010
(1655549892.605295) can0 6D0#4D008E0420076C4A
(1655549892.611564) can0 201#06000000400D0300
(1655549892.611745) can0 080#00
(1655549892.612002) can0 181#A10000000000
(1655549892.612207) can0 281#001C84030000
(1655549892.612413) can0 381#79020C000700
(1655549892.613071) can0 001#FF7204200010
(1655549892.613366) can0 080#061B00A5
(1655549892.613646) can0 1838F380#000B190B191B0306
(1655549892.613916) can0 1839F380#00191B1A0403069C
(1655549892.619380) can0 201#06000000400D0300
(1655549892.619548) can0 080#00
(1655549892.619809) can0 181#A10000000000
(1655549892.620013) can0 281#001C84030000
(1655549892.620220) can0 381#79020C000700
(1655549892.621062) can0 001#FF7204200010
(1655549892.627188) can0 201#06000000400D0300
(1655549892.627360) can0 080#00
(1655549892.627629) can0 181#A10000000000
(1655549892.627824) can0 281#001C84030000
(1655549892.628029) can0 381#79020C000700
(1655549892.629130) can0 001#FF7104200010
(1655549892.629369) can0 6D0#4E008F04200001DA
(1655549892.635044) can0 201#06000000400D0300
(1655549892.635181) can0 080#00
(1655549892.635441) can0 181#A10000000000
(1655549892.635647) can0 281#001C84030000
(1655549892.635849) can0 381#79020C000700
(1655549892.637059) can0 001#FF7104200010
(1655549892.637297) can0 6D0#4F008F04200001DB
(1655549892.642811) can0 201#06000000400D0300
(1655549892.642992) can0 080#00
(1655549892.643248) can0 181#A10000000000
(1655549892.643454) can0 281#001C84030000
(1655549892.643668) can0 381#79020C000700
(1655549892.645131) can0 001#FF7104200010
(1655549892.650623) can0 201#06000000400D0300
(1655549892.650799) can0 080#00
(1655549892.651065) can0 181#A10000000000
(1655549892.651264) can0 281#001C84030000
(1655549892.651469) can0 381#79020C000700
(1655549892.653059) can0 001#FF7104200010
(1655549892.653295) can0 6D0#50008F04204F315B
(1655549892.658432) can0 201#06000000400D0300
(1655549892.658607) can0 080#00
(1655549892.658870) can0 181#A10000000000
(1655549892.659076) can0 281#001C84030000
(1655549892.659280) can0 381#79020C000700
(1655549892.661125) can0 001#FF7104200010
(1655549892.661357) can0 6D0#51008F042021312E
(1655549892.666237) can0 201#06000000400D0300
(1655549892.666406) can0 080#00
(1655549892.666636) can0 181#A10000000000
(1655549892.666839) can0 281#001C84030000
(1655549892.667053) can0 381#79020C000700
(1655549892.669058) can0 001#FF7204200010
(1655549892.669297) can0 6D0#52008E04200000DC
(1655549892.674039) can0 201#06000000400D0300
(1655549892.674214) can0 080#00
(1655549892.674457) can0 181#A10000000000
(1655549892.674652) can0 281#001C84030000
(1655549892.674854) can0 381#79020C000700
(1655549892.677133) can0 001#FF7204200010
(1655549892.677374) can0 6D0#53008E04200000DD
(1655549892.681849) can0 201#06000000400D0300
(1655549892.682024) can0 080#00
(1655549892.682252) can0 181#A10000000000
(1655549892.682458) can0 281#001C84030000
(1655549892.682666) can0 381#79020C000700
(1655549892.685064) can0 001#FF7204200010
(1655549892.685295) can0 6D0#54008E0420023616
(1655549892.689656) can0 201#06000000400D0300
(1655549892.689834) can0 080#00
(1655549892.690062) can0 181#A10000000000
(1655549892.690276) can0 281#001C84030000
(1655549892.690474) can0 381#79020C000700
(1655549892.693063) can0 001#FF7204200010
(1655549892.697475) can0 201#06000000400D0300
(1655549892.697650) can0 080#00
(1655549892.697882) can0 181#A10000000000
(1655549892.698090) can0 281#001C84030000
(1655549892.698295) can0 381#79020C000700
(1655549892.701127) can0 001#FF7204200010
(1655549892.705283) can0 201#06000000400D0300
(1655549892.705457) can0 080#00
(1655549892.705688) can0 181#A10000000000
(1655549892.705895) can0 281#001C84030000
(1655549892.706098) can0 381#79020D000700
(1655549892.709055) can0 001#FF7404200010
(1655549892.709293) can0 6D0#55008C04200000DD
(1655549892.713096) can0 201#06000000400D0300
(1655549892.713267) can0 080#00
(1655549892.713552) can0 1838F380#00001B00191B0306
(1655549892.713765) can0 181#A10000000000
(1655549892.713979) can0 281#001C84030000
(1655549892.714177) can0 381#79020C000700
(1655549892.714503) can0 1839F380#00191B1A0403069C
(1655549892.714620) can0 080#051900A2
(1655549892.715973) can0 18EEFF80#F30080F300401E90
(1655549892.717124) can0 001#FF7404200010
(1655549892.720903) can0 201#06000000400D0300
(1655549892.721077) can0 080#00
(1655549892.721307) can0 181#A10000000000
(1655549892.721513) can0 281#001C84030000
(1655549892.721715) can0 381#79020C000700
(1655549892.725060) can0 001#FF7404200010
(1655549892.725295) can0 6D0#56008C04200000DE
(1655549892.728720) can0 201#06000000400D0300
(1655549892.728902) can0 080#00
(1655549892.729133) can0 181#A10000000000
(1655549892.729336) can0 281#001C84030000
(1655549892.729538) can0 381#79020C000700
(1655549892.733129) can0 001#FF7504200010
(1655549892.733368) can0 6D0#57008B04200000DE
(1655549892.736525) can0 201#06000000400D0300
(1655549892.736703) can0 080#00
(1655549892.736937) can0 181#A10000000000
(1655549892.737141) can0 281#001C84030000
(1655549892.737351) can0 381#79020C000700
(1655549892.741053) can0 001#FF7504200010
(1655549892.741293) can0 6D0#58008B0420FFD8B6
(1655549892.744339) can0 201#06000000400D0300
(1655549892.744512) can0 080#00
(1655549892.744742) can0 181#A10000000000
(1655549892.744948) can0 281#001C84030000
(1655549892.745154) can0 381#79020A000700
(1655549892.749128) can0 001#FF7504200010
(1655549892.749373) can0 6D0#59008B04200000E0
(1655549892.752148) can0 201#06000000400D0300
(1655549892.752325) can0 080#00
(1655549892.752551) can0 181#A10000000000
(1655549892.752766) can0 281#001C84030000
(1655549892.752963) can0 381#79020C000700
(1655549892.757053) can0 001#FF7504200010
(1655549892.757292) can0 6D0#5A008B04200000E1
(1655549892.759964) can0 201#06000000400D0300
(1655549892.760139) can0 080#00
(1655549892.760364) can0 181#A10000000000
(1655549892.760579) can0 281#001C84030000
(1655549892.760776) can0 381#79020C000700
(1655549892.765052) can0 001#FF7504200010
(1655549892.767772) can0 201#06000000400D0300
(1655549892.767953) can0 080#00
(1655549892.768184) can0 181#A10000000000
(1655549892.768387) can0 281#001C84030000
(1655549892.768600) can0 381#79020C000700
(1655549892.773130) can0 001#FF7504200010
(1655549892.775584) can0 201#06000000400D0300
(1655549892.775763) can0 080#00
(1655549892.775994) can0 181#A10000000000
(1655549892.776200) can0 281#001C84030000
(1655549892.776403) can0 381#79020C000700
(1655549892.781053) can0 001#FF7304200010
(1655549892.781292) can0 6D0#5B008D04200000E4
(1655549892.783470) can0 201#06000000400D0300
(1655549892.783644) can0 080#00
(1655549892.783912) can0 181#A10000000000
(1655549892.784119) can0 281#001C84030000
(1655549892.784323) can0 381#79020C000700
(1655549892.789122) can0 001#FF7304200010
(1655549892.789363) can0 6D0#5C008D04200000E5
(1655549892.791380) can0 201#06000000400D0300
(1655549892.791530) can0 080#00
(1655549892.791782) can0 181#A10000000000
(1655549892.791990) can0 281#001C84030000
(1655549892.792194) can0 381#79020C000700
(1655549892.795669) can0 200#05009B009B000000
(1655549892.797055) can0 001#FF7204200010
(1655549892.797304) can0 6D0#5D008E04200000E7
(1655549892.799155) can0 201#06000000400D0300
(1655549892.799332) can0 080#00
(1655549892.799591) can0 181#A10000000000
(1655549892.799798) can0 281#001C84030000
(1655549892.800000) can0 381#79020C000700
(1655549892.805055) can0 001#FF7204200010
(1655549892.805291) can0 6D0#5E008E04200000E8
(1655549892.807007) can0 201#06000000400D0300
(1655549892.807181) can0 080#00
(1655549892.807408) can0 181#A10000000000
(1655549892.807617) can0 281#001C84030000
(1655549892.807820) can0 381#79020C000700
(1655549892.813121) can0 001#FF7204200010
(1655549892.813371) can0 6D0#5F008E04200000E9
(1655549892.813648) can0 1838F380#00031B03191B0306
(1655549892.813922) can0 1839F380#00191B1A0403069C
(1655549892.814094) can0 080#061B00A5
(1655549892.815130) can0 201#06000000400D0300
(1655549892.815305) can0 080#00
(1655549892.815533) can0 181#A10000000000
(1655549892.815741) can0 281#001C84030000
(1655549892.815945) can0 381#79020C000700
(1655549892.821052) can0 001#FF7104200010
(1655549892.821290) can0 6D0#60008F04200000EB
(1655549892.822693) can0 201#06000000400D0300
(1655549892.822869) can0 080#00
(1655549892.823097) can0 181#A10000000000
(1655549892.823306) can0 281#001C84030000
(1655549892.823510) can0 381#79020C000700
(1655549892.829119) can0 001#FF7104200010
(1655549892.830335) can0 201#06000000400D0300
(1655549892.830511) can0 080#00
(1655549892.830767) can0 181#A10000000000
(1655549892.830978) can0 281#001C84030000
(1655549892.831188) can0 381#79020C000700
(1655549892.837049) can0 001#FF7104200010
(1655549892.837287) can0 6D0#61008F04200000EC
(1655549892.838244) can0 201#06000000400D0300
(1655549892.838390) can0 080#00
(1655549892.838647) can0 181#A10000000000
(1655549892.838854) can0 281#001C84030000
(1655549892.839056) can0 381#79020C000700
(1655549892.845051) can0 001#FF7104200010
(1655549892.845960) can0 201#06000000400D0300
(1655549892.846135) can0 080#00
(1655549892.846391) can0 181#A10000000000
(1655549892.846596) can0 281#001C84030000
(1655549892.846812) can0 381#79020C000700
(1655549892.853120) can0 001#FF7104200010
(1655549892.853769) can0 201#06000000400D0300
(1655549892.853947) can0 080#00
(1655549892.854205) can0 181#A10000000000
(1655549892.854413) can0 281#001C84030000
(1655549892.854618) can0 381#79020C000700
(1655549892.861049) can0 001#FF7104200010
(1655549892.861288) can0 6D0#62008F04200000ED
(1655549892.861679) can0 201#06000000400D0300
(1655549892.861860) can0 080#00
(1655549892.862087) can0 181#A10000000000
(1655549892.862291) can0 281#001C84030000
(1655549892.862499) can0 381#79020C000700
(1655549892.869121) can0 001#FF7204200010
(1655549892.869367) can0 201#06000000400D0300
(1655549892.869601) can0 6D0#63008E04200000ED
(1655549892.869719) can0 080#00
(1655549892.869933) can0 181#A10000000000
(1655549892.870136) can0 281#001C84030000
(1655549892.870344) can0 381#79020C000700
(1655549892.877049) can0 001#FF7204200010
(1655549892.877299) can0 201#06000000400D0300
(1655549892.877414) can0 080#00
(1655549892.877624) can0 181#A10000000000
(1655549892.877834) can0 281#001C84030000
(1655549892.878037) can0 381#79020C000700
(1655549892.878274) can0 6D0#64008E04200000EE
(1655549892.884941) can0 201#06000000400D0300
(1655549892.885150) can0 001#FF7304200010
(1655549892.885265) can0 080#00
(1655549892.885477) can0 181#A10000000000
(1655549892.885684) can0 281#001C84030000
(1655549892.885889) can0 381#79020C000700
(1655549892.886129) can0 6D0#65008D04200000EE
(1655549892.892763) can0 201#06000000400D0300
(1655549892.892942) can0 080#00
(1655549892.893149) can0 001#FF7304200010
(1655549892.893360) can0 181#A10000000000
(1655549892.893564) can0 281#001C84030000
(1655549892.893777) can0 381#79020C000700
(1655549892.894006) can0 6D0#66008D04200000EF
(1655549892.900576) can0 201#06000000400D0300
(1655549892.900755) can0 080#00
(1655549892.901013) can0 181#A10000000000
(1655549892.901219) can0 001#FF7304200010
(1655549892.901425) can0 281#001C84030000
(1655549892.901627) can0 381#79020C000700
(1655549892.908368) can0 201#06000000400D0300
(1655549892.908543) can0 080#00
(1655549892.908774) can0 181#A10000000000
(1655549892.908982) can0 281#001C84030000
(1655549892.909184) can0 001#FF7404200010
(1655549892.909395) can0 381#79020D000700
(1655549892.909626) can0 6D0#67008C0420FFFFED
(1655549892.913343) can0 080#051900A2
(1655549892.913628) can0 1838F380#00061906191B0306
(1655549892.913907) can0 1839F380#00191B1A0403069C
(1655549892.915565) can0 18EEFF80#F30080F300401E90
(1655549892.916366) can0 201#06000000400D0300
(1655549892.916540) can0 080#00
(1655549892.916768) can0 181#A10000000000
(1655549892.916973) can0 281#001C84030000
(1655549892.917182) can0 001#FF7404200010
(1655549892.917386) can0 381#79020C000700
(1655549892.923994) can0 201#06000000400D0300
(1655549892.924168) can0 080#00
(1655549892.924399) can0 181#A10000000000
(1655549892.924605) can0 281#001C84030000
(1655549892.924807) can0 381#79020C000700
(1655549892.925118) can0 001#FF7404200010
(1655549892.931818) can0 201#06000000400D0300
(1655549892.932001) can0 080#00
(1655549892.932257) can0 181#A10000000000
(1655549892.932465) can0 281#001C84030000
(1655549892.932665) can0 381#79020C000700
(1655549892.933045) can0 001#FF7504200010
(1655549892.933284) can0 6D0#6E008B0420004035
(1655549892.939635) can0 201#06000000400D0300
(1655549892.939810) can0 080#00
(1655549892.940067) can0 181#A10000000000
(1655549892.940274) can0 281#001C84030000
(1655549892.940476) can0 381#79020C000700
(1655549892.941114) can0 001#FF7504200010
(1655549892.941354) can0 6D0#73008B0420080103
(1655549892.947448) can0 201#06000000400D0300
(1655549892.947619) can0 080#00
(1655549892.947880) can0 181#A10000000000
(1655549892.948088) can0 281#001C84030000
(1655549892.948289) can0 381#79020C000700
(1655549892.949043) can0 001#FF7504200010
(1655549892.949290) can0 6D0#74008B0420080003
(1655549892.955259) can0 201#06000000400D0300
(1655549892.955427) can0 080#00
(1655549892.955686) can0 181#A10000000000
(1655549892.955892) can0 281#001C84030000
(1655549892.956094) can0 381#79020C000700
(1655549892.957112) can0 001#FF7504200010
(1655549892.957364) can0 6D0#75008B04200000FC
(1655549892.963066) can0 201#06000000400D0300
(1655549892.963239) can0 080#00
(1655549892.963496) can0 181#A10000000000
(1655549892.963703) can0 281#001C84030000
(1655549892.963905) can0 381#79020C000700
(1655549892.965044) can0 001#FF7404200010
(1655549892.965284) can0 6D0#76008C04200000FE
(1655549892.970873) can0 201#06000000400D0300
(1655549892.971048) can0 080#00
(1655549892.971273) can0 181#A10000000000
(1655549892.971482) can0 281#001C84030000
(1655549892.971686) can0 381#79020C000700
(1655549892.973112) can0 001#FF7404200010
(1655549892.973350) can0 6D0#77008C04200000FF
(1655549892.978693) can0 201#06000000400D0300
(1655549892.978901) can0 080#00
(1655549892.979128) can0 181#A10000000000
(1655549892.979333) can0 281#001C84030000
(1655549892.979539) can0 381#79020C000700
(1655549892.981042) can0 001#FF7304200010
(1655549892.981284) can0 6D0#78008D0420000001
(1655549892.986497) can0 201#06000000400D0300
(1655549892.986673) can0 080#00
(1655549892.986935) can0 181#A10000000000
(1655549892.987143) can0 281#001C84030000
(1655549892.987346) can0 381#79020C000700
(1655549892.989042) can0 001#FF7304200010
(1655549892.994309) can0 201#06000000400D0300
(1655549892.994509) can0 080#00
(1655549892.994740) can0 181#A10000000000
(1655549892.994946) can0 281#001C84030000
(1655549892.995152) can0 381#79020D000700
(1655549892.997111) can0 001#FF7304200010
(1655549893.002101) can0 201#06000000400D0300
(1655549893.002277) can0 080#00
(1655549893.002504) can0 181#A10000000000
(1655549893.002711) can0 281#001C84030000
(1655549893.002916) can0 381#79020C000700
(1655549893.005044) can0 001#FF7204200010
(1655549893.005288) can0 6D0#79008E0420000003
(1655549893.009917) can0 201#06000000400D0300
(1655549893.010092) can0 080#00
(1655549893.010318) can0 181#A10000000000
(1655549893.010527) can0 281#001C84030000
(1655549893.010732) can0 381#79020C000700
(1655549893.013114) can0 001#FF7204200010
(1655549893.013351) can0 080#061B00A5
(1655549893.013630) can0 1838F380#000B190B191B0306
(1655549893.013911) can0 1839F380#00191B1A0403069C
(1655549893.017728) can0 201#06000000400D0300
(1655549893.017906) can0 080#00
(1655549893.018135) can0 181#A10000000000
(1655549893.018344) can0 281#001C84030000
(1655549893.018549) can0 381#79020C000700
(1655549893.021039) can0 001#FF7104200010
(1655549893.021278) can0 6D0#7A008F0420000005
(1655549893.025541) can0 201#06000000400D0300
(1655549893.025716) can0 080#00
(1655549893.025948) can0 181#A10000000000
(1655549893.026154) can0 281#001C84030000
(1655549893.026359) can0 381#79020C000700
(1655549893.029110) can0 001#FF7104200010
(1655549893.029399) can0 1806E9F4#0498009600000000
(1655549893.029689) can0 1806E5F4#0498009600000000
(1655549893.029976) can0 1806E7F4#0498009600000000
(1655549893.030211) can0 6D0#7B008F0420000309
(1655549893.033347) can0 201#06000000400D0300
(1655549893.033522) can0 080#00
(1655549893.033751) can0 181#A10000000000
(1655549893.033959) can0 281#001C84030000
(1655549893.034163) can0 381#79020C000700
(1655549893.037040) can0 001#FF7104200010
(1655549893.037283) can0 6D0#7C008F042000060D
(1655549893.041162) can0 201#06000000400D0300
(1655549893.041343) can0 080#00
(1655549893.041565) can0 181#A10000000000
(1655549893.041772) can0 281#001C84030000
(1655549893.041975) can0 381#79020C000700
(1655549893.045109) can0 001#FF7104200010
(1655549893.048969) can0 201#06000000400D0300
(1655549893.049150) can0 080#00
(1655549893.049374) can0 181#A10000000000
(1655549893.049580) can0 281#001C84030000
(1655549893.049784) can0 381#79020C000700
(1655549893.053044) can0 001#FF7104200010
(1655549893.053282) can0 6D0#7D008F0420003038
(1655549893.056786) can0 201#06000000400D0300
(1655549893.056964) can0 080#00
