(1655546981.927963) can0 601#4026200600000000
(1655546981.928600) can0 581#4F26200600000000
(1655546981.929294) can0 201#06000000400D0300
(1655546981.929470) can0 080#00
(1655546981.929729) can0 181#880000000000
(1655546981.929935) can0 281#001C62020400
(1655546981.930141) can0 381#78020C000400
(1655546981.931935) can0 001#000004220000
(1655546981.932382) can0 080#061E00A8
(1655546981.932667) can0 1838F380#000B1C0B1C1E0306
(1655546981.932965) can0 1839F380#001C1E1D040306A5
(1655546981.936874) can0 201#06000000400D0300
(1655546981.937019) can0 080#00
(1655546981.937297) can0 181#880000000000
(1655546981.937496) can0 281#001C62020400
(1655546981.937696) can0 381#78020A000600
(1655546981.939870) can0 001#000004220000
(1655546981.940108) can0 6D0#3A00000422003F77
(1655546981.944656) can0 201#06000000400D0300
(1655546981.944831) can0 080#00
(1655546981.945058) can0 181#880000000000
(1655546981.945270) can0 281#001C62020400
(1655546981.945477) can0 381#78020A000400
(1655546981.947935) can0 001#000004220000
(1655546981.948178) can0 6D0#3B00000422A410ED
(1655546981.952468) can0 201#06000000400D0300
(1655546981.952643) can0 080#00
(1655546981.952870) can0 181#880000000000
(1655546981.953076) can0 281#001C62020400
(1655546981.953279) can0 381#79020A000400
(1655546981.955867) can0 001#000004220000
(1655546981.956100) can0 6D0#3C0000042261A843
(1655546981.958962) can0 601#4070200100000000
(1655546981.959840) can0 581#4B70200179020000
(1655546981.960572) can0 201#06000000400D0300
(1655546981.960745) can0 080#00
(1655546981.960975) can0 181#880000000000
(1655546981.961179) can0 281#001C62020400
(1655546981.961388) can0 381#79020A000400
(1655546981.963875) can0 001#000004220000
(1655546981.966461) can0 601#4020230000000000
(1655546981.967665) can0 581#8020230000000206
(1655546981.968393) can0 201#06000000400D0300
(1655546981.968528) can0 080#00
(1655546981.968786) can0 181#880000000000
(1655546981.969014) can0 281#001C62020400
(1655546981.969199) can0 381#78020A000400
(1655546981.971940) can0 001#000004220000
(1655546981.975909) can0 201#06000000400D0300
(1655546981.976077) can0 080#00
(1655546981.976339) can0 181#880000000000
(1655546981.976556) can0 281#001C62020400
(1655546981.976749) can0 381#78020A000600
(1655546981.979867) can0 001#000004220000
(1655546981.980109) can0 6D0#3D00000422000540
(1655546981.983719) can0 201#06000000400D0300
(1655546981.983905) can0 080#00
(1655546981.984117) can0 181#880000000000
(1655546981.984333) can0 281#001C62020400
(1655546981.984529) can0 381#78020A000400
(1655546981.987936) can0 001#000004220000
(1655546981.988180) can0 6D0#3E00000422000440
(1655546981.990669) can0 601#4027200000000000
(1655546981.991073) can0 581#4B27200004000000
(1655546981.991776) can0 201#06000000400D0300
(1655546981.991951) can0 080#00
(1655546981.992219) can0 181#880000000000
(1655546981.992431) can0 281#001C62020400
(1655546981.992629) can0 381#78020A000400
(1655546981.995866) can0 001#000004220000
(1655546981.996119) can0 6D0#3F00000422000542
(1655546981.999344) can0 201#06000000400D0300
(1655546981.999518) can0 080#00
(1655546981.999779) can0 181#880000000000
(1655546981.999982) can0 281#001C62020400
(1655546982.000194) can0 381#78020A000600
(1655546982.003935) can0 001#000004220000
(1655546982.007145) can0 201#06000000400D0300
(1655546982.007326) can0 080#00
(1655546982.007554) can0 181#880000000000
(1655546982.007762) can0 281#001C62020400
(1655546982.007965) can0 381#78020A000600
(1655546982.011863) can0 001#000004220000
(1655546982.012105) can0 6D0#4000000422000442
(1655546982.014959) can0 201#06000000400D0300
(1655546982.015139) can0 080#00
(1655546982.015397) can0 181#880000000000
(1655546982.015599) can0 281#001C62020400
(1655546982.015808) can0 381#78020C000600
(1655546982.019933) can0 001#000004220000
(1655546982.020172) can0 6D0#4100000422002A69
(1655546982.022600) can0 601#4025200000000000
(1655546982.022843) can0 201#06000000400D0300
(1655546982.022967) can0 080#00
(1655546982.023307) can0 181#880000000000
(1655546982.023532) can0 581#4F25200000000000
(1655546982.023741) can0 281#001C62020400
(1655546982.023944) can0 381#78020A000400
(1655546982.027865) can0 001#000004220000
(1655546982.028110) can0 6D0#4200000422000D4D
(1655546982.030582) can0 201#06000000400D0300
(1655546982.030756) can0 080#00
(1655546982.030986) can0 181#880000000000
(1655546982.031191) can0 281#001C62020400
(1655546982.031397) can0 381#78020A000400
(1655546982.032396) can0 080#051C00A5
(1655546982.032684) can0 1838F380#00001E001C1E0306
(1655546982.032971) can0 1839F380#001C1E1D040306A5
(1655546982.033265) can0 18EEFF80#F30080F300401E90
(1655546982.035862) can0 001#000004220000
(1655546982.038392) can0 201#06000000400D0300
(1655546982.038582) can0 080#00
(1655546982.038804) can0 181#880000000000
(1655546982.038997) can0 281#001C62020400
(1655546982.039201) can0 381#78020A000600
(1655546982.043932) can0 001#000004220000
(1655546982.046318) can0 201#06000000400D0300
(1655546982.046493) can0 080#00
(1655546982.046722) can0 181#880000000000
(1655546982.046926) can0 281#001C62020400
(1655546982.047135) can0 381#78020C000400
(1655546982.051863) can0 001#000004220000
(1655546982.052100) can0 6D0#4300000422012A6C
(1655546982.053762) can0 601#4026200400000000
(1655546982.054250) can0 201#06000000400D0300
(1655546982.054592) can0 581#4B26200400000000
(1655546982.054742) can0 080#00
(1655546982.054949) can0 181#880000000000
(1655546982.055165) can0 281#001C62020400
(1655546982.055364) can0 381#79020A000400
(1655546982.059931) can0 001#000004220000
(1655546982.061938) can0 201#06000000400D0300
(1655546982.062111) can0 080#00
(1655546982.062343) can0 181#880000000000
(1655546982.062547) can0 281#001C62020400
(1655546982.062752) can0 381#78020A000400
(1655546982.067861) can0 001#000004220000
(1655546982.068095) can0 6D0#4400000422023377
(1655546982.069805) can0 201#06000000400D0300
(1655546982.069981) can0 080#00
(1655546982.070218) can0 181#880000000000
(1655546982.070418) can0 281#001C62020400
(1655546982.070628) can0 381#78020C000400
(1655546982.075941) can0 001#000004220000
(1655546982.077525) can0 201#06000000400D0300
(1655546982.077760) can0 601#4020230000000000
(1655546982.077887) can0 080#00
(1655546982.078138) can0 181#880000000000
(1655546982.078347) can0 281#001C62020400
(1655546982.078560) can0 381#78020A000400
(1655546982.078795) can0 581#8020230000000206
(1655546982.083866) can0 001#000004220000
(1655546982.084101) can0 6D0#45000004220069AC
(1655546982.085273) can0 601#403F600000000000
(1655546982.085516) can0 201#06000000400D0300
(1655546982.085631) can0 080#00
(1655546982.085844) can0 181#880000000000
(1655546982.086177) can0 581#4B3F60000CFF0000
(1655546982.086369) can0 281#001C62020400
(1655546982.086574) can0 381#78020A000400
(1655546982.091930) can0 001#000004220000
(1655546982.093178) can0 201#06000000400D0300
(1655546982.093358) can0 080#00
(1655546982.093584) can0 181#880000000000
(1655546982.093792) can0 281#001C62020400
(1655546982.093996) can0 381#78020A000600
(1655546982.099862) can0 001#000004220000
(1655546982.100957) can0 201#06000000400D0300
(1655546982.101169) can0 080#00
(1655546982.101397) can0 181#880000000000
(1655546982.101599) can0 281#001C62020400
(1655546982.101808) can0 381#78020A000400
(1655546982.107861) can0 001#000004220000
(1655546982.108800) can0 201#06000000400D0300
(1655546982.108975) can0 080#00
(1655546982.109208) can0 181#880000000000
(1655546982.109412) can0 281#001C62020400
(1655546982.109617) can0 381#78020A000400
(1655546982.115759) can0 601#4023200000000000
(1655546982.115968) can0 001#000004220000
(1655546982.116215) can0 581#4323200000000000
(1655546982.116457) can0 6D0#46000004220079BD
(1655546982.116923) can0 201#06000000400D0300
(1655546982.117104) can0 080#00
(1655546982.117333) can0 181#880000000000
(1655546982.117539) can0 281#001C62020400
(1655546982.117742) can0 381#78020A000600
(1655546982.123864) can0 001#000004220000
(1655546982.124444) can0 201#06000000400D0300
(1655546982.124621) can0 080#00
(1655546982.124876) can0 181#880000000000
(1655546982.125081) can0 281#001C62020400
(1655546982.125286) can0 381#79020A000400
(1655546982.131936) can0 001#000004220000
(1655546982.132187) can0 201#06000000400D0300
(1655546982.132422) can0 6D0#470000042208004D
(1655546982.132536) can0 080#00
(1655546982.132773) can0 181#880000000000
(1655546982.132955) can0 281#001C62020400
(1655546982.133165) can0 381#78020C000400
(1655546982.133455) can0 1839F380#001C1E1D040306A5
(1655546982.133740) can0 1838F380#00031E031C1E0306
(1655546982.133906) can0 080#061E00A8
(1655546982.139857) can0 001#000004220000
(1655546982.140106) can0 201#06000000400D0300
(1655546982.140344) can0 6D0#480000042208014F
(1655546982.140463) can0 080#00
(1655546982.140673) can0 181#880000000000
(1655546982.140879) can0 281#001C62020400
(1655546982.141079) can0 381#79020A000400
(1655546982.147129) can0 601#4026200100000000
(1655546982.147813) can0 201#06000000400D0300
(1655546982.148021) can0 001#000004220000
(1655546982.148258) can0 581#4F2620011C000000
(1655546982.148497) can0 6D0#4900000422000047
(1655546982.148611) can0 080#00
(1655546982.148825) can0 181#880000000000
(1655546982.149029) can0 281#001C62020400
(1655546982.149234) can0 381#78020A000400
(1655546982.155557) can0 201#06000000400D0300
(1655546982.155734) can0 080#00
(1655546982.155945) can0 001#000004220000
(1655546982.156154) can0 181#880000000000
(1655546982.156359) can0 281#001C62020400
(1655546982.156561) can0 381#78020A000600
(1655546982.156800) can0 6D0#4A0000042207F140
(1655546982.163371) can0 201#06000000400D0300
(1655546982.163547) can0 080#00
(1655546982.163815) can0 181#880000000000
(1655546982.164013) can0 001#000004220000
(1655546982.164222) can0 281#001C62020400
(1655546982.164436) can0 381#78020C000400
(1655546982.164669) can0 6D0#4B0000042207F747
(1655546982.171227) can0 201#06000000400D0300
(1655546982.171404) can0 080#00
(1655546982.171635) can0 181#880000000000
(1655546982.171840) can0 281#001C62020400
(1655546982.172050) can0 001#000004220000
(1655546982.172253) can0 381#78020A000400
(1655546982.172490) can0 6D0#4C000004220898EA
(1655546982.178313) can0 601#4026200200000000
(1655546982.178676) can0 581#4F26200222000000
(1655546982.179294) can0 201#06000000400D0300
(1655546982.179466) can0 080#00
(1655546982.179695) can0 181#880000000000
(1655546982.179901) can0 281#001C62020400
(1655546982.180110) can0 001#000004220000
(1655546982.180318) can0 381#78020A000600
(1655546982.186863) can0 201#06000000400D0300
(1655546982.187107) can0 601#4020230000000000
(1655546982.187235) can0 080#00
(1655546982.187497) can0 181#880000000000
(1655546982.187700) can0 281#001C62020400
(1655546982.187912) can0 001#000004220000
(1655546982.188116) can0 381#78020A000400
(1655546982.188355) can0 581#8020230000000206
(1655546982.188591) can0 6D0#4D00000422076CBE
(1655546982.194627) can0 201#06000000400D0300
(1655546982.194800) can0 080#00
(1655546982.195060) can0 181#880000000000
(1655546982.195262) can0 281#001C62020400
(1655546982.195467) can0 381#78020A000400
(1655546982.195852) can0 001#000004220000
(1655546982.196093) can0 6D0#4E0000042200014D
(1655546982.202474) can0 201#06000000400D0300
(1655546982.202647) can0 080#00
(1655546982.202877) can0 181#880000000000
(1655546982.203082) can0 281#001C62020400
(1655546982.203282) can0 381#78020A000600
(1655546982.203864) can0 001#000004220000
(1655546982.208939) can0 601#4026200300000000
(1655546982.209789) can0 581#4B26200300000000
(1655546982.210529) can0 201#06000000400D0300
(1655546982.210707) can0 080#00
(1655546982.210937) can0 181#880000000000
(1655546982.211139) can0 281#001C62020400
(1655546982.211347) can0 381#79020C000400
(1655546982.211923) can0 001#000004220000
(1655546982.218059) can0 201#06000000400D0300
(1655546982.218269) can0 080#00
(1655546982.218503) can0 181#880000000000
(1655546982.218704) can0 281#001C62020400
(1655546982.218912) can0 381#79020A000400
(1655546982.219854) can0 001#000004220000
(1655546982.220090) can0 6D0#4F0000042290E1BE
(1655546982.225870) can0 201#06000000400D0300
(1655546982.226043) can0 080#00
(1655546982.226310) can0 181#880000000000
(1655546982.226515) can0 281#001C62020400
(1655546982.226720) can0 381#79020A000600
(1655546982.227930) can0 001#000004220000
(1655546982.228162) can0 6D0#50000004224F31CE
(1655546982.232329) can0 080#051C00A5
(1655546982.232616) can0 1838F380#00061C061C1E0306
(1655546982.232902) can0 1839F380#001C1E1D040306A5
(1655546982.233183) can0 18EEFF80#F30080F300401E90
(1655546982.234110) can0 201#06000000400D0300
(1655546982.234284) can0 080#00
(1655546982.234538) can0 181#880000000000
(1655546982.234748) can0 281#001C62020400
(1655546982.234947) can0 381#78020A000600
(1655546982.235851) can0 001#000004220000
(1655546982.236087) can0 6D0#51000004222131A1
(1655546982.240351) can0 601#4026200500000000
(1655546982.240995) can0 581#4B26200500000000
(1655546982.241732) can0 201#06000000400D0300
(1655546982.241907) can0 080#00
(1655546982.242163) can0 181#880000000000
(1655546982.242371) can0 281#001C62020400
(1655546982.242573) can0 381#78020A000600
(1655546982.243928) can0 001#000004220000
(1655546982.244172) can0 6D0#5200000422000050
(1655546982.249300) can0 201#06000000400D0300
(1655546982.249472) can0 080#00
(1655546982.249739) can0 181#880000000000
(1655546982.249936) can0 281#001C62020400
(1655546982.250145) can0 381#78020A000400
(1655546982.251848) can0 001#000004220000
(1655546982.252090) can0 6D0#5300000422000051
(1655546982.257097) can0 201#06000000400D0300
(1655546982.257277) can0 080#00
(1655546982.257506) can0 181#880000000000
(1655546982.257711) can0 281#001C62020400
(1655546982.257925) can0 381#78020A000400
(1655546982.259920) can0 001#000004220000
(1655546982.260156) can0 6D0#540000042202368A
(1655546982.264911) can0 201#06000000400D0300
(1655546982.265084) can0 080#00
(1655546982.265360) can0 181#880000000000
(1655546982.265556) can0 281#001C62020400
(1655546982.265766) can0 381#78020A000400
(1655546982.267852) can0 001#000004220000
(1655546982.268090) can0 6D0#5500000422000053
(1655546982.272276) can0 601#4026200700000000
(1655546982.272789) can0 201#06000000400D0300
(1655546982.273137) can0 581#4F26200700000000
(1655546982.273310) can0 080#00
(1655546982.273524) can0 181#880000000000
(1655546982.273727) can0 281#001C62020400
(1655546982.273948) can0 381#78020A000400
(1655546982.275857) can0 001#000004220000
(1655546982.276087) can0 6D0#5600000422000054
(1655546982.280532) can0 201#06000000400D0300
(1655546982.280719) can0 080#00
(1655546982.280936) can0 181#880000000000
(1655546982.281141) can0 281#001C62020400
(1655546982.281358) can0 381#78020C000400
(1655546982.283850) can0 001#000004220000
(1655546982.288342) can0 201#06000000400D0300
(1655546982.288518) can0 080#00
(1655546982.288744) can0 181#880000000000
(1655546982.288956) can0 281#001C62020400
(1655546982.289153) can0 381#78020A000600
(1655546982.291926) can0 001#000004220000
(1655546982.295504) can0 601#4020230000000000
(1655546982.295877) can0 201#06000000400D0300
(1655546982.296113) can0 581#8020230000000206
(1655546982.296330) can0 080#00
(1655546982.296554) can0 181#880000000000
(1655546982.296843) can0 281#001C62020400
(1655546982.297052) can0 381#78020A000400
(1655546982.299850) can0 001#000004220000
(1655546982.300089) can0 6D0#5700000422000055
(1655546982.303678) can0 601#4054200000000000
(1655546982.304082) can0 201#06000000400D0300
(1655546982.304392) can0 581#4B54200078000000
(1655546982.304567) can0 080#00
(1655546982.304777) can0 181#880000000000
(1655546982.305009) can0 200#05009B009B000000
(1655546982.305247) can0 281#001C62020400
(1655546982.305434) can0 381#78020A000400
(1655546982.307930) can0 001#000004220000
(1655546982.311779) can0 201#06000000400D0300
(1655546982.311956) can0 080#00
(1655546982.312186) can0 181#880000000000
(1655546982.312387) can0 281#001C62020400
(1655546982.312601) can0 381#78020A000400
(1655546982.315849) can0 001#000004220000
(1655546982.316086) can0 6D0#5800000422FFD82D
(1655546982.319593) can0 201#06000000400D0300
(1655546982.319764) can0 080#00
(1655546982.319991) can0 181#880000000000
(1655546982.320196) can0 281#001C62020400
(1655546982.320402) can0 381#79020A000400
(1655546982.323920) can0 001#000004220000
(1655546982.324158) can0 6D0#5900000422000057
(1655546982.327400) can0 201#06000000400D0300
(1655546982.327575) can0 080#00
(1655546982.327801) can0 181#880000000000
(1655546982.328010) can0 281#001C62020400
(1655546982.328212) can0 381#79020A000600
(1655546982.331851) can0 001#000004220000
(1655546982.332086) can0 6D0#5A00000422000058
(1655546982.332341) can0 080#061E00A8
(1655546982.332636) can0 1838F380#000B1C0B1C1E0306
(1655546982.332915) can0 1839F380#001C1E1D040306A5
(1655546982.333950) can0 601#4025200000000000
(1655546982.334855) can0 581#4F25200000000000
(1655546982.335627) can0 201#06000000400D0300
(1655546982.335802) can0 080#00
(1655546982.336032) can0 181#880000000000
(1655546982.336235) can0 281#001C62020400
(1655546982.336440) can0 381#78020A000600
(1655546982.339915) can0 001#000004220000
(1655546982.340153) can0 6D0#5B00000422000059
(1655546982.343023) can0 201#06000000400D0300
(1655546982.343203) can0 080#00
(1655546982.343459) can0 181#880000000000
(1655546982.343670) can0 281#001C62020400
(1655546982.343873) can0 381#78020A000400
(1655546982.347845) can0 001#000004220000
(1655546982.348085) can0 6D0#5C0000042200005A
(1655546982.350831) can0 201#06000000400D0300
(1655546982.351008) can0 080#00
(1655546982.351274) can0 181#880000000000
(1655546982.351483) can0 281#001C62020400
(1655546982.351686) can0 381#78020A000600
(1655546982.355850) can0 001#000004220000
(1655546982.358645) can0 201#06000000400D0300
(1655546982.358820) can0 080#00
(1655546982.359053) can0 181#880000000000
(1655546982.359251) can0 281#001C62020400
(1655546982.359462) can0 381#78020A000400
(1655546982.363919) can0 001#000004220000
(1655546982.364292) can0 601#4026200600000000
(1655546982.365975) can0 581#4F26200600000000
(1655546982.366710) can0 201#06000000400D0300
(1655546982.366884) can0 080#00
(1655546982.367156) can0 181#880000000000
(1655546982.367348) can0 281#001C62020400
(1655546982.367553) can0 381#78020A000400
(1655546982.371845) can0 001#000004220000
(1655546982.372086) can0 6D0#5D0000042200005B
(1655546982.374382) can0 201#06000000400D0300
(1655546982.374559) can0 080#00
(1655546982.374789) can0 181#880000000000
(1655546982.375004) can0 281#001C62020400
(1655546982.375201) can0 381#78020A000400
(1655546982.379915) can0 001#000004220000
(1655546982.382153) can0 201#06000000400D0300
(1655546982.382372) can0 080#00
(1655546982.382603) can0 181#880000000000
(1655546982.382798) can0 281#001C62020400
(1655546982.383009) can0 381#78020A000400
(1655546982.387845) can0 001#000004220000
(1655546982.388083) can0 6D0#5E0000042200005C
(1655546982.390059) can0 201#06000000400D0300
(1655546982.390239) can0 080#00
(1655546982.390467) can0 181#880000000000
(1655546982.390673) can0 281#001C62020400
(1655546982.390880) can0 381#79020A000600
(1655546982.395433) can0 601#4070200100000000
(1655546982.395856) can0 001#000004220000
(1655546982.396098) can0 6D0#5F0000042200005D
(1655546982.397274) can0 581#4B70200178020000
(1655546982.398117) can0 201#06000000400D0300
(1655546982.398294) can0 080#00
(1655546982.398521) can0 181#880000000000
(1655546982.398729) can0 281#001C62020400
(1655546982.398943) can0 381#78020A000600
(1655546982.402977) can0 601#4020230000000000
(1655546982.403378) can0 581#8020230000000206
(1655546982.403920) can0 001#000004220000
(1655546982.404157) can0 6D0#600000042200005E
(1655546982.405764) can0 201#06000000400D0300
(1655546982.405944) can0 080#00
(1655546982.406164) can0 181#880000000000
(1655546982.406385) can0 281#001C62020400
(1655546982.406582) can0 381#78020A000400
(1655546982.411843) can0 001#000004220000
(1655546982.412085) can0 6D0#610000042200005F
(1655546982.413501) can0 201#06000000400D0300
(1655546982.413675) can0 080#00
(1655546982.413910) can0 181#880000000000
(1655546982.414109) can0 281#001C62020400
(1655546982.414325) can0 381#78020A000600
(1655546982.419919) can0 001#000004220000
(1655546982.420159) can0 6D0#6200000422000060
(1655546982.421318) can0 201#06000000400D0300
(1655546982.421484) can0 080#00
(1655546982.421726) can0 181#880000000000
(1655546982.421917) can0 281#001C62020400
(1655546982.422120) can0 381#78020A000600
(1655546982.427473) can0 601#4027200000000000
(1655546982.427841) can0 001#000004220000
(1655546982.428082) can0 6D0#6300000422000061
(1655546982.428521) can0 581#4B27200004000000
(1655546982.429363) can0 201#06000000400D0300
(1655546982.429536) can0 080#00
(1655546982.429771) can0 181#880000000000
(1655546982.429975) can0 281#001C62020400
(1655546982.430183) can0 381#78020A000600
(1655546982.432397) can0 080#051C00A5
(1655546982.432680) can0 1838F380#00001E001C1E0306
(1655546982.432964) can0 1839F380#001C1E1D040306A5
(1655546982.433244) can0 18EEFF80#F30080F300401E90
(1655546982.435846) can0 001#000004220000
(1655546982.436829) can0 201#06000000400D0300
(1655546982.437004) can0 080#00
(1655546982.437278) can0 181#880000000000
(1655546982.437475) can0 281#001C62020400
(1655546982.437690) can0 381#78020C000400
(1655546982.443913) can0 001#000004220000
(1655546982.444632) can0 201#06000000400D0300
(1655546982.444806) can0 080#00
(1655546982.445042) can0 181#880000000000
(1655546982.445241) can0 281#001C62020400
(1655546982.445451) can0 381#79020A000400
(1655546982.451848) can0 001#000004220000
(1655546982.452084) can0 6D0#6400000422000062
(1655546982.452513) can0 201#06000000400D0300
(1655546982.452687) can0 080#00
(1655546982.452944) can0 181#880000000000
(1655546982.453155) can0 281#001C62020400
(1655546982.453356) can0 381#78020C000600
(1655546982.458559) can0 601#4080200B00000000
(1655546982.459762) can0 581#4F80200B00000000
(1655546982.459975) can0 001#000004220000
(1655546982.460204) can0 6D0#6500000422000063
(1655546982.460620) can0 201#06000000400D0300
(1655546982.460795) can0 080#00
(1655546982.461065) can0 181#880000000000
(1655546982.461257) can0 281#001C62020400
(1655546982.461463) can0 381#78020C000600
(1655546982.467841) can0 001#000004220000
(1655546982.468087) can0 201#06000000400D0300
(1655546982.468326) can0 6D0#6600000422000064
(1655546982.468443) can0 080#00
(1655546982.468655) can0 181#880000000000
(1655546982.468859) can0 281#001C62020400
(1655546982.469062) can0 381#79020A000600
(1655546982.475813) can0 201#06000000400D0300
(1655546982.476022) can0 001#000004220000
(1655546982.476138) can0 080#00
(1655546982.476349) can0 181#880000000000
(1655546982.476553) can0 281#001C62020400
(1655546982.476757) can0 381#78020A000600
(1655546982.483618) can0 201#06000000400D0300
(1655546982.483841) can0 001#000004220000
(1655546982.483957) can0 080#00
(1655546982.484172) can0 181#880000000000
(1655546982.484372) can0 281#001C62020400
(1655546982.484603) can0 381#78020A000400
(1655546982.484814) can0 6D0#6700000422FFFF63
(1655546982.491438) can0 201#06000000400D0300
(1655546982.491611) can0 080#00
(1655546982.491840) can0 181#880000000000
(1655546982.492048) can0 001#000004220000
(1655546982.492255) can0 281#001C62020400
(1655546982.492460) can0 381#78020A000400
(1655546982.499299) can0 201#06000000400D0300
(1655546982.499477) can0 080#00
(1655546982.499707) can0 181#880000000000
(1655546982.499928) can0 001#000004220000
(1655546982.500120) can0 281#001C62020400
(1655546982.500335) can0 381#780209000400
(1655546982.500566) can0 6D0#6E000004220040AC
(1655546982.507075) can0 201#06000000400D0300
(1655546982.507282) can0 080#00
(1655546982.507515) can0 181#880000000000
(1655546982.507723) can0 281#001C62020400
(1655546982.507928) can0 001#000004220000
(1655546982.508128) can0 381#78020A000600
(1655546982.510513) can0 601#4020230000000000
(1655546982.510919) can0 581#8020230000000206
(1655546982.514880) can0 201#06000000400D0300
(1655546982.515047) can0 080#00
(1655546982.515311) can0 181#880000000000
(1655546982.515518) can0 281#001C62020400
(1655546982.515716) can0 381#78020A000600
(1655546982.515930) can0 001#000004220000
(1655546982.522726) can0 201#06000000400D0300
(1655546982.522898) can0 080#00
(1655546982.523130) can0 181#880000000000
(1655546982.523331) can0 281#001C62020400
(1655546982.523540) can0 381#78020A000400
(1655546982.523836) can0 001#000004220000
(1655546982.524074) can0 6D0#730000042208017A
(1655546982.530502) can0 201#06000000400D0300
(1655546982.530676) can0 080#00
(1655546982.530935) can0 181#880000000000
(1655546982.531138) can0 281#001C62020400
(1655546982.531347) can0 381#78020A000400
(1655546982.531908) can0 001#000004220000
(1655546982.532342) can0 080#061E00A8
(1655546982.532631) can0 1838F380#00031E031C1E0306
(1655546982.532917) can0 1839F380#001C1E1D040306A5
(1655546982.538309) can0 201#06000000400D0300
(1655546982.538482) can0 080#00
(1655546982.538760) can0 181#880000000000
(1655546982.538944) can0 281#001C62020400
(1655546982.539148) can0 381#78020A000600
(1655546982.539834) can0 001#000004220000
(1655546982.540076) can0 6D0#740000042208017B
(1655546982.546119) can0 201#06000000400D0300
(1655546982.546298) can0 080#00
(1655546982.546560) can0 181#880000000000
(1655546982.546760) can0 281#001C62020400
(1655546982.546968) can0 381#79020A000400
(1655546982.547905) can0 001#000004220000
(1655546982.553392) can0 601#4026200100000000
(1655546982.554035) can0 201#06000000400D0300
(1655546982.554372) can0 581#4F2620011C000000
(1655546982.554528) can0 080#00
(1655546982.554740) can0 181#880000000000
(1655546982.554950) can0 281#001C62020400
(1655546982.555145) can0 381#78020A000600
(1655546982.555837) can0 001#000004220000
(1655546982.556073) can0 6D0#7500000422000073
(1655546982.561750) can0 201#06000000400D0300
(1655546982.561922) can0 080#00
(1655546982.562213) can0 181#880000000000
(1655546982.562396) can0 281#001C62020400
(1655546982.562597) can0 381#78020A000400
(1655546982.563903) can0 001#000004220000
(1655546982.569549) can0 201#06000000400D0300
(1655546982.569716) can0 080#00
(1655546982.569942) can0 181#880000000000
(1655546982.570153) can0 281#001C62020400
(1655546982.570357) can0 381#78020A000400
(1655546982.571834) can0 001#000004220000
(1655546982.572075) can0 6D0#7600000422000074
(1655546982.577353) can0 201#06000000400D0300
(1655546982.577525) can0 080#00
(1655546982.577753) can0 181#880000000000
(1655546982.577958) can0 281#001C62020400
(1655546982.578161) can0 381#79020A000600
(1655546982.579835) can0 001#000004220000
(1655546982.584246) can0 601#4026200400000000
(1655546982.584737) can0 581#4B26200400000000
(1655546982.585472) can0 201#06000000400D0300
(1655546982.585644) can0 080#00
(1655546982.585880) can0 181#880000000000
(1655546982.586078) can0 281#001C62020400
(1655546982.586286) can0 381#78020A000600
(1655546982.587913) can0 001#000004220000
(1655546982.592974) can0 201#06000000400D0300
(1655546982.593156) can0 080#00
(1655546982.593418) can0 181#880000000000
(1655546982.593618) can0 281#001C62020400
(1655546982.593825) can0 381#78020A000400
(1655546982.595832) can0 001#000004220000
(1655546982.596074) can0 6D0#7700000422000075
(1655546982.600786) can0 201#06000000400D0300
(1655546982.600959) can0 080#00
(1655546982.601196) can0 181#880000000000
(1655546982.601400) can0 281#001C62020400
(1655546982.601601) can0 381#78020A000600
(1655546982.603905) can0 001#000004220000
(1655546982.608598) can0 201#06000000400D0300
(1655546982.608767) can0 080#00
(1655546982.608997) can0 181#880000000000
(1655546982.609202) can0 281#001C62020400
(1655546982.609404) can0 381#79020A000600
(1655546982.611839) can0 001#000004220000
(1655546982.612071) can0 6D0#7800000422000076
(1655546982.614628) can0 601#403F600000000000
(1655546982.615929) can0 581#4B3F60000CFF0000
(1655546982.616663) can0 201#06000000400D0300
(1655546982.616838) can0 080#00
(1655546982.617097) can0 181#880000000000
(1655546982.617305) can0 281#001C62020400
(1655546982.617507) can0 381#78020A000600
(1655546982.619904) can0 001#000004220000
(1655546982.621304) can0 601#4020230000000000
(1655546982.621710) can0 581#8020230000000206
(1655546982.624237) can0 201#06000000400D0300
(1655546982.624408) can0 080#00
(1655546982.624666) can0 181#880000000000
(1655546982.624878) can0 281#001C62020400
(1655546982.625095) can0 381#78020A000400
(1655546982.627835) can0 001#000004220000
(1655546982.628074) can0 6D0#7900000422000077
(1655546982.632032) can0 201#06000000400D0300
(1655546982.632214) can0 080#00
(1655546982.632499) can0 1838F380#00061C061C1E0306
(1655546982.632714) can0 181#880000000000
(1655546982.632914) can0 281#001C62020400
(1655546982.633119) can0 381#79020A000400
(1655546982.633412) can0 1839F380#001C1E1D040306A5
(1655546982.633573) can0 080#051C00A5
(1655546982.634980) can0 18EEFF80#F30080F300401E90
(1655546982.635906) can0 001#000004220000
(1655546982.639841) can0 201#06000000400D0300
(1655546982.640015) can0 080#00
(1655546982.640282) can0 181#880000000000
(1655546982.640488) can0 281#001C62020400
(1655546982.640692) can0 381#78020C000600
(1655546982.643838) can0 001#000004220000
(1655546982.644075) can0 6D0#7A00000422000078
(1655546982.645199) can0 601#4023200000000000
(1655546982.647058) can0 581#4323200000000000
(1655546982.647788) can0 201#06000000400D0300
(1655546982.647965) can0 080#00
(1655546982.648225) can0 181#880000000000
(1655546982.648439) can0 281#001C62020400
(1655546982.648636) can0 381#78020A000400
(1655546982.651829) can0 001#000004220000
(1655546982.655464) can0 201#06000000400D0300
(1655546982.655640) can0 080#00
(1655546982.655866) can0 181#880000000000
(1655546982.656073) can0 281#001C62020400
(1655546982.656275) can0 381#78020A000600
(1655546982.659904) can0 001#000004220000
(1655546982.663283) can0 201#06000000400D0300
(1655546982.663457) can0 080#00
(1655546982.663722) can0 181#880000000000
(1655546982.663922) can0 281#001C62020400
(1655546982.664130) can0 381#78020C000400
(1655546982.667831) can0 001#000004220000
(1655546982.668073) can0 6D0#7B0000042200037C
(1655546982.671085) can0 201#06000000400D0300
(1655546982.671267) can0 080#00
(1655546982.671498) can0 181#880000000000
(1655546982.671709) can0 281#001C62020400
(1655546982.671915) can0 381#78020A000400
(1655546982.675788) can0 601#4026200200000000
(1655546982.675997) can0 001#000004220000
(1655546982.676234) can0 581#4F26200222000000
(1655546982.676479) can0 6D0#7C00000422000680
(1655546982.678957) can0 201#06000000400D0300
(1655546982.679130) can0 080#00
(1655546982.679359) can0 181#880000000000
(1655546982.679564) can0 281#001C62020400
(1655546982.679770) can0 381#79020A000400
(1655546982.683831) can0 001#000004220000
(1655546982.684068) can0 6D0#7D000004220030AB
(1655546982.686776) can0 201#06000000400D0300
(1655546982.686951) can0 080#00
(1655546982.687213) can0 181#880000000000
(1655546982.687421) can0 281#001C62020400
(1655546982.687625) can0 381#78020A000600
(1655546982.691779) can0 601#4026200300000000
(1655546982.691984) can0 001#000004220000
(1655546982.692237) can0 581#4B26200300000000
(1655546982.694534) can0 201#06000000400D0300
(1655546982.694707) can0 080#00
(1655546982.694980) can0 181#880000000000
(1655546982.695172) can0 281#001C62020400
(1655546982.695373) can0 381#78020A000600
(1655546982.699829) can0 001#000004220000
(1655546982.700074) can0 6D0#7E0000042200007C
(1655546982.702441) can0 201#06000000400D0300
(1655546982.702612) can0 080#00
(1655546982.702849) can0 181#880000000000
(1655546982.703047) can0 281#001C62020400
(1655546982.703249) can0 381#79020A000600
(1655546982.707897) can0 001#000004220000
(1655546982.708134) can0 6D0#7F0000042202EE6D
(1655546982.710322) can0 201#06000000400D0300
(1655546982.710499) can0 080#00
(1655546982.710724) can0 181#880000000000
(1655546982.710938) can0 281#001C62020400
(1655546982.711137) can0 381#78020A000600
(1655546982.715830) can0 001#000004220000
(1655546982.716072) can0 6D0#800000042200007E
(1655546982.718124) can0 201#06000000400D0300
(1655546982.718302) can0 080#00
(1655546982.718539) can0 181#880000000000
(1655546982.718743) can0 281#001C62020400
(1655546982.718938) can0 381#79020A000600
(1655546982.722001) can0 601#4026200500000000
(1655546982.722398) can0 581#4B26200500000000
(1655546982.723841) can0 001#000004220000
(1655546982.725876) can0 201#06000000400D0300
(1655546982.726051) can0 080#00
(1655546982.726287) can0 181#880000000000
(1655546982.726495) can0 281#001C62020400
(1655546982.726692) can0 381#78020A000600
(1655546982.730572) can0 601#4020230000000000
(1655546982.730961) can0 581#8020230000000206
(1655546982.731909) can0 001#000004220000
(1655546982.732353) can0 080#061E00A8
(1655546982.732633) can0 1838F380#000B1C0B1C1E0306
(1655546982.732919) can0 1839F380#001C1E1D040306A5
(1655546982.734010) can0 201#06000000400D0300
(1655546982.734191) can0 080#00
(1655546982.734451) can0 181#880000000000
(1655546982.734652) can0 281#001C62020400
(1655546982.734860) can0 381#79020A000400
(1655546982.739828) can0 001#000004220000
(1655546982.740072) can0 6D0#0000000422010302
(1655546982.741563) can0 201#06000000400D0300
(1655546982.741737) can0 080#00
(1655546982.741967) can0 181#880000000000
(1655546982.742170) can0 281#001C62020400
(1655546982.742377) can0 381#78020A000400
(1655546982.747904) can0 001#000004220000
(1655546982.749313) can0 201#06000000400D0300
(1655546982.749487) can0 080#00
(1655546982.749716) can0 181#880000000000
(1655546982.749921) can0 281#001C62020400
(1655546982.750123) can0 381#78020A000600
(1655546982.752149) can0 601#4025200000000000
(1655546982.752553) can0 581#4F25200000000000
(1655546982.755828) can0 001#000004220000
(1655546982.756068) can0 6D0#0100000422060308
(1655546982.757186) can0 201#06000000400D0300
(1655546982.757365) can0 080#00
(1655546982.757602) can0 181#880000000000
(1655546982.757802) can0 281#001C62020400
(1655546982.758012) can0 381#78020A000600
(1655546982.763900) can0 001#000004220000
(1655546982.764903) can0 201#06000000400D0300
(1655546982.765103) can0 080#00
(1655546982.765336) can0 181#880000000000
(1655546982.765537) can0 281#001C62020400
(1655546982.765745) can0 381#78020A000600
(1655546982.771826) can0 001#000004220000
(1655546982.772066) can0 6D0#0200000422057A7F
(1655546982.772819) can0 201#06000000400D0300
(1655546982.773001) can0 080#00
(1655546982.773259) can0 181#880000000000
(1655546982.773466) can0 281#001C62020400
(1655546982.773672) can0 381#78020A000400
(1655546982.779902) can0 001#000004220000
(1655546982.780506) can0 201#06000000400D0300
(1655546982.780683) can0 080#00
(1655546982.780940) can0 181#880000000000
(1655546982.781146) can0 281#001C62020400
(1655546982.781350) can0 381#78020A000600
(1655546982.782713) can0 601#4026200600000000
(1655546982.783116) can0 581#4F26200600000000
(1655546982.787826) can0 001#000004220000
(1655546982.788063) can0 6D0#0300000422240328
(1655546982.788436) can0 201#06000000400D0300
(1655546982.788610) can0 080#00
(1655546982.788838) can0 181#880000000000
(1655546982.789045) can0 281#001C62020400
(1655546982.789256) can0 381#78020A000400
(1655546982.795827) can0 001#000004220000
(1655546982.796073) can0 201#06000000400D0300
(1655546982.796189) can0 080#00
(1655546982.796448) can0 181#880000000000
(1655546982.796668) can0 281#001C62020400
(1655546982.796859) can0 381#79020C000400
(1655546982.803876) can0 201#06000000400D0300
(1655546982.804090) can0 001#000004220000
(1655546982.804206) can0 080#00
(1655546982.804417) can0 181#880000000000
(1655546982.804630) can0 281#001C62020400
(1655546982.804828) can0 381#78020C000600
(1655546982.811686) can0 201#06000000400D0300
(1655546982.811895) can0 001#000004220000
(1655546982.812012) can0 080#00
(1655546982.812222) can0 181#880000000000
(1655546982.812428) can0 281#001C62020400
(1655546982.812632) can0 381#78020A000400
(1655546982.812874) can0 6D0#0400000422006B6D
(1655546982.814724) can0 601#4026200700000000
(1655546982.815090) can0 581#4F26200700000000
(1655546982.819504) can0 201#06000000400D0300
(1655546982.819676) can0 080#00
(1655546982.819894) can0 001#000004220000
(1655546982.820103) can0 181#880000000000
(1655546982.820309) can0 281#001C62020400
(1655546982.820513) can0 381#78020A000600
(1655546982.827366) can0 201#06000000400D0300
(1655546982.827539) can0 080#00
(1655546982.827769) can0 181#880000000000
(1655546982.827977) can0 001#000004220000
(1655546982.828186) can0 281#001C62020400
(1655546982.828393) can0 381#78020A000400
(1655546982.828631) can0 6D0#0500000422000003
(1655546982.832387) can0 080#051C00A5
(1655546982.832670) can0 1838F380#00001E001C1E0306
(1655546982.832967) can0 1839F380#001C1E1D040306A5
(1655546982.833235) can0 18EEFF80#F30080F300401E90
(1655546982.835370) can0 201#06000000400D0300
(1655546982.835544) can0 080#00
(1655546982.835811) can0 181#880000000000
(1655546982.836011) can0 001#000004220000
(1655546982.836215) can0 281#001C62020400
(1655546982.836431) can0 381#78020A000400
(1655546982.840191) can0 601#4020230000000000
(1655546982.840616) can0 581#8020230000000206
(1655546982.842949) can0 201#06000000400D0300
(1655546982.843155) can0 080#00
(1655546982.843383) can0 181#880000000000
(1655546982.843595) can0 281#001C62020400
(1655546982.843794) can0 381#78020A000400
(1655546982.844004) can0 001#000004220000
(1655546982.844243) can0 6D0#0600000422003034
(1655546982.845998) can0 601#4054200000000000
(1655546982.846394) can0 581#4B54200078000000
(1655546982.850747) can0 201#06000000400D0300
(1655546982.850921) can0 080#00
(1655546982.851186) can0 181#880000000000
(1655546982.851390) can0 281#001C62020400
(1655546982.851596) can0 381#78020A000400
(1655546982.851900) can0 001#000004220000
(1655546982.852138) can0 6D0#0700000422001C21
(1655546982.858571) can0 201#06000000400D0300
(1655546982.858739) can0 080#00
(1655546982.859002) can0 181#880000000000
(1655546982.859203) can0 281#001C62020400
(1655546982.859408) can0 381#78020A000400
(1655546982.859829) can0 001#000004220000
(1655546982.860071) can0 6D0#080000042200E7ED
(1655546982.866417) can0 201#06000000400D0300
(1655546982.866584) can0 080#00
(1655546982.866814) can0 181#880000000000
(1655546982.867021) can0 281#001C62020400
(1655546982.867224) can0 381#78020A000400
(1655546982.867821) can0 001#000004220000
(1655546982.874224) can0 201#06000000400D0300
(1655546982.874398) can0 080#00
(1655546982.874633) can0 181#880000000000
(1655546982.874834) can0 281#001C62020400
(1655546982.875038) can0 381#79020A000400
(1655546982.875898) can0 001#000004220000
(1655546982.877910) can0 601#4070200100000000
(1655546982.878307) can0 581#4B70200179020000
(1655546982.881991) can0 201#06000000400D0300
(1655546982.882173) can0 080#00
(1655546982.882429) can0 181#880000000000
(1655546982.882640) can0 281#001C62020400
(1655546982.882842) can0 381#78020A000600
(1655546982.883820) can0 001#000004220000
(1655546982.884062) can0 6D0#0900000422000007
(1655546982.889811) can0 201#06000000400D0300
(1655546982.889983) can0 080#00
(1655546982.890251) can0 181#880000000000
(1655546982.890457) can0 281#001C62020400
(1655546982.890662) can0 381#78020A000400
(1655546982.891890) can0 001#000004220000
(1655546982.897655) can0 201#06000000400D0300
(1655546982.897828) can0 080#00
(1655546982.898058) can0 181#880000000000
(1655546982.898263) can0 281#001C62020400
(1655546982.898469) can0 381#78020A000400
(1655546982.899819) can0 001#000004220000
(1655546982.900063) can0 6D0#0A00000422007880
(1655546982.905418) can0 201#06000000400D0300
(1655546982.905593) can0 080#00
(1655546982.905819) can0 181#880000000000
(1655546982.906024) can0 281#001C62020400
(1655546982.906232) can0 381#78020A000600
(1655546982.907887) can0 001#000004220000
(1655546982.908126) can0 6D0#0B00000422025863
(1655546982.909624) can0 601#4027200000000000
(1655546982.909979) can0 581#4B27200004000000
(1655546982.913245) can0 201#06000000400D0300
(1655546982.913418) can0 080#00
(1655546982.913679) can0 181#880000000000
(1655546982.913886) can0 281#001C62020400
(1655546982.914105) can0 381#78020C000400
(1655546982.915817) can0 001#000004220000
(1655546982.916060) can0 6D0#0C0000042200000A
(1655546982.921037) can0 201#06000000400D0300
(1655546982.921221) can0 080#00
(1655546982.921478) can0 181#880000000000
(1655546982.921685) can0 281#001C62020400
(1655546982.921892) can0 381#78020A000600
(1655546982.923899) can0 001#000004220000
(1655546982.924128) can0 6D0#0D00000422042231
(1655546982.928854) can0 201#06000000400D0300
(1655546982.929027) can0 080#00
(1655546982.929299) can0 181#880000000000
(1655546982.929498) can0 281#001C62020400
(1655546982.929699) can0 381#78020A000600
(1655546982.931823) can0 001#000004220000
(1655546982.932054) can0 6D0#0E00000422042232
(1655546982.932321) can0 080#061E00A8
(1655546982.932603) can0 1838F380#00031E031C1E0306
(1655546982.932901) can0 1839F380#001C1E1D040306A5
(1655546982.936662) can0 201#06000000400D0300
(1655546982.936833) can0 080#00
(1655546982.937067) can0 181#880000000000
(1655546982.937275) can0 281#001C62020400
(1655546982.937477) can0 381#78020A000400
(1655546982.939832) can0 001#000004220000
(1655546982.940066) can0 6D0#0F00000422006F7C
(1655546982.940613) can0 601#4026200100000000
(1655546982.940984) can0 581#4F2620011C000000
(1655546982.944478) can0 201#06000000400D0300
(1655546982.944653) can0 080#00
(1655546982.944914) can0 181#880000000000
(1655546982.945115) can0 281#001C62020400
(1655546982.945324) can0 381#78020A000400
(1655546982.947833) can0 001#000004220000
(1655546982.948782) can0 601#4020230000000000
(1655546982.949171) can0 581#8020230000000206
(1655546982.952301) can0 201#06000000400D0300
(1655546982.952475) can0 080#00
(1655546982.952732) can0 181#880000000000
(1655546982.952937) can0 281#001C62020400
(1655546982.953143) can0 381#78020A000400
(1655546982.955896) can0 001#000004220000
(1655546982.956128) can0 6D0#100000042201A3B2
(1655546982.960105) can0 201#06000000400D0300
(1655546982.960277) can0 080#00
(1655546982.960538) can0 181#880000000000
(1655546982.960742) can0 281#001C62020400
(1655546982.960947) can0 381#79020A000400
(1655546982.963824) can0 001#000004220000
(1655546982.964057) can0 6D0#1100000422001120
(1655546982.967905) can0 201#06000000400D0300
(1655546982.968084) can0 080#00
(1655546982.968314) can0 181#880000000000
(1655546982.968520) can0 281#001C62020400
(1655546982.968727) can0 381#78020A000400
(1655546982.971571) can0 601#4026200400000000
(1655546982.971889) can0 001#000004220000
(1655546982.972130) can0 581#4B26200400000000
(1655546982.972370) can0 6D0#1200000422004353
(1655546982.975727) can0 201#06000000400D0300
(1655546982.975891) can0 080#00
(1655546982.976120) can0 181#880000000000
(1655546982.976324) can0 281#001C62020400
(1655546982.976530) can0 381#78020A000400
(1655546982.979815) can0 001#000004220000
(1655546982.980054) can0 6D0#1300000422006475
(1655546982.983536) can0 201#06000000400D0300
(1655546982.983703) can0 080#00
(1655546982.983930) can0 181#880000000000
(1655546982.984158) can0 281#001C62020400
(1655546982.984348) can0 381#78020C000400
(1655546982.987884) can0 001#000004220000
(1655546982.991345) can0 201#06000000400D0300
(1655546982.991520) can0 080#00
(1655546982.991750) can0 181#880000000000
(1655546982.991952) can0 281#001C62020400
(1655546982.992159) can0 381#78020A000400
(1655546982.995816) can0 001#000004220000
(1655546982.996049) can0 6D0#1400000422295994
(1655546982.999153) can0 201#06000000400D0300
(1655546982.999333) can0 080#00
(1655546982.999596) can0 181#880000000000
(1655546982.999797) can0 281#001C62020400
(1655546983.000013) can0 381#78020C000400
(1655546983.002889) can0 601#4026200200000000
(1655546983.003292) can0 581#4F26200222000000
(1655546983.003896) can0 001#000004220000
(1655546983.004133) can0 6D0#15000004227FFF91
(1655546983.006975) can0 201#06000000400D0300
(1655546983.007139) can0 080#00
(1655546983.007369) can0 181#880000000000
(1655546983.007573) can0 281#001C62020400
(1655546983.007777) can0 381#78020A000600
(1655546983.011813) can0 001#000004220000
(1655546983.012056) can0 6D0#16000004220498B0
(1655546983.014771) can0 201#06000000400D0300
(1655546983.014946) can0 080#00
(1655546983.015221) can0 181#880000000000
(1655546983.015417) can0 281#001C62020400
(1655546983.015618) can0 381#78020A000600
(1655546983.019815) can0 001#000004220000
(1655546983.022591) can0 201#06000000400D0300
(1655546983.022763) can0 080#00
(1655546983.022993) can0 181#880000000000
(1655546983.023201) can0 281#001C62020400
(1655546983.023412) can0 381#78020A000400
(1655546983.027893) can0 001#000004220000
(1655546983.030391) can0 201#06000000400D0300
(1655546983.030569) can0 080#00
(1655546983.030805) can0 181#880000000000
(1655546983.031009) can0 281#001C62020400
(1655546983.031209) can0 381#78020A000400
(1655546983.032312) can0 080#051C00A5
(1655546983.032599) can0 1838F380#00061C061C1E0306
(1655546983.032893) can0 1839F380#001C1E1D040306A5
(1655546983.033166) can0 18EEFF80#F30080F300401E90
(1655546983.034722) can0 601#4026200300000000
(1655546983.035088) can0 581#4B26200300000000
(1655546983.035812) can0 001#000004220000
(1655546983.036048) can0 6D0#170000042202BCD3
(1655546983.038330) can0 201#06000000400D0300
(1655546983.038506) can0 080#00
(1655546983.038747) can0 181#880000000000
(1655546983.038940) can0 281#001C62020400
(1655546983.039148) can0 381#79020A000400
(1655546983.043882) can0 001#000004220000
(1655546983.046102) can0 201#06000000400D0300
(1655546983.046302) can0 080#00
(1655546983.046539) can0 181#880000000000
(1655546983.046734) can0 281#001C62020400
(1655546983.046939) can0 381#78020A000400
(1655546983.051813) can0 001#000004220000
(1655546983.052057) can0 6D0#1800000422000319
(1655546983.054013) can0 201#06000000400D0300
(1655546983.054187) can0 080#00
(1655546983.054414) can0 181#880000000000
(1655546983.054618) can0 281#001C62020400
(1655546983.054826) can0 381#79020C000400
(1655546983.056082) can0 601#4020230000000000
(1655546983.056473) can0 581#8020230000000206
(1655546983.059894) can0 001#000004220000
(1655546983.061756) can0 201#06000000400D0300
(1655546983.061927) can0 080#00
(1655546983.062163) can0 181#880000000000
(1655546983.062367) can0 281#001C62020400
(1655546983.062576) can0 381#78020A000600
(1655546983.065774) can0 601#403F600000000000
(1655546983.066161) can0 581#4B3F60000CFF0000
(1655546983.067810) can0 001#000004220000
(1655546983.068050) can0 6D0#190000042200041B
(1655546983.069635) can0 201#06000000400D0300
(1655546983.069802) can0 080#00
(1655546983.070032) can0 181#880000000000
(1655546983.070238) can0 281#001C62020400
(1655546983.070440) can0 381#79020A000400
(1655546983.075884) can0 001#000004220000
(1655546983.077374) can0 201#06000000400D0300
(1655546983.077549) can0 080#00
(1655546983.077795) can0 181#880000000000
(1655546983.077986) can0 281#001C62020400
(1655546983.078189) can0 381#78020A000600
(1655546983.083818) can0 001#000004220000
(1655546983.084051) can0 6D0#1A00000422008199
(1655546983.085253) can0 201#06000000400D0300
(1655546983.085426) can0 080#00
(1655546983.085656) can0 181#880000000000
(1655546983.085861) can0 281#001C62020400
(1655546983.086062) can0 381#78020A000600
(1655546983.091809) can0 001#000004220000
(1655546983.092961) can0 201#06000000400D0300
(1655546983.093174) can0 080#00
(1655546983.093397) can0 181#880000000000
(1655546983.093613) can0 281#001C62020400
(1655546983.093811) can0 381#78020A000400
(1655546983.096824) can0 601#4023200000000000
(1655546983.097221) can0 581#4323200000000000
(1655546983.099879) can0 001#000004220000
(1655546983.100810) can0 201#06000000400D0300
(1655546983.100984) can0 080#00
(1655546983.101222) can0 181#880000000000
(1655546983.101426) can0 281#001C62020400
(1655546983.101632) can0 381#78020A000400
(1655546983.107810) can0 001#000004220000
(1655546983.108584) can0 201#06000000400D0300
(1655546983.108757) can0 080#00
(1655546983.109015) can0 181#880000000000
(1655546983.109220) can0 281#001C62020400
(1655546983.109422) can0 381#78020A000600
(1655546983.115811) can0 001#000004220000
(1655546983.116387) can0 201#06000000400D0300
(1655546983.116560) can0 080#00
(1655546983.116827) can0 181#880000000000
(1655546983.117027) can0 281#001C62020400
(1655546983.117231) can0 381#78020A000400
(1655546983.123808) can0 001#000004220000
(1655546983.124046) can0 6D0#1B0000042202324D
(1655546983.124290) can0 201#06000000400D0300
(1655546983.124483) can0 080#00
(1655546983.124718) can0 181#880000000000
(1655546983.124925) can0 281#001C62020400
(1655546983.125118) can0 381#78020A000600
(1655546983.128511) can0 601#4025200000000000
(1655546983.128885) can0 581#4F25200000000000
(1655546983.131890) can0 001#000004220000
(1655546983.132136) can0 201#06000000400D0300
(1655546983.132371) can0 6D0#1C00000422032A47
(1655546983.132487) can0 080#00
(1655546983.132695) can0 181#880000000000
(1655546983.132901) can0 281#001C62020400
(1655546983.133110) can0 381#78020A000400
(1655546983.133397) can0 1839F380#001C1E1D040306A5
(1655546983.133683) can0 1838F380#000B1C0B1C1E0306
(1655546983.133846) can0 080#061E00A8
(1655546983.139764) can0 201#06000000400D0300
(1655546983.139975) can0 001#000004220000
(1655546983.140089) can0 080#00
(1655546983.140300) can0 181#880000000000
(1655546983.140507) can0 281#001C62020400
(1655546983.140719) can0 381#78020A000400
(1655546983.140955) can0 6D0#1D00000422007893
(1655546983.147610) can0 201#06000000400D0300
(1655546983.147783) can0 080#00
(1655546983.147996) can0 001#000004220000
(1655546983.148204) can0 181#880000000000
(1655546983.148416) can0 281#001C62020400
(1655546983.148620) can0 381#78020A000400
(1655546983.148862) can0 6D0#1E0000042200001C
(1655546983.155386) can0 201#06000000400D0300
(1655546983.155561) can0 080#00
(1655546983.155810) can0 001#000004220000
(1655546983.156018) can0 181#880000000000
(1655546983.156224) can0 281#001C62020400
(1655546983.156424) can0 381#78020A000600
(1655546983.156672) can0 6D0#1F00000422001532
(1655546983.159704) can0 601#4026200600000000
(1655546983.160071) can0 581#4F26200600000000
(1655546983.163209) can0 201#06000000400D0300
(1655546983.163374) can0 080#00
(1655546983.163638) can0 181#880000000000
(1655546983.163846) can0 001#000004220000
(1655546983.164053) can0 281#001C62020400
(1655546983.164249) can0 381#78020A000600
(1655546983.164488) can0 601#4020230000000000
(1655546983.164900) can0 581#8020230000000206
(1655546983.171046) can0 201#06000000400D0300
(1655546983.171224) can0 080#00
(1655546983.171453) can0 181#880000000000
(1655546983.171657) can0 281#001C62020400
(1655546983.171871) can0 001#000004220000
(1655546983.172080) can0 381#79020C000400
(1655546983.178859) can0 201#06000000400D0300
(1655546983.179033) can0 080#00
(1655546983.179264) can0 181#880000000000
(1655546983.179471) can0 281#001C62020400
(1655546983.179681) can0 381#78020C000400
(1655546983.179892) can0 001#000004220000
(1655546983.180144) can0 6D0#2000000422000826
(1655546983.186632) can0 201#06000000400D0300
(1655546983.186805) can0 080#00
(1655546983.187073) can0 181#880000000000
(1655546983.187270) can0 281#001C62020400
(1655546983.187477) can0 381#78020A000400
(1655546983.187808) can0 001#000004220000
(1655546983.188049) can0 6D0#210000042200001F
(1655546983.190842) can0 601#4026200500000000
(1655546983.191246) can0 581#4B26200500000000
(1655546983.194443) can0 201#06000000400D0300
(1655546983.194611) can0 080#00
(1655546983.194868) can0 181#880000000000
(1655546983.195071) can0 281#001C62020400
(1655546983.195277) can0 381#78020C000400
(1655546983.195805) can0 001#000004220000
(1655546983.196042) can0 6D0#2200000422000424
(1655546983.202296) can0 201#06000000400D0300
(1655546983.202471) can0 080#00
(1655546983.202701) can0 181#880000000000
(1655546983.202907) can0 281#001C62020400
(1655546983.203115) can0 381#78020A000400
(1655546983.203884) can0 001#000004220000
(1655546983.204128) can0 6D0#2300000422042247
(1655546983.210096) can0 201#06000000400D0300
(1655546983.210274) can0 080#00
(1655546983.210504) can0 181#880000000000
(1655546983.210709) can0 281#001C62020400
(1655546983.210910) can0 381#78020A000600
(1655546983.211802) can0 001#000004220000
(1655546983.212049) can0 6D0#240000042200E608
(1655546983.217874) can0 201#06000000400D0300
(1655546983.218084) can0 080#00
(1655546983.218314) can0 181#880000000000
(1655546983.218518) can0 281#001C62020400
(1655546983.218720) can0 381#78020A000600
(1655546983.219874) can0 001#000004220000
(1655546983.221588) can0 601#4026200700000000
(1655546983.221956) can0 581#4F26200700000000
(1655546983.225678) can0 201#06000000400D0300
(1655546983.225851) can0 080#00
(1655546983.226111) can0 181#880000000000
(1655546983.226314) can0 281#001C62020400
(1655546983.226524) can0 381#78020A000400
(1655546983.227805) can0 001#000004220000
(1655546983.228043) can0 6D0#2500000422000528
(1655546983.232370) can0 080#051C00A5
(1655546983.232661) can0 1838F380#00001E001C1E0306
(1655546983.232951) can0 1839F380#001C1E1D040306A5
(1655546983.233223) can0 18EEFF80#F30080F300401E90
(1655546983.233969) can0 201#06000000400D0300
(1655546983.234152) can0 080#00
(1655546983.234378) can0 181#880000000000
(1655546983.234595) can0 281#001C62020400
(1655546983.234787) can0 381#78020A000600
(1655546983.235802) can0 001#000004220000
(1655546983.241351) can0 201#06000000400D0300
(1655546983.241517) can0 080#00
(1655546983.241746) can0 181#880000000000
(1655546983.241954) can0 281#001C62020400
(1655546983.242158) can0 381#79020C000400
(1655546983.243804) can0 001#000004220000
(1655546983.249117) can0 201#06000000400D0300
(1655546983.249294) can0 080#00
(1655546983.249556) can0 181#880000000000
(1655546983.249757) can0 281#001C62020400
(1655546983.249966) can0 381#78020A000400
(1655546983.251871) can0 001#000004220000
(1655546983.252109) can0 6D0#26000004229935F2
(1655546983.253506) can0 601#4054200000000000
(1655546983.253864) can0 581#4B54200078000000
(1655546983.256924) can0 201#06000000400D0300
(1655546983.257104) can0 080#00
(1655546983.257359) can0 181#880000000000
(1655546983.257570) can0 281#001C62020400
(1655546983.257775) can0 381#78020C000400
(1655546983.259801) can0 001#000004220000
(1655546983.260043) can0 6D0#2700000422000025
(1655546983.264727) can0 201#06000000400D0300
(1655546983.264901) can0 080#00
(1655546983.265135) can0 181#880000000000
(1655546983.265344) can0 281#001C62020400
(1655546983.265545) can0 381#78020A000600
(1655546983.267871) can0 001#000004220000
(1655546983.271978) can0 601#4020230000000000
(1655546983.272631) can0 201#06000000400D0300
(1655546983.272964) can0 581#8020230000000206
(1655546983.273135) can0 080#00
(1655546983.273347) can0 181#880000000000
(1655546983.273554) can0 281#001C62020400
(1655546983.273757) can0 381#79020A000400
(1655546983.275800) can0 001#000004220000
(1655546983.276041) can0 6D0#2800000422001E44
(1655546983.280346) can0 201#06000000400D0300
(1655546983.280522) can0 080#00
(1655546983.280751) can0 181#880000000000
(1655546983.280957) can0 281#001C62020400
(1655546983.281160) can0 381#79020A000400
(1655546983.283870) can0 001#000004220000
(1655546983.284114) can0 601#4070200100000000
(1655546983.284482) can0 581#4B70200179020000
(1655546983.288174) can0 201#06000000400D0300
(1655546983.288349) can0 080#00
(1655546983.288618) can0 181#880000000000
(1655546983.288812) can0 281#001C62020400
(1655546983.289016) can0 381#78020A000600
(1655546983.291809) can0 001#000004220000
(1655546983.292051) can0 6D0#2900000422001A41
(1655546983.295971) can0 201#06000000400D0300
(1655546983.296148) can0 080#00
(1655546983.296394) can0 181#880000000000
(1655546983.296585) can0 281#001C62020400
(1655546983.296789) can0 381#78020A000400
(1655546983.299872) can0 001#000004220000
(1655546983.300113) can0 6D0#2A00000422001B43
(1655546983.303787) can0 201#06000000400D0300
(1655546983.303959) can0 080#00
(1655546983.304235) can0 181#880000000000
(1655546983.304431) can0 281#001C62020400
(1655546983.304639) can0 381#78020A000400
(1655546983.305063) can0 200#05009B009B000000
(1655546983.307799) can0 001#000004220000
(1655546983.308038) can0 6D0#2B00000422000029
(1655546983.311597) can0 201#06000000400D0300
(1655546983.311787) can0 080#00
(1655546983.312005) can0 181#880000000000
(1655546983.312207) can0 281#001C62020400
(1655546983.312415) can0 381#78020C000400
(1655546983.315245) can0 601#4026200100000000
(1655546983.315611) can0 581#4F2620011C000000
(1655546983.315831) can0 001#000004220000
(1655546983.319405) can0 201#06000000400D0300
(1655546983.319579) can0 080#00
(1655546983.319810) can0 181#880000000000
(1655546983.320013) can0 281#001C62020400
(1655546983.320223) can0 381#78020A000400
(1655546983.323803) can0 001#000004220000
(1655546983.327222) can0 201#06000000400D0300
(1655546983.327398) can0 080#00
(1655546983.327660) can0 181#880000000000
(1655546983.327863) can0 281#001C62020400
(1655546983.328063) can0 381#78020A000600
(1655546983.331878) can0 001#000004220000
(1655546983.332118) can0 6D0#2C0000042200002A
(1655546983.332313) can0 080#061E00A8
(1655546983.332608) can0 1838F380#00031E031C1E0306
(1655546983.332879) can0 1839F380#001C1E1D040306A5
(1655546983.335226) can0 201#06000000400D0300
(1655546983.335399) can0 080#00
(1655546983.335658) can0 181#880000000000
(1655546983.335868) can0 281#001C62020400
(1655546983.336066) can0 381#78020A000600
(1655546983.339798) can0 001#000004220000
(1655546983.340034) can0 6D0#2D00000422001A45
(1655546983.342837) can0 201#06000000400D0300
(1655546983.343014) can0 080#00
(1655546983.343276) can0 181#880000000000
(1655546983.343495) can0 281#001C62020400
(1655546983.343700) can0 381#78020A000400
(1655546983.346833) can0 601#4026200200000000
(1655546983.347223) can0 581#4F26200222000000
(1655546983.347871) can0 001#000004220000
(1655546983.350649) can0 201#06000000400D0300
(1655546983.350824) can0 080#00
(1655546983.351057) can0 181#880000000000
(1655546983.351255) can0 281#001C62020400
(1655546983.351460) can0 381#78020A000600
(1655546983.355796) can0 001#000004220000
(1655546983.356039) can0 6D0#2E00000422006894
(1655546983.358507) can0 201#06000000400D0300
(1655546983.358680) can0 080#00
(1655546983.358912) can0 181#880000000000
(1655546983.359117) can0 281#001C62020400
(1655546983.359324) can0 381#78020A000400
(1655546983.363870) can0 001#000004220000
(1655546983.366329) can0 201#06000000400D0300
(1655546983.366500) can0 080#00
(1655546983.366730) can0 181#880000000000
(1655546983.366935) can0 281#001C62020400
(1655546983.367138) can0 381#78020A000600
(1655546983.371796) can0 001#000004220000
(1655546983.372034) can0 6D0#2F00000422000532
(1655546983.374262) can0 201#06000000400D0300
(1655546983.374436) can0 080#00
(1655546983.374665) can0 181#880000000000
(1655546983.374871) can0 281#001C62020400
(1655546983.375077) can0 381#78020A000400
(1655546983.377693) can0 601#4026200400000000
(1655546983.378072) can0 581#4B26200400000000
(1655546983.379603) can0 601#4020230000000000
(1655546983.379872) can0 001#000004220000
(1655546983.381467) can0 581#8020230000000206
(1655546983.382265) can0 201#06000000400D0300
(1655546983.382429) can0 080#00
(1655546983.382661) can0 181#880000000000
(1655546983.382872) can0 281#001C62020400
(1655546983.383073) can0 381#79020A000400
(1655546983.387797) can0 001#000004220000
(1655546983.388039) can0 6D0#300000042200012F
(1655546983.389877) can0 201#06000000400D0300
(1655546983.390055) can0 080#00
(1655546983.390284) can0 181#880000000000
(1655546983.390490) can0 281#001C62020400
(1655546983.390694) can0 381#79020A000400
(1655546983.395798) can0 001#000004220000
(1655546983.397623) can0 201#06000000400D0300
(1655546983.397800) can0 080#00
(1655546983.398030) can0 181#880000000000
(1655546983.398235) can0 281#001C62020400
(1655546983.398441) can0 381#78020A000400
(1655546983.403866) can0 001#000004220000
(1655546983.405404) can0 201#06000000400D0300
(1655546983.405576) can0 080#00
(1655546983.405836) can0 181#880000000000
(1655546983.406041) can0 281#001C62020400
(1655546983.406251) can0 381#78020A000400
(1655546983.408483) can0 601#4027200000000000
(1655546983.408852) can0 581#4B27200004000000
(1655546983.411798) can0 001#000004220000
(1655546983.412045) can0 6D0#310000042200002F
(1655546983.413326) can0 201#06000000400D0300
(1655546983.413499) can0 080#00
(1655546983.413726) can0 181#880000000000
(1655546983.413947) can0 281#001C62020400
(1655546983.414140) can0 381#79020C000400
(1655546983.419864) can0 001#000004220000
(1655546983.421026) can0 201#06000000400D0300
(1655546983.421235) can0 080#00
(1655546983.421462) can0 181#880000000000
(1655546983.421675) can0 281#001C62020400
(1655546983.421874) can0 381#78020A000400
(1655546983.427793) can0 001#000004220000
(1655546983.428032) can0 6D0#3200000422933F02
(1655546983.428947) can0 201#06000000400D0300
(1655546983.429128) can0 080#00
(1655546983.429392) can0 181#880000000000
(1655546983.429590) can0 281#001C62020400
(1655546983.429800) can0 381#78020A000400
(1655546983.432309) can0 080#051C00A5
(1655546983.432595) can0 1838F380#00061C061C1E0306
(1655546983.432881) can0 1839F380#001C1E1D040306A5
(1655546983.434550) can0 18EEFF80#F30080F300401E90
(1655546983.435873) can0 001#000004220000
(1655546983.436753) can0 201#06000000400D0300
(1655546983.436928) can0 080#00
(1655546983.437194) can0 181#880000000000
(1655546983.437401) can0 281#001C62020400
(1655546983.437607) can0 381#78020A000400
(1655546983.439685) can0 601#4080200B00000000
(1655546983.440092) can0 581#4F80200B00000000
(1655546983.443792) can0 001#000004220000
(1655546983.444028) can0 6D0#330000042293E2A6
(1655546983.444550) can0 201#06000000400D0300
(1655546983.444727) can0 080#00
(1655546983.444964) can0 181#880000000000
(1655546983.445160) can0 281#001C62020400
(1655546983.445370) can0 381#78020A000400
(1655546983.451867) can0 001#000004220000
(1655546983.452101) can0 6D0#340000042293AD72
(1655546983.452355) can0 201#06000000400D0300
(1655546983.452552) can0 080#00
(1655546983.452781) can0 181#880000000000
(1655546983.452987) can0 281#001C62020400
(1655546983.453195) can0 381#78020C000400
(1655546983.459795) can0 001#000004220000
(1655546983.460038) can0 201#06000000400D0300
(1655546983.460154) can0 080#00
(1655546983.460391) can0 6D0#3500000422933F05
(1655546983.460608) can0 181#880000000000
(1655546983.460808) can0 281#001C62020400
(1655546983.461018) can0 381#78020A000400
(1655546983.467814) can0 201#06000000400D0300
(1655546983.468024) can0 001#000004220000
(1655546983.468140) can0 080#00
(1655546983.468349) can0 181#880000000000
(1655546983.468559) can0 281#001C62020400
(1655546983.468763) can0 381#78020A000400
(1655546983.475630) can0 201#06000000400D0300
(1655546983.475867) can0 001#000004220000
(1655546983.475986) can0 080#00
(1655546983.476188) can0 181#880000000000
(1655546983.476397) can0 281#001C62020400
(1655546983.476602) can0 381#78020A000400
(1655546983.483437) can0 201#06000000400D0300
(1655546983.483609) can0 080#00
(1655546983.483821) can0 001#000004220000
(1655546983.484029) can0 181#880000000000
(1655546983.484233) can0 281#001C62020400
(1655546983.484444) can0 381#78020A000400
(1655546983.484682) can0 6D0#360000042293E0A7
(1655546983.486270) can0 601#4026200300000000
(1655546983.486659) can0 581#4B26200300000000
(1655546983.488465) can0 601#4020230000000000
(1655546983.488868) can0 581#8020230000000206
(1655546983.491311) can0 201#06000000400D0300
(1655546983.491472) can0 080#00
(1655546983.491705) can0 181#880000000000
(1655546983.491914) can0 001#000004220000
(1655546983.492115) can0 281#001C62020400
(1655546983.492339) can0 381#78020A000400
(1655546983.499110) can0 201#06000000400D0300
(1655546983.499289) can0 080#00
(1655546983.499520) can0 181#880000000000
(1655546983.499724) can0 281#001C62020400
(1655546983.499933) can0 001#000004220000
(1655546983.500139) can0 381#78020A000600
(1655546983.500370) can0 6D0#370000042293AD75
(1655546983.506885) can0 201#06000000400D0300
(1655546983.507095) can0 080#00
(1655546983.507335) can0 181#880000000000
(1655546983.507529) can0 281#001C62020400
(1655546983.507729) can0 381#78020A000600
(1655546983.507942) can0 001#000004220000
(1655546983.508180) can0 6D0#3800000422002C62
(1655546983.514697) can0 201#06000000400D0300
(1655546983.514871) can0 080#00
(1655546983.515135) can0 181#880000000000
(1655546983.515338) can0 281#001C62020400
(1655546983.515544) can0 381#79020A000400
(1655546983.515788) can0 001#000004220000
(1655546983.516033) can0 6D0#3900000422005F96
(1655546983.516786) can0 601#403F600000000000
(1655546983.517177) can0 581#4B3F60000CFF0000
(1655546983.522503) can0 201#06000000400D0300
(1655546983.522676) can0 080#00
(1655546983.522936) can0 181#880000000000
(1655546983.523140) can0 281#001C62020400
(1655546983.523346) can0 381#78020A000400
(1655546983.523860) can0 001#000004220000
(1655546983.524099) can0 6D0#3A00000422003F77
(1655546983.530322) can0 201#06000000400D0300
(1655546983.530491) can0 080#00
(1655546983.530757) can0 181#880000000000
(1655546983.530956) can0 281#001C62020400
(1655546983.531159) can0 381#78020A000600
(1655546983.531790) can0 001#000004220000
(1655546983.532042) can0 6D0#3B00000422A410ED
(1655546983.532309) can0 080#061E00A8
(1655546983.532593) can0 1838F380#000B1C0B1C1E0306
(1655546983.532881) can0 1839F380#001C1E1D040306A5
(1655546983.538118) can0 201#06000000400D0300
(1655546983.538300) can0 080#00
(1655546983.538555) can0 181#880000000000
(1655546983.538760) can0 281#001C62020400
(1655546983.538964) can0 381#78020A000600
(1655546983.539795) can0 001#000004220000
(1655546983.540032) can0 6D0#3C0000042261A843
(1655546983.545936) can0 201#06000000400D0300
(1655546983.546148) can0 080#00
(1655546983.546376) can0 181#880000000000
(1655546983.546582) can0 281#001C62020400
(1655546983.546789) can0 381#78020A000400
(1655546983.547792) can0 001#000004220000
(1655546983.548554) can0 601#4023200000000000
(1655546983.548924) can0 581#4323200000000000
(1655546983.553791) can0 201#06000000400D0300
(1655546983.553965) can0 080#00
(1655546983.554202) can0 181#880000000000
(1655546983.554407) can0 281#001C62020400
(1655546983.554611) can0 381#79020A000400
(1655546983.555868) can0 001#000004220000
(1655546983.556110) can0 6D0#3D00000422000540
(1655546983.561549) can0 201#06000000400D0300
(1655546983.561721) can0 080#00
(1655546983.561957) can0 181#880000000000
(1655546983.562155) can0 281#001C62020400
(1655546983.562358) can0 381#78020A000600
(1655546983.563792) can0 001#000004220000
(1655546983.564037) can0 6D0#3E00000422000440
(1655546983.569360) can0 201#06000000400D0300
(1655546983.569534) can0 080#00
(1655546983.569763) can0 181#880000000000
(1655546983.569967) can0 281#001C62020400
(1655546983.570173) can0 381#78020A000400
(1655546983.571854) can0 001#000004220000
(1655546983.572098) can0 6D0#3F00000422000542
(1655546983.577177) can0 201#06000000400D0300
(1655546983.577350) can0 080#00
(1655546983.577611) can0 181#880000000000
(1655546983.577815) can0 281#001C62020400
(1655546983.578020) can0 381#78020A000400
(1655546983.578882) can0 601#4025200000000000
(1655546983.579292) can0 581#4F25200000000000
(1655546983.579786) can0 001#000004220000
(1655546983.580026) can0 6D0#4000000422000442
(1655546983.584986) can0 201#06000000400D0300
(1655546983.585163) can0 080#00
(1655546983.585420) can0 181#880000000000
(1655546983.585633) can0 281#001C62020400
(1655546983.585833) can0 381#78020A000600
(1655546983.587859) can0 001#000004220000
(1655546983.588093) can0 6D0#4100000422002A69
(1655546983.592794) can0 201#06000000400D0300
(1655546983.592971) can0 080#00
(1655546983.593239) can0 181#880000000000
(1655546983.593458) can0 281#001C62020400
(1655546983.593647) can0 381#78020A000400
(1655546983.595797) can0 001#000004220000
(1655546983.596024) can0 6D0#4200000422000D4D
(1655546983.596273) can0 601#4020230000000000
(1655546983.596704) can0 581#8020230000000206
(1655546983.600610) can0 201#06000000400D0300
(1655546983.600784) can0 080#00
(1655546983.601044) can0 181#880000000000
(1655546983.601255) can0 281#001C62020400
(1655546983.601457) can0 381#79020A000400
(1655546983.603864) can0 001#000004220000
(1655546983.608413) can0 201#06000000400D0300
(1655546983.608586) can0 080#00
(1655546983.608825) can0 181#880000000000
(1655546983.609022) can0 281#001C62020400
(1655546983.609227) can0 381#78020A000400
(1655546983.610742) can0 601#4026200600000000
(1655546983.611148) can0 581#4F26200600000000
(1655546983.611783) can0 001#000004220000
(1655546983.612027) can0 6D0#4300000422012A6C
(1655546983.616238) can0 201#06000000400D0300
(1655546983.616408) can0 080#00
(1655546983.616671) can0 181#880000000000
(1655546983.616873) can0 281#001C62020400
(1655546983.617082) can0 381#78020C000400
(1655546983.619791) can0 001#000004220000
(1655546983.624034) can0 201#06000000400D0300
(1655546983.624217) can0 080#00
(1655546983.624473) can0 181#880000000000
(1655546983.624683) can0 281#001C62020400
(1655546983.624883) can0 381#79020A000400
(1655546983.627877) can0 001#000004220000
(1655546983.631848) can0 201#06000000400D0300
(1655546983.632030) can0 080#00
(1655546983.632284) can0 181#880000000000
(1655546983.632491) can0 281#001C62020400
(1655546983.632693) can0 381#79020A000400
(1655546983.632984) can0 1839F380#001C1E1D040306A5
(1655546983.633275) can0 1838F380#00001E001C1E0306
(1655546983.633440) can0 080#051C00A5
(1655546983.634904) can0 18EEFF80#F30080F300401E90
(1655546983.635792) can0 001#000004220000
(1655546983.636030) can0 6D0#4400000422023377
(1655546983.639666) can0 201#06000000400D0300
(1655546983.639839) can0 080#00
(1655546983.640059) can0 181#880000000000
(1655546983.640264) can0 281#001C62020400
(1655546983.640468) can0 381#78020A000600
(1655546983.642670) can0 601#4026200500000000
(1655546983.643075) can0 581#4B26200500000000
(1655546983.643862) can0 001#000004220000
(1655546983.644097) can0 6D0#45000004220069AC
(1655546983.647472) can0 201#06000000400D0300
(1655546983.647650) can0 080#00
(1655546983.647875) can0 181#880000000000
(1655546983.648087) can0 281#001C62020400
(1655546983.648287) can0 381#78020A000400
(1655546983.651781) can0 001#000004220000
(1655546983.652027) can0 6D0#46000004220079BD
(1655546983.655278) can0 201#06000000400D0300
(1655546983.655454) can0 080#00
(1655546983.655681) can0 181#880000000000
(1655546983.655895) can0 281#001C62020400
(1655546983.656094) can0 381#78020A000400
(1655546983.659849) can0 001#000004220000
(1655546983.663097) can0 201#06000000400D0300
(1655546983.663277) can0 080#00
(1655546983.663535) can0 181#880000000000
(1655546983.663751) can0 281#001C62020400
(1655546983.663950) can0 381#79020A000400
(1655546983.667781) can0 001#000004220000
(1655546983.668026) can0 6D0#470000042208004D
(1655546983.670903) can0 201#06000000400D0300
(1655546983.671097) can0 080#00
(1655546983.671342) can0 181#880000000000
(1655546983.671553) can0 281#001C62020400
(1655546983.671758) can0 381#78020A000400
(1655546983.673992) can0 601#4026200700000000
(1655546983.674365) can0 581#4F26200700000000
(1655546983.675848) can0 001#000004220000
(1655546983.678716) can0 201#06000000400D0300
(1655546983.678893) can0 080#00
(1655546983.679159) can0 181#880000000000
(1655546983.679359) can0 281#001C62020400
(1655546983.679566) can0 381#78020A000400
(1655546983.683779) can0 001#000004220000
(1655546983.684023) can0 6D0#480000042208014F
(1655546983.686590) can0 201#06000000400D0300
(1655546983.686766) can0 080#00
(1655546983.687023) can0 181#880000000000
(1655546983.687244) can0 281#001C62020400
(1655546983.687436) can0 381#78020A000400
(1655546983.691781) can0 001#000004220000
(1655546983.694338) can0 201#06000000400D0300
(1655546983.694516) can0 080#00
(1655546983.694747) can0 181#880000000000
(1655546983.694947) can0 281#001C62020400
(1655546983.695148) can0 381#78020A000600
(1655546983.699849) can0 001#000004220000
(1655546983.702272) can0 201#06000000400D0300
(1655546983.702440) can0 080#00
(1655546983.702666) can0 181#880000000000
(1655546983.702873) can0 281#001C62020400
(1655546983.703086) can0 381#78020A000400
(1655546983.704723) can0 601#4020230000000000
(1655546983.705139) can0 581#8020230000000206
(1655546983.705395) can0 601#4026200100000000
(1655546983.705744) can0 581#4F2620011C000000
(1655546983.707784) can0 001#000004220000
(1655546983.708021) can0 6D0#4900000422000047
(1655546983.710147) can0 201#06000000400D0300
(1655546983.710320) can0 080#00
(1655546983.710555) can0 181#880000000000
(1655546983.710752) can0 281#001C62020400
(1655546983.710968) can0 381#78020A000400
(1655546983.715849) can0 001#000004220000
(1655546983.717847) can0 201#06000000400D0300
(1655546983.718054) can0 080#00
(1655546983.718283) can0 181#880000000000
(1655546983.718488) can0 281#001C62020400
(1655546983.718696) can0 381#78020A000400
(1655546983.723788) can0 001#000004220000
(1655546983.724018) can0 6D0#4A0000042207F140
(1655546983.725767) can0 201#06000000400D0300
(1655546983.725929) can0 080#00
(1655546983.726162) can0 181#880000000000
(1655546983.726379) can0 281#001C62020400
(1655546983.726574) can0 381#78020A000400
(1655546983.731858) can0 001#000004220000
(1655546983.732310) can0 080#061E00A8
(1655546983.732593) can0 1838F380#00031E031C1E0306
(1655546983.732878) can0 1839F380#001C1E1D040306A5
(1655546983.733865) can0 201#06000000400D0300
(1655546983.734049) can0 080#00
(1655546983.734275) can0 181#880000000000
(1655546983.734481) can0 281#001C62020400
(1655546983.734686) can0 381#78020A000400
(1655546983.736845) can0 601#4026200200000000
(1655546983.737237) can0 581#4F26200222000000
(1655546983.739778) can0 001#000004220000
(1655546983.740018) can0 6D0#4B0000042207F747
(1655546983.741394) can0 201#06000000400D0300
(1655546983.741568) can0 080#00
(1655546983.741826) can0 181#880000000000
(1655546983.742032) can0 281#001C62020400
(1655546983.742240) can0 381#78020A000400
(1655546983.747850) can0 001#000004220000
(1655546983.749091) can0 201#06000000400D0300
(1655546983.749298) can0 080#00
(1655546983.749526) can0 181#880000000000
(1655546983.749733) can0 281#001C62020400
(1655546983.749937) can0 381#78020A000400
(1655546983.755778) can0 001#000004220000
(1655546983.756016) can0 6D0#4C000004220898EA
(1655546983.756999) can0 201#06000000400D0300
(1655546983.757177) can0 080#00
(1655546983.757406) can0 181#880000000000
(1655546983.757615) can0 281#001C62020400
(1655546983.757816) can0 381#79020A000400
(1655546983.763787) can0 001#000004220000
(1655546983.764713) can0 201#06000000400D0300
(1655546983.764886) can0 080#00
(1655546983.765150) can0 181#880000000000
(1655546983.765356) can0 281#001C62020400
(1655546983.765560) can0 381#78020A000400
(1655546983.767700) can0 601#4054200000000000
(1655546983.768053) can0 581#4B54200078000000
(1655546983.771848) can0 001#000004220000
(1655546983.772558) can0 201#06000000400D0300
(1655546983.772731) can0 080#00
(1655546983.772958) can0 181#880000000000
(1655546983.773164) can0 281#001C62020400
(1655546983.773366) can0 381#79020A000400
(1655546983.779781) can0 001#000004220000
(1655546983.780017) can0 6D0#4D00000422076CBE
(1655546983.780424) can0 201#06000000400D0300
(1655546983.780603) can0 080#00
(1655546983.780833) can0 181#880000000000
(1655546983.781037) can0 281#001C62020400
(1655546983.781244) can0 381#78020C000400
(1655546983.787852) can0 001#000004220000
(1655546983.788092) can0 201#06000000400D0300
(1655546983.788214) can0 080#00
(1655546983.788454) can0 6D0#4E0000042200014D
(1655546983.788658) can0 181#880000000000
(1655546983.788863) can0 281#001C62020400
(1655546983.789068) can0 381#78020A000400
(1655546983.795775) can0 001#000004220000
(1655546983.796023) can0 201#06000000400D0300
(1655546983.796138) can0 080#00
(1655546983.796374) can0 6D0#4F0000042290E1BE
(1655546983.796583) can0 181#880000000000
(1655546983.796792) can0 281#001C62020400
(1655546983.796990) can0 381#78020A000600
(1655546983.799089) can0 601#4070200100000000
(1655546983.799466) can0 581#4B70200178020000
(1655546983.803708) can0 201#06000000400D0300
(1655546983.803917) can0 001#000004220000
(1655546983.804035) can0 080#00
(1655546983.804243) can0 181#880000000000
(1655546983.804449) can0 281#001C62020400
(1655546983.804657) can0 381#78020A000400
(1655546983.811509) can0 201#06000000400D0300
(1655546983.811685) can0 080#00
(1655546983.811890) can0 001#000004220000
(1655546983.812122) can0 181#880000000000
(1655546983.812305) can0 281#001C62020400
(1655546983.812512) can0 381#78020A000400
(1655546983.812751) can0 6D0#50000004224F31CE
(1655546983.814574) can0 601#4020230000000000
(1655546983.814973) can0 581#8020230000000206
(1655546983.819321) can0 201#06000000400D0300
(1655546983.819496) can0 080#00
(1655546983.819771) can0 181#880000000000
(1655546983.819962) can0 001#000004220000
(1655546983.820165) can0 281#001C62020400
(1655546983.820384) can0 381#78020A000400
(1655546983.820607) can0 6D0#51000004222131A1
(1655546983.827176) can0 201#06000000400D0300
(1655546983.827349) can0 080#00
(1655546983.827583) can0 181#880000000000
(1655546983.827787) can0 001#000004220000
(1655546983.827992) can0 281#001C62020400
(1655546983.828197) can0 381#780209000400
(1655546983.828437) can0 6D0#5200000422000050
(1655546983.831068) can0 601#4026200400000000
(1655546983.831445) can0 581#4B26200400000000
(1655546983.832293) can0 080#051C00A5
(1655546983.832578) can0 1838F380#00061C061C1E0306
(1655546983.832864) can0 1839F380#001C1E1D040306A5
(1655546983.833151) can0 18EEFF80#F30080F300401E90
(1655546983.835307) can0 201#06000000400D0300
(1655546983.835477) can0 080#00
(1655546983.835699) can0 181#880000000000
(1655546983.835920) can0 001#000004220000
(1655546983.836116) can0 281#001C62020400
(1655546983.836328) can0 381#78020A000400
(1655546983.842798) can0 201#06000000400D0300
(1655546983.842974) can0 080#00
(1655546983.843209) can0 181#880000000000
(1655546983.843412) can0 281#001C62020400
(1655546983.843617) can0 381#79020A000400
(1655546983.843843) can0 001#000004220000
(1655546983.850573) can0 201#06000000400D0300
(1655546983.850747) can0 080#00
(1655546983.851006) can0 181#880000000000
(1655546983.851212) can0 281#001C62020400
(1655546983.851418) can0 381#78020A000400
(1655546983.851779) can0 001#000004220000
(1655546983.852011) can0 6D0#5300000422000051
(1655546983.858385) can0 201#06000000400D0300
(1655546983.858558) can0 080#00
(1655546983.858815) can0 181#880000000000
(1655546983.859020) can0 281#001C62020400
(1655546983.859232) can0 381#78020A000400
(1655546983.859843) can0 001#000004220000
(1655546983.862429) can0 601#4027200000000000
(1655546983.862807) can0 581#4B27200004000000
(1655546983.866195) can0 201#06000000400D0300
(1655546983.866370) can0 080#00
(1655546983.866626) can0 181#880000000000
(1655546983.866832) can0 281#001C62020400
(1655546983.867034) can0 381#79020A000600
(1655546983.867771) can0 001#000004220000
(1655546983.868012) can0 6D0#540000042202368A
(1655546983.874008) can0 201#06000000400D0300
(1655546983.874216) can0 080#00
(1655546983.874446) can0 181#880000000000
(1655546983.874651) can0 281#001C62020400
(1655546983.874857) can0 381#79020A000400
(1655546983.875842) can0 001#000004220000
(1655546983.881819) can0 201#06000000400D0300
(1655546983.882031) can0 080#00
(1655546983.882255) can0 181#880000000000
(1655546983.882463) can0 281#001C62020400
(1655546983.882667) can0 381#78020C000600
(1655546983.883774) can0 001#000004220000
(1655546983.884013) can0 6D0#5500000422000053
(1655546983.889638) can0 201#06000000400D0300
(1655546983.889804) can0 080#00
(1655546983.890061) can0 181#880000000000
(1655546983.890266) can0 281#001C62020400
(1655546983.890480) can0 381#79020A000400
(1655546983.891843) can0 001#000004220000
(1655546983.893826) can0 601#4025200000000000
(1655546983.894195) can0 581#4F25200000000000
(1655546983.897434) can0 201#06000000400D0300
(1655546983.897606) can0 080#00
(1655546983.897869) can0 181#880000000000
(1655546983.898072) can0 281#001C62020400
(1655546983.898287) can0 381#78020A000400
(1655546983.899771) can0 001#000004220000
(1655546983.900010) can0 6D0#5600000422000054
(1655546983.905243) can0 201#06000000400D0300
(1655546983.905420) can0 080#00
(1655546983.905677) can0 181#880000000000
(1655546983.905883) can0 281#001C62020400
(1655546983.906088) can0 381#78020A000400
(1655546983.907775) can0 001#000004220000
(1655546983.908013) can0 6D0#5700000422000055
(1655546983.913048) can0 201#06000000400D0300
(1655546983.913229) can0 080#00
(1655546983.913484) can0 181#880000000000
(1655546983.913691) can0 281#001C62020400
(1655546983.913895) can0 381#78020A000600
(1655546983.915779) can0 001#000004220000
(1655546983.920886) can0 201#06000000400D0300
(1655546983.921087) can0 080#00
(1655546983.921312) can0 181#880000000000
(1655546983.921520) can0 281#001C62020400
(1655546983.921732) can0 381#78020A000400
(1655546983.923101) can0 601#4020230000000000
(1655546983.923483) can0 581#8020230000000206
(1655546983.923858) can0 001#000004220000
(1655546983.924084) can0 6D0#5800000422FFD82D
(1655546983.924327) can0 601#4026200300000000
(1655546983.924695) can0 581#4B26200300000000
(1655546983.928680) can0 201#06000000400D0300
(1655546983.928853) can0 080#00
(1655546983.929113) can0 181#880000000000
(1655546983.929329) can0 281#001C62020400
(1655546983.929531) can0 381#78020A000400
(1655546983.931772) can0 001#000004220000
(1655546983.932012) can0 6D0#5900000422000057
(1655546983.932312) can0 080#061E00A8
(1655546983.932587) can0 1838F380#000B1C0B1C1E0306
(1655546983.932869) can0 1839F380#001C1E1D040306A5
(1655546983.936479) can0 201#06000000400D0300
(1655546983.936653) can0 080#00
(1655546983.936881) can0 181#880000000000
(1655546983.937092) can0 281#001C62020400
(1655546983.937292) can0 381#78020A000600
(1655546983.939846) can0 001#000004220000
(1655546983.940084) can0 6D0#5A00000422000058
(1655546983.944301) can0 201#06000000400D0300
(1655546983.944467) can0 080#00
(1655546983.944693) can0 181#880000000000
(1655546983.944906) can0 281#001C62020400
(1655546983.945115) can0 381#78020A000400
(1655546983.947767) can0 001#000004220000
(1655546983.948009) can0 6D0#5B00000422000059
(1655546983.952106) can0 201#06000000400D0300
(1655546983.952288) can0 080#00
(1655546983.952544) can0 181#880000000000
(1655546983.952749) can0 281#001C62020400
(1655546983.952955) can0 381#78020A000400
(1655546983.954959) can0 601#403F600000000000
(1655546983.955338) can0 581#4B3F60000CFF0000
(1655546983.955842) can0 001#000004220000
(1655546983.956089) can0 6D0#5C0000042200005A
(1655546983.959918) can0 201#06000000400D0300
(1655546983.960098) can0 080#00
(1655546983.960359) can0 181#880000000000
(1655546983.960557) can0 281#001C62020400
(1655546983.960771) can0 381#78020A000400
(1655546983.963771) can0 001#000004220000
(1655546983.964010) can0 6D0#5D0000042200005B
(1655546983.967733) can0 201#06000000400D0300
(1655546983.967898) can0 080#00
(1655546983.968162) can0 181#880000000000
(1655546983.968369) can0 281#001C62020400
(1655546983.968573) can0 381#78020A000400
(1655546983.971838) can0 001#000004220000
(1655546983.975539) can0 201#06000000400D0300
(1655546983.975710) can0 080#00
(1655546983.975938) can0 181#880000000000
(1655546983.976145) can0 281#001C62020400
(1655546983.976350) can0 381#78020A000400
(1655546983.979767) can0 001#000004220000
(1655546983.980006) can0 6D0#5E0000042200005C
(1655546983.983349) can0 201#06000000400D0300
(1655546983.983519) can0 080#00
(1655546983.983749) can0 181#880000000000
(1655546983.983954) can0 281#001C62020400
(1655546983.984172) can0 381#78020A000400
(1655546983.987049) can0 601#4023200000000000
(1655546983.987426) can0 581#4323200000000000
(1655546983.987775) can0 001#000004220000
(1655546983.991169) can0 201#06000000400D0300
(1655546983.991343) can0 080#00
(1655546983.991601) can0 181#880000000000
(1655546983.991807) can0 281#001C62020400
(1655546983.992011) can0 381#78020C000600
(1655546983.995766) can0 001#000004220000
(1655546983.998970) can0 201#06000000400D0300
(1655546983.999148) can0 080#00
(1655546983.999406) can0 181#880000000000
(1655546983.999613) can0 281#001C62020400
(1655546983.999818) can0 381#78020A000400
(1655546984.003844) can0 001#000004220000
(1655546984.004077) can0 6D0#5F0000042200005D
(1655546984.006779) can0 201#06000000400D0300
(1655546984.006954) can0 080#00
(1655546984.007220) can0 181#880000000000
(1655546984.007425) can0 281#001C62020400
(1655546984.007632) can0 381#78020A000400
(1655546984.011764) can0 001#000004220000
(1655546984.012005) can0 6D0#600000042200005E
(1655546984.014633) can0 201#06000000400D0300
(1655546984.014764) can0 080#00
(1655546984.014995) can0 181#880000000000
(1655546984.015199) can0 281#001C62020400
(1655546984.015400) can0 381#78020A000600
(1655546984.018381) can0 601#4026200600000000
(1655546984.018762) can0 581#4F26200600000000
(1655546984.019836) can0 001#000004220000
(1655546984.020096) can0 6D0#610000042200005F
(1655546984.022514) can0 201#06000000400D0300
(1655546984.022689) can0 080#00
(1655546984.022916) can0 181#880000000000
(1655546984.023121) can0 281#001C62020400
(1655546984.023328) can0 381#78020C000600
(1655546984.027773) can0 001#000004220000
(1655546984.028012) can0 6D0#6200000422000060
(1655546984.030331) can0 201#06000000400D0300
(1655546984.030510) can0 080#00
(1655546984.030738) can0 181#880000000000
(1655546984.030941) can0 281#001C62020400
(1655546984.031154) can0 381#78020C000400
(1655546984.032302) can0 080#051C00A5
(1655546984.032585) can0 1838F380#00001E001C1E0306
(1655546984.032871) can0 1839F380#001C1E1D040306A5
(1655546984.034535) can0 18EEFF80#F30080F300401E90
(1655546984.034771) can0 601#4020230000000000
(1655546984.035161) can0 581#8020230000000206
(1655546984.035850) can0 001#000004220000
(1655546984.036088) can0 6D0#6300000422000061
(1655546984.038207) can0 201#06000000400D0300
(1655546984.038395) can0 080#00
(1655546984.038609) can0 181#880000000000
(1655546984.038818) can0 281#001C62020400
(1655546984.039025) can0 381#78020A000400
(1655546984.043763) can0 001#000004220000
(1655546984.044004) can0 6D0#6400000422000062
(1655546984.046007) can0 201#06000000400D0300
(1655546984.046187) can0 080#00
(1655546984.046413) can0 181#880000000000
(1655546984.046621) can0 281#001C62020400
(1655546984.046827) can0 381#79020A000400
(1655546984.048999) can0 601#4026200500000000
(1655546984.049363) can0 581#4B26200500000000
(1655546984.051833) can0 001#000004220000
(1655546984.052072) can0 6D0#6500000422000063
(1655546984.053829) can0 201#06000000400D0300
(1655546984.054006) can0 080#00
(1655546984.054233) can0 181#880000000000
(1655546984.054438) can0 281#001C62020400
(1655546984.054645) can0 381#78020A000400
(1655546984.059765) can0 001#000004220000
(1655546984.060005) can0 6D0#6600000422000064
(1655546984.061632) can0 201#06000000400D0300
(1655546984.061806) can0 080#00
(1655546984.062035) can0 181#880000000000
(1655546984.062240) can0 281#001C62020400
(1655546984.062444) can0 381#79020A000400
(1655546984.067773) can0 001#000004220000
(1655546984.069377) can0 201#06000000400D0300
(1655546984.069523) can0 080#00
(1655546984.069778) can0 181#880000000000
(1655546984.069984) can0 281#001C62020400
(1655546984.070184) can0 381#78020A000600
(1655546984.075772) can0 001#000004220000
(1655546984.077194) can0 201#06000000400D0300
(1655546984.077369) can0 080#00
(1655546984.077594) can0 181#880000000000
(1655546984.077802) can0 281#001C62020400
(1655546984.078007) can0 381#78020A000400
(1655546984.080961) can0 601#4026200700000000
(1655546984.081334) can0 581#4F26200700000000
(1655546984.083834) can0 001#000004220000
(1655546984.084075) can0 6D0#6700000422FFFF63
(1655546984.085073) can0 201#06000000400D0300
(1655546984.085251) can0 080#00
(1655546984.085479) can0 181#880000000000
(1655546984.085684) can0 281#001C62020400
(1655546984.085891) can0 381#78020A000400
(1655546984.091766) can0 001#000004220000
(1655546984.092778) can0 201#06000000400D0300
(1655546984.092954) can0 080#00
(1655546984.093216) can0 181#880000000000
(1655546984.093422) can0 281#001C62020400
(1655546984.093627) can0 381#78020A000400
(1655546984.099762) can0 001#000004220000
(1655546984.100001) can0 6D0#6E000004220040AC
(1655546984.100687) can0 201#06000000400D0300
(1655546984.100864) can0 080#00
(1655546984.101098) can0 181#880000000000
(1655546984.101306) can0 281#001C62020400
(1655546984.101507) can0 381#78020A000600
(1655546984.107830) can0 001#000004220000
(1655546984.108400) can0 201#06000000400D0300
(1655546984.108565) can0 080#00
(1655546984.108824) can0 181#880000000000
(1655546984.109030) can0 281#001C62020400
(1655546984.109235) can0 381#79020C000400
(1655546984.112180) can0 601#4026200100000000
(1655546984.112581) can0 581#4F2620011C000000
(1655546984.115762) can0 001#000004220000
(1655546984.116251) can0 201#06000000400D0300
(1655546984.116424) can0 080#00
(1655546984.116652) can0 181#880000000000
(1655546984.116858) can0 281#001C62020400
(1655546984.117060) can0 381#78020A000600
(1655546984.123769) can0 001#000004220000
(1655546984.124014) can0 201#06000000400D0300
(1655546984.124250) can0 6D0#730000042208017A
(1655546984.124364) can0 080#00
(1655546984.124614) can0 181#880000000000
(1655546984.124778) can0 281#001C62020400
(1655546984.124980) can0 381#78020A000600
(1655546984.131767) can0 201#06000000400D0300
(1655546984.131969) can0 001#000004220000
(1655546984.132097) can0 080#00
(1655546984.132295) can0 181#880000000000
(1655546984.132501) can0 281#001C62020400
(1655546984.132706) can0 381#78020A000400
(1655546984.133005) can0 1839F380#001C1E1D040306A5
(1655546984.133285) can0 1838F380#00031E031C1E0306
(1655546984.133443) can0 080#061E00A8
(1655546984.139581) can0 201#06000000400D0300
(1655546984.139792) can0 001#000004220000
(1655546984.139913) can0 080#00
(1655546984.140118) can0 181#880000000000
(1655546984.140327) can0 281#001C62020400
(1655546984.140532) can0 381#78020A000400
(1655546984.143149) can0 601#4026200200000000
(1655546984.143526) can0 581#4F26200222000000
(1655546984.144486) can0 601#4020230000000000
(1655546984.144870) can0 581#8020230000000206
(1655546984.147395) can0 201#06000000400D0300
(1655546984.147565) can0 080#00
(1655546984.147775) can0 001#000004220000
(1655546984.147991) can0 181#880000000000
(1655546984.148215) can0 281#001C62020400
(1655546984.148395) can0 381#78020A000400
(1655546984.148641) can0 6D0#740000042208017B
(1655546984.155246) can0 201#06000000400D0300
(1655546984.155415) can0 080#00
(1655546984.155644) can0 181#880000000000
(1655546984.155853) can0 001#000004220000
(1655546984.156062) can0 281#001C62020400
(1655546984.156264) can0 381#78020A000600
(1655546984.163049) can0 201#06000000400D0300
(1655546984.163227) can0 080#00
(1655546984.163459) can0 181#880000000000
(1655546984.163662) can0 281#001C62020400
(1655546984.163871) can0 001#000004220000
(1655546984.164079) can0 381#78020A000400
(1655546984.170863) can0 201#06000000400D0300
(1655546984.171042) can0 080#00
(1655546984.171272) can0 181#880000000000
(1655546984.171477) can0 281#001C62020400
(1655546984.171682) can0 381#78020A000400
(1655546984.171894) can0 001#000004220000
(1655546984.172132) can0 6D0#7500000422000073
(1655546984.175107) can0 601#4054200000000000
(1655546984.175489) can0 581#4B54200078000000
(1655546984.178663) can0 201#06000000400D0300
(1655546984.178805) can0 080#00
(1655546984.179078) can0 181#880000000000
(1655546984.179272) can0 281#001C62020400
(1655546984.179475) can0 381#78020A000400
(1655546984.179836) can0 001#000004220000
(1655546984.180080) can0 6D0#7600000422000074
(1655546984.186450) can0 201#06000000400D0300
(1655546984.186624) can0 080#00
(1655546984.186884) can0 181#880000000000
(1655546984.187087) can0 281#001C62020400
(1655546984.187295) can0 381#78020A000400
(1655546984.187756) can0 001#000004220000
(1655546984.188001) can0 6D0#7700000422000075
(1655546984.194260) can0 201#06000000400D0300
(1655546984.194434) can0 080#00
(1655546984.194692) can0 181#880000000000
(1655546984.194896) can0 281#001C62020400
(1655546984.195106) can0 381#78020C000400
(1655546984.195758) can0 001#000004220000
(1655546984.195996) can0 6D0#7800000422000076
(1655546984.202112) can0 201#06000000400D0300
(1655546984.202288) can0 080#00
(1655546984.202513) can0 181#880000000000
(1655546984.202721) can0 281#001C62020400
(1655546984.202929) can0 381#79020A000400
(1655546984.203833) can0 001#000004220000
(1655546984.204070) can0 6D0#7900000422000077
(1655546984.205674) can0 601#4025200000000000
(1655546984.206079) can0 581#4F25200000000000
(1655546984.209884) can0 201#06000000400D0300
(1655546984.210054) can0 080#00
(1655546984.210326) can0 181#880000000000
(1655546984.210519) can0 281#001C62020400
(1655546984.210718) can0 381#78020A000600
(1655546984.211756) can0 001#000004220000
(1655546984.211995) can0 6D0#7A00000422000078
(1655546984.217697) can0 201#06000000400D0300
(1655546984.217868) can0 080#00
(1655546984.218135) can0 181#880000000000
(1655546984.218343) can0 281#001C62020400
(1655546984.218547) can0 381#78020A000400
(1655546984.219823) can0 001#000004220000
(1655546984.220069) can0 6D0#7B0000042200037C
(1655546984.225493) can0 201#06000000400D0300
(1655546984.225665) can0 080#00
(1655546984.225906) can0 181#880000000000
(1655546984.226101) can0 281#001C62020400
(1655546984.226300) can0 381#78020A000600
(1655546984.227754) can0 001#000004220000
(1655546984.227996) can0 6D0#7C00000422000680
(1655546984.232343) can0 080#051C00A5
(1655546984.232637) can0 1838F380#00061C061C1E0306
(1655546984.232916) can0 1839F380#001C1E1D040306A5
(1655546984.233206) can0 18EEFF80#F30080F300401E90
(1655546984.233790) can0 201#06000000400D0300
(1655546984.233966) can0 080#00
(1655546984.234231) can0 181#880000000000
(1655546984.234439) can0 281#001C62020400
(1655546984.234645) can0 381#78020A000400
(1655546984.235765) can0 001#000004220000
(1655546984.237198) can0 601#4026200600000000
(1655546984.237572) can0 581#4F26200600000000
(1655546984.241162) can0 201#06000000400D0300
(1655546984.241333) can0 080#00
(1655546984.241577) can0 181#880000000000
(1655546984.241767) can0 281#001C62020400
(1655546984.241972) can0 381#78020A000400
(1655546984.243767) can0 001#000004220000
(1655546984.248923) can0 201#06000000400D0300
(1655546984.249102) can0 080#00
(1655546984.249363) can0 181#880000000000
(1655546984.249568) can0 281#001C62020400
(1655546984.249780) can0 381#78020A000400
(1655546984.251837) can0 001#000004220000
(1655546984.252070) can0 6D0#7D000004220030AB
(1655546984.254532) can0 601#4020230000000000
(1655546984.256294) can0 581#8020230000000206
(1655546984.257005) can0 201#06000000400D0300
(1655546984.257178) can0 080#00
(1655546984.257433) can0 181#880000000000
(1655546984.257646) can0 281#001C62020400
(1655546984.257844) can0 381#79020A000400
(1655546984.259760) can0 001#000004220000
(1655546984.260001) can0 6D0#7E0000042200007C
(1655546984.264544) can0 201#06000000400D0300
(1655546984.264719) can0 080#00
(1655546984.264949) can0 181#880000000000
(1655546984.265154) can0 281#001C62020400
(1655546984.265357) can0 381#78020A000400
(1655546984.267823) can0 001#000004220000
(1655546984.268978) can0 601#4026200300000000
(1655546984.269352) can0 581#4B26200300000000
(1655546984.272365) can0 201#06000000400D0300
(1655546984.272539) can0 080#00
(1655546984.272796) can0 181#880000000000
(1655546984.273005) can0 281#001C62020400
(1655546984.273211) can0 381#78020C000400
(1655546984.275751) can0 001#000004220000
(1655546984.275988) can0 6D0#7F0000042202EE6D
(1655546984.280176) can0 201#06000000400D0300
(1655546984.280348) can0 080#00
(1655546984.280605) can0 181#880000000000
(1655546984.280813) can0 281#001C62020400
(1655546984.281018) can0 381#78020A000400
(1655546984.283821) can0 001#000004220000
(1655546984.287979) can0 201#06000000400D0300
(1655546984.288158) can0 080#00
(1655546984.288383) can0 181#880000000000
(1655546984.288596) can0 281#001C62020400
(1655546984.288798) can0 381#78020A000400
(1655546984.291752) can0 001#000004220000
(1655546984.291997) can0 6D0#800000042200007E
(1655546984.295789) can0 201#06000000400D0300
(1655546984.295966) can0 080#00
(1655546984.296207) can0 181#880000000000
(1655546984.296416) can0 281#001C62020400
(1655546984.296611) can0 381#78020C000400
(1655546984.299825) can0 001#000004220000
(1655546984.300078) can0 6D0#0000000422010302
(1655546984.300968) can0 601#4026200400000000
(1655546984.301340) can0 581#4B26200400000000
(1655546984.303614) can0 201#06000000400D0300
(1655546984.303790) can0 080#00
(1655546984.304061) can0 181#880000000000
(1655546984.304254) can0 281#001C62020400
(1655546984.304457) can0 381#78020A000600
(1655546984.304954) can0 200#05009B009B000000
(1655546984.307753) can0 001#000004220000
(1655546984.308000) can0 6D0#0100000422060308
(1655546984.311411) can0 201#06000000400D0300
(1655546984.311591) can0 080#00
(1655546984.311814) can0 181#880000000000
(1655546984.312023) can0 281#001C62020400
(1655546984.312241) can0 381#79020C000400
(1655546984.315756) can0 001#000004220000
(1655546984.316013) can0 6D0#0200000422057A7F
(1655546984.319224) can0 201#06000000400D0300
(1655546984.319403) can0 080#00
(1655546984.319626) can0 181#880000000000
(1655546984.319844) can0 281#001C62020400
(1655546984.320049) can0 381#78020A000400
(1655546984.323751) can0 001#000004220000
(1655546984.327048) can0 201#06000000400D0300
(1655546984.327219) can0 080#00
(1655546984.327479) can0 181#880000000000
(1655546984.327684) can0 281#001C62020400
(1655546984.327887) can0 381#78020A000400
(1655546984.331823) can0 001#000004220000
(1655546984.332070) can0 601#4026200500000000
(1655546984.332307) can0 6D0#0300000422240328
(1655546984.332554) can0 581#4B26200500000000
(1655546984.332826) can0 1839F380#001C1E1D040306A5
(1655546984.333124) can0 1838F380#000B1C0B1C1E0306
(1655546984.333278) can0 080#061E00A8
(1655546984.335223) can0 201#06000000400D0300
(1655546984.335400) can0 080#00
(1655546984.335657) can0 181#880000000000
(1655546984.335861) can0 281#001C62020400
(1655546984.336065) can0 381#79020A000400
(1655546984.339752) can0 001#000004220000
(1655546984.340006) can0 6D0#0400000422006B6D
(1655546984.342658) can0 201#06000000400D0300
(1655546984.342832) can0 080#00
(1655546984.343097) can0 181#880000000000
(1655546984.343301) can0 281#001C62020400
(1655546984.343517) can0 381#78020A000600
(1655546984.347818) can0 001#000004220000
(1655546984.348076) can0 6D0#0500000422000003
(1655546984.350516) can0 201#06000000400D0300
(1655546984.350691) can0 080#00
(1655546984.350917) can0 181#880000000000
(1655546984.351124) can0 281#001C62020400
(1655546984.351329) can0 381#78020A000400
(1655546984.355747) can0 001#000004220000
(1655546984.356002) can0 6D0#0600000422003034
(1655546984.358355) can0 201#06000000400D0300
(1655546984.358530) can0 080#00
(1655546984.358790) can0 181#880000000000
(1655546984.358993) can0 281#001C62020400
(1655546984.359198) can0 381#78020A000600
(1655546984.362966) can0 601#4070200100000000
(1655546984.363334) can0 581#4B70200178020000
(1655546984.363827) can0 001#000004220000
(1655546984.365109) can0 601#4020230000000000
(1655546984.365716) can0 581#8020230000000206
(1655546984.366464) can0 201#06000000400D0300
(1655546984.366641) can0 080#00
(1655546984.366857) can0 181#880000000000
(1655546984.367065) can0 281#001C62020400
(1655546984.367293) can0 381#78020A000600
(1655546984.371755) can0 001#000004220000
(1655546984.371989) can0 6D0#0700000422001C21
(1655546984.374036) can0 201#06000000400D0300
(1655546984.374248) can0 080#00
(1655546984.374478) can0 181#880000000000
(1655546984.374686) can0 281#001C62020400
(1655546984.374886) can0 381#780209000600
(1655546984.379823) can0 001#000004220000
(1655546984.381818) can0 201#06000000400D0300
(1655546984.381998) can0 080#00
(1655546984.382224) can0 181#880000000000
(1655546984.382437) can0 281#001C62020400
(1655546984.382638) can0 381#78020A000400
(1655546984.387749) can0 001#000004220000
(1655546984.387985) can0 6D0#080000042200F7FD
(1655546984.389695) can0 201#06000000400D0300
(1655546984.389871) can0 080#00
(1655546984.390102) can0 181#880000000000
(1655546984.390307) can0 281#001C62020400
(1655546984.390517) can0 381#78020C000400
(1655546984.393791) can0 601#4027200000000000
(1655546984.394165) can0 581#4B27200004000000
(1655546984.395755) can0 001#000004220000
(1655546984.397448) can0 201#06000000400D0300
(1655546984.397623) can0 080#00
(1655546984.397850) can0 181#880000000000
(1655546984.398054) can0 281#001C62020400
(1655546984.398258) can0 381#78020A000600
(1655546984.403828) can0 001#000004220000
(1655546984.405264) can0 201#06000000400D0300
