(1655539396.886359) can0 201#0F000000400D0300
(1655539396.886544) can0 080#00
(1655539396.886770) can0 181#2700C9010000
(1655539396.886956) can0 281#001774040000
(1655539396.887177) can0 381#79020C000600
(1655539396.889509) can0 001#000404760000
(1655539396.889714) can0 6D0#52FFFC047600009F
(1655539396.894164) can0 201#0F000000400D0300
(1655539396.894339) can0 080#00
(1655539396.894560) can0 181#2700C7010000
(1655539396.894770) can0 281#001774040000
(1655539396.894978) can0 381#79020A000600
(1655539396.897491) can0 001#000404760000
(1655539396.901975) can0 201#0F000000400D0300
(1655539396.902110) can0 080#00
(1655539396.902368) can0 181#2700C3010000
(1655539396.902565) can0 281#001774040000
(1655539396.902769) can0 381#79020D000600
(1655539396.905483) can0 001#000404760000
(1655539396.909789) can0 201#0F000000400D0300
(1655539396.909964) can0 080#00
(1655539396.910188) can0 181#2700C2010000
(1655539396.910389) can0 281#001774040000
(1655539396.910594) can0 381#79020C000600
(1655539396.913547) can0 001#000504760000
(1655539396.913793) can0 6D0#53FFFB047600009F
(1655539396.917566) can0 201#0F000000400D0300
(1655539396.917738) can0 080#00
(1655539396.917990) can0 181#2700BE010000
(1655539396.918194) can0 281#001774040000
(1655539396.918398) can0 381#79020A000600
(1655539396.921483) can0 001#000304760000
(1655539396.921728) can0 6D0#54FFFD04760236DA
(1655539396.925415) can0 201#0F000000400D0300
(1655539396.925593) can0 080#00
(1655539396.925812) can0 181#2700BC010000
(1655539396.926016) can0 281#001774040000
(1655539396.926219) can0 381#79020D000600
(1655539396.929550) can0 001#000404760000
(1655539396.933218) can0 201#0F000000400D0300
(1655539396.933368) can0 080#00
(1655539396.933618) can0 181#2700BE010000
(1655539396.933825) can0 281#001774040000
(1655539396.934027) can0 381#79020A000600
(1655539396.937476) can0 001#000404760000
(1655539396.937728) can0 6D0#55FFFC04760000A2
(1655539396.939623) can0 080#061800A2
(1655539396.939932) can0 1838F380#000B180B18180303
(1655539396.940196) can0 1839F380#0018181804030393
(1655539396.941359) can0 201#0F000000400D0300
(1655539396.941544) can0 080#00
(1655539396.941789) can0 181#2700BE010000
(1655539396.941991) can0 281#001774040000
(1655539396.942194) can0 381#79020D000600
(1655539396.945561) can0 001#000304760000
(1655539396.945806) can0 6D0#56FFFD04760000A4
(1655539396.948849) can0 201#0F000000400D0300
(1655539396.949021) can0 080#00
(1655539396.949254) can0 181#2700C0010000
(1655539396.949453) can0 281#001774040000
(1655539396.949655) can0 381#79020A000600
(1655539396.953482) can0 001#000504760000
(1655539396.953744) can0 6D0#57FFFB04760000A3
(1655539396.956654) can0 201#0F000000400D0300
(1655539396.956824) can0 080#00
(1655539396.957051) can0 181#2700BE010000
(1655539396.957256) can0 281#001774040000
(1655539396.957458) can0 381#79020C000600
(1655539396.961549) can0 001#000304760000
(1655539396.961788) can0 6D0#58FFFD0476FFD87D
(1655539396.964474) can0 201#0F000000400D0300
(1655539396.964653) can0 080#00
(1655539396.964894) can0 181#2700BA010000
(1655539396.965072) can0 281#001774040000
(1655539396.965282) can0 381#79020C000600
(1655539396.969484) can0 001#000404760000
(1655539396.969734) can0 6D0#59FFFC04760000A6
(1655539396.972237) can0 201#0F000000400D0300
(1655539396.972411) can0 080#00
(1655539396.972663) can0 181#2700BA010000
(1655539396.972867) can0 281#001774040000
(1655539396.973072) can0 381#79020A000600
(1655539396.977484) can0 001#000404760000
(1655539396.977718) can0 6D0#5AFFFD04760000A8
(1655539396.980154) can0 201#0F000000400D0300
(1655539396.980327) can0 080#00
(1655539396.980557) can0 181#2700BE010000
(1655539396.980760) can0 281#001774040000
(1655539396.980973) can0 381#79020D000600
(1655539396.985482) can0 001#000404760000
(1655539396.987910) can0 201#0F000000400D0300
(1655539396.988080) can0 080#00
(1655539396.988301) can0 181#2700BA010000
(1655539396.988505) can0 281#001774040000
(1655539396.988718) can0 381#79020C000600
(1655539396.993548) can0 001#000504760000
(1655539396.993814) can0 6D0#5BFFFB04760000A7
(1655539396.995840) can0 201#0F000000400D0300
(1655539396.996008) can0 080#00
(1655539396.996240) can0 181#2700B6010000
(1655539396.996430) can0 281#001774040000
(1655539396.996634) can0 381#79020E000600
(1655539397.001484) can0 001#000304760000
(1655539397.001713) can0 6D0#5CFFFD04760000AA
(1655539397.003712) can0 201#0F000000400D0300
(1655539397.003886) can0 080#00
(1655539397.004119) can0 181#2700B6010000
(1655539397.004310) can0 281#001774040000
(1655539397.004516) can0 381#79020C000600
(1655539397.009555) can0 001#000304760000
(1655539397.011397) can0 201#0F000000400D0300
(1655539397.011574) can0 080#00
(1655539397.011804) can0 181#2700B8010000
(1655539397.011999) can0 281#001774040000
(1655539397.012205) can0 381#79020D000600
(1655539397.017481) can0 001#000304760000
(1655539397.017717) can0 6D0#5DFFFD04760000AB
(1655539397.019323) can0 201#0F000000400D0300
(1655539397.019464) can0 080#00
(1655539397.019722) can0 181#2700B8010000
(1655539397.019925) can0 281#001774040000
(1655539397.020136) can0 381#7A020C000600
(1655539397.025546) can0 001#000404760000
(1655539397.025781) can0 6D0#5EFFFC04760000AB
(1655539397.027092) can0 201#0F000000400D0300
(1655539397.027264) can0 080#00
(1655539397.027495) can0 181#2700B6010000
(1655539397.027686) can0 281#001774040000
(1655539397.027891) can0 381#790209000700
(1655539397.033473) can0 001#000404760000
(1655539397.033739) can0 6D0#5FFFFC04760000AC
(1655539397.034906) can0 201#0F000000400D0300
(1655539397.035081) can0 080#00
(1655539397.035339) can0 181#2700B6010000
(1655539397.035533) can0 281#001774040000
(1655539397.035746) can0 381#79020C000600
(1655539397.039670) can0 080#051800A1
(1655539397.039955) can0 1838F380#0000180018180303
(1655539397.040238) can0 18EEFF80#F30080F300401E90
(1655539397.040525) can0 1839F380#0018181804030393
(1655539397.041554) can0 001#000304760000
(1655539397.041801) can0 6D0#60FFFD04760000AE
(1655539397.042943) can0 201#0F000000400D0300
(1655539397.043116) can0 080#00
(1655539397.043340) can0 181#2700B4010000
(1655539397.043539) can0 281#001774040000
(1655539397.043744) can0 381#79020A000600
(1655539397.049475) can0 001#000504760000
(1655539397.049715) can0 6D0#61FFFB04760000AD
(1655539397.050574) can0 201#0F000000400D0300
(1655539397.050750) can0 080#00
(1655539397.050987) can0 181#2700AD010000
(1655539397.051171) can0 281#001774040000
(1655539397.051376) can0 381#79020E000600
(1655539397.057481) can0 001#000504760000
(1655539397.057716) can0 6D0#62FFFD04760000B0
(1655539397.058379) can0 201#0F000000400D0300
(1655539397.058560) can0 080#00
(1655539397.058780) can0 181#2700AB010000
(1655539397.059000) can0 281#001774040000
(1655539397.059198) can0 381#79020C000600
(1655539397.065480) can0 001#000504760000
(1655539397.066067) can0 201#0F000000400D0300
(1655539397.066239) can0 080#00
(1655539397.066475) can0 181#2700A7010000
(1655539397.066661) can0 281#001774040000
(1655539397.066888) can0 381#79020C000600
(1655539397.073550) can0 001#000304760000
(1655539397.073791) can0 6D0#63FFFD04760000B1
(1655539397.074034) can0 201#0F000000400D0300
(1655539397.074177) can0 080#00
(1655539397.074416) can0 181#2700AB010000
(1655539397.074604) can0 281#001774040000
(1655539397.074808) can0 381#79020C000600
(1655539397.081479) can0 001#000304760000
(1655539397.081719) can0 201#0F000000400D0300
(1655539397.081958) can0 6D0#64FFFD04760000B2
(1655539397.082071) can0 080#00
(1655539397.082273) can0 181#2700B1010000
(1655539397.082477) can0 281#001774040000
(1655539397.082679) can0 381#79020A000600
(1655539397.089408) can0 201#0F000000400D0300
(1655539397.089621) can0 001#000304760000
(1655539397.089735) can0 080#00
(1655539397.089937) can0 181#2700B3010000
(1655539397.090157) can0 281#001774040000
(1655539397.090343) can0 381#79020D000600
(1655539397.090582) can0 6D0#65FFFC04760000B2
(1655539397.097264) can0 201#0F000000400D0300
(1655539397.097476) can0 001#000204760000
(1655539397.097590) can0 080#00
(1655539397.097793) can0 181#2700AF010000
(1655539397.098006) can0 281#001774040000
(1655539397.098200) can0 381#790208000600
(1655539397.098467) can0 6D0#66FFFE04760000B5
(1655539397.105078) can0 201#0F000000400D0300
(1655539397.105251) can0 080#00
(1655539397.105474) can0 181#2700AD010000
(1655539397.105685) can0 001#000504760000
(1655539397.105896) can0 281#001774040000
(1655539397.106086) can0 381#79020C000600
(1655539397.112877) can0 201#0F000000400D0300
(1655539397.113048) can0 080#00
(1655539397.113295) can0 181#2700A9010000
(1655539397.113481) can0 001#000304760000
(1655539397.113710) can0 281#001774040000
(1655539397.113887) can0 381#79020A000600
(1655539397.114138) can0 6D0#67FFFD0476FFFFB3
(1655539397.120721) can0 201#0F000000400D0300
(1655539397.120873) can0 080#00
(1655539397.121087) can0 181#2700A7010000
(1655539397.121318) can0 281#001774040000
(1655539397.121506) can0 001#000304760000
(1655539397.121716) can0 381#79020F000600
(1655539397.128565) can0 201#0F000000400D0300
(1655539397.128740) can0 080#00
(1655539397.128991) can0 181#2700A5010000
(1655539397.129162) can0 281#001774040000
(1655539397.129367) can0 381#79020D000600
(1655539397.129575) can0 001#000304760000
(1655539397.129826) can0 6D0#6EFFFD04760040FC
(1655539397.136320) can0 201#0F000000400D0300
(1655539397.136488) can0 080#00
(1655539397.136742) can0 181#2700A4010000
(1655539397.136915) can0 281#001774040000
(1655539397.137117) can0 381#79020D000600
(1655539397.137480) can0 001#000304760000
(1655539397.139612) can0 080#061800A2
(1655539397.139905) can0 1838F380#0003180318180303
(1655539397.140183) can0 1839F380#0018181804030393
(1655539397.144125) can0 201#0F000000400D0300
(1655539397.144299) can0 080#00
(1655539397.144526) can0 181#2700A7010000
(1655539397.144723) can0 281#001774040000
(1655539397.144924) can0 381#79020A000600
(1655539397.145482) can0 001#000304760000
(1655539397.151938) can0 201#0F000000400D0300
(1655539397.152111) can0 080#00
(1655539397.152333) can0 181#2700A9010000
(1655539397.152542) can0 281#001774040000
(1655539397.152735) can0 381#79020A000600
(1655539397.153542) can0 001#000204760000
(1655539397.153776) can0 6D0#73FFFE04760800CA
(1655539397.159769) can0 201#0F000000400D0300
(1655539397.159939) can0 080#00
(1655539397.160210) can0 181#2700A9010000
(1655539397.160390) can0 281#001774040000
(1655539397.160597) can0 381#7A020C000600
(1655539397.161475) can0 001#000504760000
(1655539397.161746) can0 6D0#74FFFB04760800C8
(1655539397.167559) can0 201#0F000000400D0300
(1655539397.167739) can0 080#00
(1655539397.167956) can0 181#2700A5010000
(1655539397.168167) can0 281#001774040000
(1655539397.168365) can0 381#79020A000700
(1655539397.169538) can0 001#000504760000
(1655539397.169785) can0 6D0#75FFFD04760000C3
(1655539397.175381) can0 201#0F000000400D0300
(1655539397.175559) can0 080#00
(1655539397.175832) can0 181#2700A2010000
(1655539397.176013) can0 281#001774040000
(1655539397.176220) can0 381#79020C000600
(1655539397.177469) can0 001#000404760000
(1655539397.177703) can0 6D0#76FFFC04760000C3
(1655539397.183185) can0 201#0F000000400D0300
(1655539397.183358) can0 080#00
(1655539397.183614) can0 181#2700A0010000
(1655539397.183783) can0 281#001774040000
(1655539397.183986) can0 381#79020A000600
(1655539397.185543) can0 001#000304760000
(1655539397.190990) can0 201#0F000000400D0300
(1655539397.191165) can0 080#00
(1655539397.191382) can0 181#27009C010000
(1655539397.191598) can0 281#001774040000
(1655539397.191792) can0 381#79020C000600
(1655539397.193466) can0 001#000404760000
(1655539397.193702) can0 6D0#77FFFC04760000C4
(1655539397.198795) can0 201#0F000000400D0300
(1655539397.198970) can0 080#00
(1655539397.199188) can0 181#27009A010000
(1655539397.199392) can0 281#001774040000
(1655539397.199597) can0 381#79020C000600
(1655539397.201540) can0 001#000304760000
(1655539397.206610) can0 201#0F000000400D0300
(1655539397.206787) can0 080#00
(1655539397.207008) can0 181#270098010000
(1655539397.207220) can0 281#001774040000
(1655539397.207420) can0 381#79020D000600
(1655539397.209469) can0 001#000304760000
(1655539397.209708) can0 6D0#78FFFD04760000C6
(1655539397.214440) can0 201#0F000000400D0300
(1655539397.214615) can0 080#00
(1655539397.214890) can0 181#27009C010000
(1655539397.215066) can0 281#001774040000
(1655539397.215275) can0 381#79020C000600
(1655539397.217479) can0 001#000304760000
(1655539397.222191) can0 201#0F000000400D0300
(1655539397.222364) can0 080#00
(1655539397.222619) can0 181#2700A0010000
(1655539397.222820) can0 281#001774040000
(1655539397.223024) can0 381#79020A000600
(1655539397.225536) can0 001#000304760000
(1655539397.230046) can0 201#0F000000400D0300
(1655539397.230221) can0 080#00
(1655539397.230447) can0 181#2700A4010000
(1655539397.230642) can0 281#001774040000
(1655539397.230849) can0 381#79020C000600
(1655539397.233465) can0 001#000404760000
(1655539397.233700) can0 6D0#79FFFC04760000C6
(1655539397.237814) can0 201#0F000000400D0300
(1655539397.237981) can0 080#00
(1655539397.238230) can0 181#27009E010000
(1655539397.238436) can0 281#001774040000
(1655539397.238640) can0 381#79020A000600
(1655539397.239665) can0 080#051800A1
(1655539397.239965) can0 1838F380#0006180618180303
(1655539397.240235) can0 1839F380#0018181804030393
(1655539397.240524) can0 18EEFF80#F30080F300401E90
(1655539397.241536) can0 001#000404760000
(1655539397.245674) can0 201#0F000000400D0300
(1655539397.245851) can0 080#00
(1655539397.246074) can0 181#27009A010000
(1655539397.246272) can0 281#001774040000
(1655539397.246476) can0 381#7A020C000600
(1655539397.249464) can0 001#000404760000
(1655539397.249709) can0 6D0#7AFFFC04760000C7
(1655539397.253434) can0 201#0F000000400D0300
(1655539397.253614) can0 080#00
(1655539397.253860) can0 181#27009A010000
(1655539397.254065) can0 281#001774040000
(1655539397.254275) can0 381#79020A000700
(1655539397.257539) can0 001#000304760000
(1655539397.261292) can0 201#0F000000400D0300
(1655539397.261468) can0 080#00
(1655539397.261688) can0 181#27009A010000
(1655539397.261895) can0 281#001774040000
(1655539397.262095) can0 381#79020D000600
(1655539397.265463) can0 001#000404760000
(1655539397.265706) can0 6D0#7BFFFC04760003CB
(1655539397.269099) can0 201#0F000000400D0300
(1655539397.269270) can0 080#00
(1655539397.269491) can0 181#270096010000
(1655539397.269692) can0 281#001774040000
(1655539397.269897) can0 381#79020A000700
(1655539397.273538) can0 001#000304760000
(1655539397.276916) can0 201#0F000000400D0300
(1655539397.277093) can0 080#00
(1655539397.277326) can0 181#270095010000
(1655539397.277517) can0 281#001774040000
(1655539397.277717) can0 381#79020D000600
(1655539397.281469) can0 001#000304760000
(1655539397.281706) can0 6D0#7CFFFD04760006D0
(1655539397.284727) can0 201#0F000000400D0300
(1655539397.284898) can0 080#00
(1655539397.285115) can0 181#270093010000
(1655539397.285318) can0 281#001774040000
(1655539397.285520) can0 381#79020A000600
(1655539397.289468) can0 001#000304760000
(1655539397.292530) can0 201#0F000000400D0300
(1655539397.292716) can0 080#00
(1655539397.292936) can0 181#270096010000
(1655539397.293139) can0 281#001774040000
(1655539397.293343) can0 381#79020C000600
(1655539397.297540) can0 001#000304760000
(1655539397.300339) can0 201#0F000000400D0300
(1655539397.300530) can0 080#00
(1655539397.300742) can0 181#270096010000
(1655539397.300953) can0 281#001774040000
(1655539397.301150) can0 381#79020A000600
(1655539397.305466) can0 001#000404760000
(1655539397.305707) can0 6D0#7DFFFC04760030FA
(1655539397.308151) can0 201#0F000000400D0300
(1655539397.308341) can0 080#00
(1655539397.308560) can0 181#270098010000
(1655539397.308776) can0 281#001774040000
(1655539397.308958) can0 381#79020D000600
(1655539397.313531) can0 001#000404760000
(1655539397.313776) can0 6D0#7EFFFE04760000CD
(1655539397.316034) can0 201#0F000000400D0300
(1655539397.316215) can0 080#00
(1655539397.316435) can0 181#270095010000
(1655539397.316638) can0 281#001774040000
(1655539397.316853) can0 381#79020C000600
(1655539397.321462) can0 001#000404760000
(1655539397.321700) can0 6D0#7FFFFC047602EEBC
(1655539397.323950) can0 201#0F000000400D0300
(1655539397.324096) can0 080#00
(1655539397.324354) can0 181#27008F010000
(1655539397.324547) can0 281#001774040000
(1655539397.324758) can0 381#7A020D000600
(1655539397.329543) can0 001#000204760000
(1655539397.329778) can0 6D0#80FFFE04760000CF
(1655539397.331768) can0 201#0F000000400D0300
(1655539397.331947) can0 080#00
(1655539397.332168) can0 181#27008D010000
(1655539397.332380) can0 281#001774040000
(1655539397.332578) can0 381#79020C000600
(1655539397.337466) can0 001#000404760000
(1655539397.337700) can0 6D0#00FFFC0476010351
(1655539397.339534) can0 201#0F000000400D0300
(1655539397.339821) can0 1838F380#000B180B18180303
(1655539397.339940) can0 080#00
(1655539397.340143) can0 181#270089010000
(1655539397.340340) can0 281#001774040000
(1655539397.340554) can0 381#79020C000600
(1655539397.340832) can0 1839F380#0018181804030393
(1655539397.341000) can0 080#061800A2
(1655539397.345531) can0 001#000204760000
(1655539397.345776) can0 6D0#01FFFE0476060359
(1655539397.347400) can0 201#0F000000400D0300
(1655539397.347585) can0 080#00
(1655539397.347829) can0 181#270089010000
(1655539397.348037) can0 281#001774040000
(1655539397.348238) can0 381#7A020C000600
(1655539397.353459) can0 001#000404760000
(1655539397.353696) can0 6D0#02FFFC0476057ACE
(1655539397.355160) can0 201#0F000000400D0300
(1655539397.355335) can0 080#00
(1655539397.355598) can0 181#27008B010000
(1655539397.355800) can0 281#001774040000
(1655539397.355999) can0 381#79020D000600
(1655539397.361470) can0 001#000404760000
(1655539397.361708) can0 6D0#03FFFE0476240379
(1655539397.363012) can0 201#0F000000400D0300
(1655539397.363189) can0 080#00
(1655539397.363409) can0 181#27008F010000
(1655539397.363612) can0 281#001774040000
(1655539397.363818) can0 381#79020C000600
(1655539397.369455) can0 001#000404760000
(1655539397.370720) can0 201#0F000000400D0300
(1655539397.370891) can0 080#00
(1655539397.371103) can0 181#270091010000
(1655539397.371322) can0 281#001774040000
(1655539397.371516) can0 381#79020C000600
(1655539397.377530) can0 001#000304760000
(1655539397.377769) can0 6D0#04FFFD04760063B5
(1655539397.378647) can0 201#0F000000400D0300
(1655539397.378826) can0 080#00
(1655539397.379045) can0 181#270091010000
(1655539397.379253) can0 281#001774040000
(1655539397.379460) can0 381#79020A000600
(1655539397.385471) can0 001#000304760000
(1655539397.385718) can0 6D0#05FFFD0476000053
(1655539397.386394) can0 201#0F000000400D0300
(1655539397.386573) can0 080#00
(1655539397.386795) can0 181#27008B010000
(1655539397.386994) can0 281#001774040000
(1655539397.387200) can0 381#79020D000600
(1655539397.393540) can0 001#000304760000
(1655539397.393780) can0 6D0#06FFFD0476003084
(1655539397.394219) can0 201#0F000000400D0300
(1655539397.394393) can0 080#00
(1655539397.394645) can0 181#270089010000
(1655539397.394849) can0 281#001774040000
(1655539397.395051) can0 381#7A020A000600
(1655539397.401461) can0 001#000304760000
(1655539397.401703) can0 6D0#07FFFD0476001C71
(1655539397.402008) can0 201#0F000000400D0300
(1655539397.402193) can0 080#00
(1655539397.402411) can0 181#270087010000
(1655539397.402615) can0 281#001774040000
(1655539397.402825) can0 381#79020C000600
(1655539397.409539) can0 001#000304760000
(1655539397.409778) can0 201#0F000000400D0300
(1655539397.409951) can0 080#00
(1655539397.410194) can0 181#270087010000
(1655539397.410399) can0 281#001774040000
(1655539397.410605) can0 381#7A020A000600
(1655539397.417464) can0 201#0F000000400D0300
(1655539397.417673) can0 001#000304760000
(1655539397.417795) can0 080#00
(1655539397.417989) can0 181#270086010000
(1655539397.418191) can0 281#001774040000
(1655539397.418396) can0 381#7A020A000600
(1655539397.418631) can0 6D0#08FFFD0476004EA4
(1655539397.425338) can0 201#0F000000400D0300
(1655539397.425543) can0 001#000404760000
(1655539397.425658) can0 080#00
(1655539397.425858) can0 181#270084010000
(1655539397.426063) can0 281#001774040000
(1655539397.426268) can0 381#79020C000600
(1655539397.426512) can0 6D0#09FFFC0476000056
(1655539397.433136) can0 201#0F000000400D0300
(1655539397.433307) can0 080#00
(1655539397.433518) can0 001#000304760000
(1655539397.433723) can0 181#270082010000
(1655539397.433924) can0 281#001774040000
(1655539397.434128) can0 381#79020A000600
(1655539397.434365) can0 6D0#0AFFFD0476003088
(1655539397.439608) can0 080#051800A1
(1655539397.439893) can0 1838F380#0000180018180303
(1655539397.440182) can0 1839F380#0018181804030393
(1655539397.441308) can0 201#0F000000400D0300
(1655539397.441518) can0 001#000304760000
(1655539397.441646) can0 080#00
(1655539397.441841) can0 181#270084010000
(1655539397.442042) can0 281#001774040000
(1655539397.442248) can0 381#79020C000600
(1655539397.442527) can0 18EEFF80#F30080F300401E90
(1655539397.448754) can0 201#0F000000400D0300
(1655539397.448926) can0 080#00
(1655539397.449142) can0 181#270086010000
(1655539397.449346) can0 281#001774040000
(1655539397.449556) can0 001#000304760000
(1655539397.449759) can0 381#79020A000600
(1655539397.456628) can0 201#0F000000400D0300
(1655539397.456797) can0 080#00
(1655539397.457040) can0 181#270086010000
(1655539397.457226) can0 281#001774040000
(1655539397.457426) can0 381#7A020C000600
(1655539397.457642) can0 001#000404760000
(1655539397.457873) can0 6D0#0BFFFC04760258B2
(1655539397.464382) can0 201#0F000000400D0300
(1655539397.464557) can0 080#00
(1655539397.464776) can0 181#270084010000
(1655539397.464977) can0 281#001774040000
(1655539397.465201) can0 381#79020A000600
(1655539397.465531) can0 001#000404760000
(1655539397.465760) can0 6D0#0CFFFE047600025D
(1655539397.472207) can0 201#0F000000400D0300
(1655539397.472384) can0 080#00
(1655539397.472648) can0 181#27007E010000
(1655539397.472837) can0 281#001774040000
(1655539397.473058) can0 381#79020C000600
(1655539397.473458) can0 001#000404760000
(1655539397.473702) can0 6D0#0DFFFC04760476D4
(1655539397.479994) can0 201#0F000000400D0300
(1655539397.480170) can0 080#00
(1655539397.480392) can0 181#27007C010000
(1655539397.482591) can0 281#001774040000
(1655539397.482616) can0 381#79020A000700
(1655539397.482630) can0 001#000204760000
(1655539397.487833) can0 201#0F000000400D0300
(1655539397.488007) can0 080#00
(1655539397.488268) can0 181#27007E010000
(1655539397.488456) can0 281#001774040000
(1655539397.488661) can0 381#7A020A000600
(1655539397.489453) can0 001#000404760000
(1655539397.489693) can0 6D0#0EFFFC04760476D5
(1655539397.495633) can0 201#0F000000400D0300
(1655539397.495805) can0 080#00
(1655539397.496024) can0 181#27007A010000
(1655539397.496226) can0 281#001774040000
(1655539397.496428) can0 381#79020A000600
(1655539397.497526) can0 001#000204760000
(1655539397.503451) can0 201#0F000000400D0300
(1655539397.503635) can0 080#00
(1655539397.503879) can0 181#27007A010000
(1655539397.504081) can0 281#001774040000
(1655539397.504282) can0 381#79020D000600
(1655539397.505455) can0 001#000404760000
(1655539397.505689) can0 6D0#0FFFFC047600B713
(1655539397.511248) can0 201#0F000000400D0300
(1655539397.511416) can0 080#00
(1655539397.511640) can0 181#27007A010000
(1655539397.511848) can0 281#001774040000
(1655539397.512041) can0 381#790209000600
(1655539397.513459) can0 001#000404760000
(1655539397.519074) can0 201#0F000000400D0300
(1655539397.519252) can0 080#00
(1655539397.519508) can0 181#27007C010000
(1655539397.519707) can0 281#001774040000
(1655539397.519913) can0 381#79020C000600
(1655539397.521534) can0 001#000404760000
(1655539397.526823) can0 201#0F000000400D0300
(1655539397.526992) can0 080#00
(1655539397.527257) can0 181#27007E010000
(1655539397.527448) can0 281#001774040000
(1655539397.527647) can0 381#79020A000600
(1655539397.529457) can0 001#000204760000
(1655539397.529695) can0 6D0#10FFFE047602B011
(1655539397.534688) can0 201#0F000000400D0300
(1655539397.534860) can0 080#00
(1655539397.535086) can0 181#27007C010000
(1655539397.535293) can0 281#001774040000
(1655539397.535492) can0 381#7A020A000600
(1655539397.537526) can0 001#000404760000
(1655539397.539594) can0 080#061800A2
(1655539397.539879) can0 1838F380#0003180318180303
(1655539397.540171) can0 1839F380#0018181804030393
(1655539397.542600) can0 201#0F000000400D0300
(1655539397.542776) can0 080#00
(1655539397.542999) can0 181#27007C010000
(1655539397.543202) can0 281#001774040000
(1655539397.543421) can0 381#79020A000600
(1655539397.545457) can0 001#000204760000
(1655539397.545693) can0 6D0#11FFFE0476003595
(1655539397.550298) can0 201#0F000000400D0300
(1655539397.550474) can0 080#00
(1655539397.550702) can0 181#270078010000
(1655539397.550907) can0 281#001774040000
(1655539397.551121) can0 381#79020C000600
(1655539397.553523) can0 001#000404760000
(1655539397.558072) can0 201#0F000000400D0300
(1655539397.558243) can0 080#00
(1655539397.558490) can0 181#270075010000
(1655539397.558697) can0 281#001774040000
(1655539397.558895) can0 381#79020C000600
(1655539397.561455) can0 001#000204760000
(1655539397.561693) can0 6D0#12FFFE0476000869
(1655539397.565926) can0 201#0F000000400D0300
(1655539397.566101) can0 080#00
(1655539397.566319) can0 181#270077010000
(1655539397.566522) can0 281#001774040000
(1655539397.566723) can0 381#7A020D000700
(1655539397.569525) can0 001#000404760000
(1655539397.573690) can0 201#0F000000400D0300
(1655539397.573859) can0 080#00
(1655539397.574104) can0 181#270073010000
(1655539397.574307) can0 281#001774040000
(1655539397.574512) can0 381#79020A000600
(1655539397.577465) can0 001#000204760000
(1655539397.577691) can0 6D0#13FFFE04760064C6
(1655539397.581547) can0 201#0F000000400D0300
(1655539397.581721) can0 080#00
(1655539397.581945) can0 181#270071010000
(1655539397.582149) can0 281#001774040000
(1655539397.582360) can0 381#79020C000600
(1655539397.585450) can0 001#000204760000
(1655539397.589314) can0 201#0F000000400D0300
(1655539397.589492) can0 080#00
(1655539397.589738) can0 181#270071010000
(1655539397.589941) can0 281#001774040000
(1655539397.590146) can0 381#79020D000600
(1655539397.593523) can0 001#000204760000
(1655539397.597196) can0 201#0F000000400D0300
(1655539397.597376) can0 080#00
(1655539397.597565) can0 181#270073010000
(1655539397.597773) can0 281#001774040000
(1655539397.597976) can0 381#7A020C000600
(1655539397.601463) can0 001#000404760000
(1655539397.601703) can0 6D0#14FFFC04762CA330
(1655539397.604969) can0 201#0F000000400D0300
(1655539397.605108) can0 080#00
(1655539397.605366) can0 181#270075010000
(1655539397.605562) can0 281#001774040000
(1655539397.605767) can0 381#79020C000600
(1655539397.609522) can0 001#000404760000
(1655539397.612799) can0 201#0F000000400D0300
(1655539397.612973) can0 080#00
(1655539397.613230) can0 181#270075010000
(1655539397.613428) can0 281#001774040000
(1655539397.613633) can0 381#79020C000600
(1655539397.617447) can0 001#000404760000
(1655539397.617686) can0 6D0#15FFFC04767FFBDC
(1655539397.620607) can0 201#0F000000400D0300
(1655539397.620781) can0 080#00
(1655539397.621005) can0 181#270071010000
(1655539397.621210) can0 281#001774040000
(1655539397.621428) can0 381#79020D000600
(1655539397.625504) can0 001#000204760000
(1655539397.625693) can0 6D0#16FFFE0476049801
(1655539397.628414) can0 201#0F000000400D0300
(1655539397.628588) can0 080#00
(1655539397.628809) can0 181#27006F010000
(1655539397.629018) can0 281#001774040000
(1655539397.629218) can0 381#79020A000600
(1655539397.633516) can0 001#000404760000
(1655539397.633763) can0 6D0#17FFFC047602BC22
(1655539397.636227) can0 201#0F000000400D0300
(1655539397.636401) can0 080#00
(1655539397.636621) can0 181#27006D010000
(1655539397.636824) can0 281#001774040000
(1655539397.637033) can0 381#79020F000600
(1655539397.639596) can0 080#051800A1
(1655539397.639883) can0 1838F380#0006180618180303
(1655539397.640170) can0 1839F380#0018181804030393
(1655539397.641448) can0 001#000204760000
(1655539397.641688) can0 6D0#18FFFE047600036A
(1655539397.641968) can0 18EEFF80#F30080F300401E90
(1655539397.644204) can0 201#0F000000400D0300
(1655539397.644352) can0 080#00
(1655539397.644602) can0 181#27006B010000
(1655539397.644807) can0 281#001774040000
(1655539397.645009) can0 381#79020A000600
(1655539397.649522) can0 001#000304760000
(1655539397.651923) can0 201#0F000000400D0300
(1655539397.652098) can0 080#00
(1655539397.652377) can0 181#270069010000
(1655539397.652551) can0 281#001774040000
(1655539397.652764) can0 381#79020C000600
(1655539397.657456) can0 001#000204760000
(1655539397.657689) can0 6D0#19FFFE0476060472
(1655539397.659826) can0 201#0F000000400D0300
(1655539397.659969) can0 080#00
(1655539397.660215) can0 181#270069010000
(1655539397.660421) can0 281#001774040000
(1655539397.660621) can0 381#79020A000600
(1655539397.665459) can0 001#000204760000
(1655539397.667538) can0 201#0F000000400D0300
(1655539397.667718) can0 080#00
(1655539397.667962) can0 181#270069010000
(1655539397.668167) can0 281#001774040000
(1655539397.668373) can0 381#79020C000600
(1655539397.673525) can0 001#000204760000
(1655539397.675344) can0 201#0F000000400D0300
(1655539397.675524) can0 080#00
(1655539397.675747) can0 181#270069010000
(1655539397.675950) can0 281#001774040000
(1655539397.676153) can0 381#79020A000600
(1655539397.681456) can0 001#000304760000
(1655539397.681690) can0 6D0#1AFFFD04760038A0
(1655539397.683228) can0 201#0F000000400D0300
(1655539397.683402) can0 080#00
(1655539397.683651) can0 181#27006B010000
(1655539397.683856) can0 281#001774040000
(1655539397.684058) can0 381#79020D000600
(1655539397.689524) can0 001#000304760000
(1655539397.689765) can0 6D0#1BFFFE047601CA35
(1655539397.691026) can0 201#0F000000400D0300
(1655539397.691204) can0 080#00
(1655539397.691418) can0 181#27006B010000
(1655539397.691622) can0 281#001774040000
(1655539397.691829) can0 381#790209000600
(1655539397.697455) can0 001#000304760000
(1655539397.697718) can0 6D0#1CFFFD0476032A97
(1655539397.698887) can0 201#0F000000400D0300
(1655539397.699062) can0 080#00
(1655539397.699280) can0 181#270069010000
(1655539397.699485) can0 281#001774040000
(1655539397.699689) can0 381#79020C000600
(1655539397.705517) can0 001#000304760000
(1655539397.706580) can0 201#0F000000400D0300
(1655539397.706758) can0 080#00
(1655539397.706986) can0 181#270068010000
(1655539397.707183) can0 281#001774040000
(1655539397.707381) can0 381#79020A000600
(1655539397.713446) can0 001#000304760000
(1655539397.713690) can0 6D0#1DFFFD04760078E3
(1655539397.714513) can0 201#0F000000400D0300
(1655539397.714694) can0 080#00
(1655539397.714925) can0 181#270066010000
(1655539397.715119) can0 281#001774040000
(1655539397.715329) can0 381#79020A000600
(1655539397.721446) can0 001#000304760000
(1655539397.721685) can0 6D0#1EFFFD047600006C
(1655539397.722266) can0 201#0F000000400D0300
(1655539397.722438) can0 080#00
(1655539397.722707) can0 181#270064010000
(1655539397.722873) can0 281#001774040000
(1655539397.723075) can0 381#79020C000700
(1655539397.729515) can0 001#000304760000
(1655539397.729761) can0 6D0#1FFFFD0476001481
(1655539397.730130) can0 201#0F000000400D0300
(1655539397.730305) can0 080#00
(1655539397.730526) can0 181#270062010000
(1655539397.730728) can0 281#001774040000
(1655539397.730933) can0 381#7A020A000600
(1655539397.737444) can0 001#000304760000
(1655539397.737689) can0 6D0#20FFFD0476000876
(1655539397.737931) can0 201#0F000000400D0300
(1655539397.738052) can0 080#00
(1655539397.738278) can0 181#270062010000
(1655539397.738479) can0 281#001774040000
(1655539397.738687) can0 381#79020C000600
(1655539397.739612) can0 080#061800A2
(1655539397.739888) can0 1838F380#000B180B18180303
(1655539397.740185) can0 1839F380#0018181804030393
(1655539397.745451) can0 001#000304760000
(1655539397.745691) can0 201#0F000000400D0300
(1655539397.745895) can0 080#00
(1655539397.746145) can0 181#270060010000
(1655539397.746348) can0 281#001774040000
(1655539397.746564) can0 381#79020C000600
(1655539397.753384) can0 201#0F000000400D0300
(1655539397.753595) can0 001#000304760000
(1655539397.753709) can0 080#00
(1655539397.753924) can0 181#270060010000
(1655539397.754122) can0 281#001774040000
(1655539397.754329) can0 381#79020E000600
(1655539397.761204) can0 201#0F000000400D0300
(1655539397.761448) can0 001#000204760000
(1655539397.761561) can0 080#00
(1655539397.761770) can0 181#270060010000
(1655539397.761973) can0 281#001774040000
(1655539397.762177) can0 381#79020C000600
(1655539397.762422) can0 6D0#21FFFE0476000070
(1655539397.769032) can0 201#0F000000400D0300
(1655539397.769212) can0 080#00
(1655539397.769451) can0 181#270062010000
(1655539397.769662) can0 001#000404760000
(1655539397.769861) can0 281#001774040000
(1655539397.770067) can0 381#79020C000600
(1655539397.770307) can0 6D0#22FFFC047600006F
(1655539397.776840) can0 201#0F000000400D0300
(1655539397.777011) can0 080#00
(1655539397.777268) can0 181#270062010000
(1655539397.777469) can0 001#000204760000
(1655539397.777677) can0 281#001774040000
(1655539397.777875) can0 381#790209000600
(1655539397.778110) can0 6D0#23FFFE04760476EC
(1655539397.784645) can0 201#0F000000400D0300
(1655539397.784828) can0 080#00
(1655539397.785086) can0 181#270060010000
(1655539397.785278) can0 281#001774040000
(1655539397.785488) can0 381#79020C000600
(1655539397.785700) can0 001#000204760000
(1655539397.785931) can0 6D0#24FFFD047600990B
(1655539397.792451) can0 201#0F000000400D0300
(1655539397.792641) can0 080#00
(1655539397.792854) can0 181#27005E010000
(1655539397.793051) can0 281#001774040000
(1655539397.793256) can0 381#79020A000600
(1655539397.793467) can0 001#000104760000
(1655539397.793708) can0 6D0#25FFFF047600057A
(1655539397.800268) can0 201#0F000000400D0300
(1655539397.800441) can0 080#00
(1655539397.800705) can0 181#27005C010000
(1655539397.800906) can0 281#001774040000
(1655539397.801108) can0 381#79020C000600
(1655539397.801508) can0 001#000104760000
(1655539397.808066) can0 201#0F000000400D0300
(1655539397.808241) can0 080#00
(1655539397.808467) can0 181#27005A010000
(1655539397.808661) can0 281#001774040000
(1655539397.808865) can0 381#790209000700
(1655539397.809442) can0 001#000204760000
(1655539397.809687) can0 6D0#26FFFE04767E0E01
(1655539397.815896) can0 201#0F000000400D0300
(1655539397.816067) can0 080#00
(1655539397.816321) can0 181#270059010000
(1655539397.816519) can0 281#001774040000
(1655539397.816734) can0 381#79020A000700
(1655539397.817449) can0 001#000204760000
(1655539397.823698) can0 201#0F000000400D0300
(1655539397.823876) can0 080#00
(1655539397.824100) can0 181#270057010000
(1655539397.824290) can0 281#001774040000
(1655539397.824493) can0 381#7A020D000600
(1655539397.825443) can0 001#000204760000
(1655539397.831617) can0 201#0F000000400D0300
(1655539397.831800) can0 080#00
(1655539397.832017) can0 181#270055010000
(1655539397.832217) can0 281#001774040000
(1655539397.832436) can0 381#79020A000600
(1655539397.833512) can0 001#000304760000
(1655539397.839333) can0 201#0F000000400D0300
(1655539397.839506) can0 080#00
(1655539397.839675) can0 080#051800A1
(1655539397.839875) can0 181#270057010000
(1655539397.840081) can0 281#001774040000
(1655539397.840290) can0 381#79020D000600
(1655539397.840581) can0 1839F380#0018181804030393
(1655539397.840858) can0 1838F380#0000180018180303
(1655539397.841138) can0 18EEFF80#F30080F300401E90
(1655539397.841441) can0 001#000304760000
(1655539397.841683) can0 6D0#27FFFD0476000479
(1655539397.847136) can0 201#0F000000400D0300
(1655539397.847313) can0 080#00
(1655539397.847534) can0 181#270055010000
(1655539397.847727) can0 281#001774040000
(1655539397.847932) can0 381#79020A000600
(1655539397.849518) can0 001#000304760000
(1655539397.849758) can0 6D0#28FFFD047600198F
(1655539397.854931) can0 201#0F000000400D0300
(1655539397.855111) can0 080#00
(1655539397.855329) can0 181#270057010000
(1655539397.855530) can0 281#001774040000
(1655539397.855740) can0 381#79020C000600
(1655539397.857440) can0 001#000304760000
(1655539397.857688) can0 6D0#29FFFD047600188F
(1655539397.862736) can0 201#0F000000400D0300
(1655539397.862919) can0 080#00
(1655539397.863134) can0 181#270059010000
(1655539397.863339) can0 281#001774040000
(1655539397.863556) can0 381#790209000600
(1655539397.865513) can0 001#000204760000
(1655539397.865752) can0 6D0#2AFFFE0476001891
(1655539397.870551) can0 201#0F000000400D0300
(1655539397.870746) can0 080#00
(1655539397.870976) can0 181#270059010000
(1655539397.871168) can0 281#001774040000
(1655539397.871368) can0 381#7A020C000600
(1655539397.873440) can0 001#000304760000
(1655539397.873687) can0 6D0#2BFFFD0476000079
(1655539397.878314) can0 201#0F000000400D0300
(1655539397.878498) can0 080#00
(1655539397.878741) can0 181#270055010000
(1655539397.878946) can0 281#001774040000
(1655539397.879152) can0 381#79020A000600
(1655539397.881516) can0 001#000304760000
(1655539397.881773) can0 6D0#2CFFFE047600007B
(1655539397.886172) can0 201#0F000000400D0300
(1655539397.886356) can0 080#00
(1655539397.886572) can0 181#270053010000
(1655539397.886778) can0 281#001774040000
(1655539397.886979) can0 381#79020A000600
(1655539397.889441) can0 001#000304760000
(1655539397.889681) can0 6D0#2DFFFD047600219C
(1655539397.893944) can0 201#0F000000400D0300
(1655539397.894119) can0 080#00
(1655539397.894364) can0 181#270051010000
(1655539397.894567) can0 281#001774040000
(1655539397.894777) can0 381#79020C000600
(1655539397.897449) can0 001#000304760000
(1655539397.901794) can0 201#0F000000400D0300
(1655539397.901974) can0 080#00
(1655539397.902199) can0 181#270051010000
(1655539397.902396) can0 281#001774040000
(1655539397.902602) can0 381#79020A000600
(1655539397.905449) can0 001#000304760000
(1655539397.909614) can0 201#0F000000400D0300
(1655539397.909795) can0 080#00
(1655539397.910018) can0 181#270051010000
(1655539397.910216) can0 281#001774040000
(1655539397.910425) can0 381#79020D000600
(1655539397.913507) can0 001#000204760000
(1655539397.913757) can0 6D0#2EFFFE047600027F
(1655539397.917418) can0 201#0F000000400D0300
(1655539397.917595) can0 080#00
(1655539397.917818) can0 181#27004F010000
(1655539397.918019) can0 281#001774040000
(1655539397.918225) can0 381#79020A000700
(1655539397.921440) can0 001#000304760000
(1655539397.921683) can0 6D0#2FFFFD04760068E5
(1655539397.925240) can0 201#0F000000400D0300
(1655539397.925408) can0 080#00
(1655539397.925673) can0 181#27004D010000
(1655539397.925873) can0 281#001774040000
(1655539397.926078) can0 381#79020C000600
(1655539397.929504) can0 001#000304760000
(1655539397.933038) can0 201#0F000000400D0300
(1655539397.933210) can0 080#00
(1655539397.933435) can0 181#27004B010000
(1655539397.933632) can0 281#001774040000
(1655539397.933833) can0 381#7A0209000700
(1655539397.937435) can0 001#000204760000
(1655539397.937679) can0 6D0#30FFFE0476000180
(1655539397.939602) can0 080#061800A2
(1655539397.939892) can0 1838F380#0003180318180303
(1655539397.940180) can0 1839F380#0018181804030393
(1655539397.941168) can0 201#0F000000400D0300
(1655539397.941346) can0 080#00
(1655539397.941612) can0 181#27004F010000
(1655539397.941806) can0 281#001774040000
(1655539397.942009) can0 381#79020C000600
(1655539397.945511) can0 001#000304760000
(1655539397.945758) can0 6D0#31FFFD047600007F
(1655539397.948654) can0 201#0F000000400D0300
(1655539397.948796) can0 080#00
(1655539397.949043) can0 181#27004F010000
(1655539397.949245) can0 281#001774040000
(1655539397.949451) can0 381#79020C000600
(1655539397.953437) can0 001#000204760000
(1655539397.953679) can0 6D0#32FFFE04769F2444
(1655539397.956474) can0 201#0F000000400D0300
(1655539397.956662) can0 080#00
(1655539397.956879) can0 181#27004F010000
(1655539397.957081) can0 281#001774040000
(1655539397.957280) can0 381#79020A000600
(1655539397.961514) can0 001#000304760000
(1655539397.961756) can0 6D0#33FFFD04769FB3D3
(1655539397.964273) can0 201#0F000000400D0300
(1655539397.964420) can0 080#00
(1655539397.964677) can0 181#27004B010000
(1655539397.964875) can0 281#001774040000
(1655539397.965079) can0 381#79020D000600
(1655539397.969438) can0 001#000204760000
(1655539397.969682) can0 6D0#34FFFE04769F6E90
(1655539397.972110) can0 201#0F000000400D0300
(1655539397.972288) can0 080#00
(1655539397.972538) can0 181#27004B010000
(1655539397.972736) can0 281#001774040000
(1655539397.972938) can0 381#79020A000600
(1655539397.977438) can0 001#000204760000
(1655539397.977680) can0 6D0#35FFFD04769F2A4C
(1655539397.979985) can0 201#0F000000400D0300
(1655539397.980161) can0 080#00
(1655539397.980410) can0 181#270048010000
(1655539397.980615) can0 281#001774040000
(1655539397.980816) can0 381#79020C000600
(1655539397.985439) can0 001#000204760000
(1655539397.987791) can0 201#0F000000400D0300
(1655539397.987967) can0 080#00
(1655539397.988185) can0 181#270046010000
(1655539397.988386) can0 281#001774040000
(1655539397.988585) can0 381#79020A000600
(1655539397.993516) can0 001#000304760000
(1655539397.993751) can0 6D0#36FFFD04769FBADD
(1655539397.995704) can0 201#0F000000400D0300
(1655539397.995880) can0 080#00
(1655539397.996103) can0 181#270044010000
(1655539397.996307) can0 281#001774040000
(1655539397.996542) can0 381#7A020A000600
(1655539398.001435) can0 001#000304760000
(1655539398.001672) can0 6D0#37FFFD04769F7397
(1655539398.003458) can0 201#0F000000400D0300
(1655539398.003636) can0 080#00
(1655539398.003854) can0 181#270044010000
(1655539398.004064) can0 281#001774040000
(1655539398.004266) can0 381#79020A000600
(1655539398.009511) can0 001#000304760000
(1655539398.011224) can0 201#0F000000400D0300
(1655539398.011404) can0 080#00
(1655539398.011652) can0 181#270044010000
(1655539398.011868) can0 281#001774040000
(1655539398.012061) can0 381#79020A000600
(1655539398.017441) can0 001#000304760000
(1655539398.017685) can0 6D0#38FFFD047600BE44
(1655539398.019100) can0 201#0F000000400D0300
(1655539398.019276) can0 080#00
(1655539398.019523) can0 181#270044010000
(1655539398.019726) can0 281#001774040000
(1655539398.019926) can0 381#79020D000700
(1655539398.025431) can0 001#000104760000
(1655539398.025668) can0 6D0#39FFFF047600BE47
(1655539398.026907) can0 201#0F000000400D0300
(1655539398.027081) can0 080#00
(1655539398.027327) can0 181#270046010000
(1655539398.027547) can0 281#001774040000
(1655539398.027739) can0 381#79020C000600
(1655539398.033501) can0 001#000304760000
(1655539398.033742) can0 6D0#3AFFFD047600BE46
(1655539398.034759) can0 201#0F000000400D0300
(1655539398.034937) can0 080#00
(1655539398.035155) can0 181#270042010000
(1655539398.035357) can0 281#001774040000
(1655539398.035582) can0 381#79020D000600
(1655539398.039582) can0 080#051800A1
(1655539398.039869) can0 1838F380#0006180618180303
(1655539398.040146) can0 18EEFF80#F30080F300401E90
(1655539398.040440) can0 1839F380#0018181804030393
(1655539398.041432) can0 001#000204760000
(1655539398.041680) can0 6D0#3BFFFE0476A4103E
(1655539398.042761) can0 201#0F000000400D0300
(1655539398.042932) can0 080#00
(1655539398.043160) can0 181#270046010000
(1655539398.043356) can0 281#001774040000
(1655539398.043564) can0 381#7A020A000600
(1655539398.049432) can0 001#000204760000
(1655539398.050278) can0 201#0F000000400D0300
(1655539398.050461) can0 080#00
(1655539398.050709) can0 181#270044010000
(1655539398.050930) can0 281#001774040000
(1655539398.051116) can0 381#79020A000600
(1655539398.057430) can0 001#000204760000
(1655539398.058068) can0 201#0F000000400D0300
(1655539398.058211) can0 080#00
(1655539398.058455) can0 181#270044010000
(1655539398.058668) can0 281#001774040000
(1655539398.058865) can0 381#79020C000600
(1655539398.065501) can0 001#000204760000
(1655539398.065739) can0 6D0#3CFFFE047661A894
(1655539398.065984) can0 201#0F000000400D0300
(1655539398.066125) can0 080#00
(1655539398.066358) can0 181#270042010000
(1655539398.066556) can0 281#001774040000
(1655539398.066756) can0 381#79020A000600
(1655539398.073441) can0 001#000304760000
(1655539398.073680) can0 201#0F000000400D0300
(1655539398.073801) can0 080#00
(1655539398.074032) can0 6D0#3DFFFD0476002AB5
(1655539398.074251) can0 181#270040010000
(1655539398.074439) can0 281#001774040000
(1655539398.074639) can0 381#79020D000700
(1655539398.081453) can0 201#0F000000400D0300
(1655539398.081665) can0 001#000104760000
(1655539398.081778) can0 080#00
(1655539398.081984) can0 181#27003C010000
(1655539398.082202) can0 281#001774040000
(1655539398.082394) can0 381#790209000600
(1655539398.089268) can0 201#0F000000400D0300
(1655539398.089486) can0 001#000304760000
(1655539398.089597) can0 080#00
(1655539398.089800) can0 181#27003E010000
(1655539398.090013) can0 281#001774040000
(1655539398.090206) can0 381#7A020A000600
(1655539398.090444) can0 6D0#3EFFFD0476000490
(1655539398.097064) can0 201#0F000000400D0300
(1655539398.097243) can0 080#00
(1655539398.097470) can0 181#27003B010000
(1655539398.097672) can0 001#000204760000
(1655539398.097873) can0 281#001774040000
(1655539398.098095) can0 381#79020C000800
(1655539398.098321) can0 6D0#3FFFFE0476002AB8
(1655539398.104899) can0 201#0F000000400D0300
(1655539398.105073) can0 080#00
(1655539398.105324) can0 181#27003B010000
(1655539398.105541) can0 001#000304760000
(1655539398.105739) can0 281#001774040000
(1655539398.105945) can0 381#79020C000600
(1655539398.106186) can0 6D0#40FFFD0476000492
(1655539398.112700) can0 201#0F000000400D0300
(1655539398.112878) can0 080#00
(1655539398.113115) can0 181#270039010000
(1655539398.113298) can0 281#001774040000
(1655539398.113508) can0 001#000304760000
(1655539398.113710) can0 381#79020C000600
(1655539398.120558) can0 201#0F000000400D0300
(1655539398.120742) can0 080#00
(1655539398.120986) can0 181#27003B010000
(1655539398.121163) can0 281#001774040000
(1655539398.121377) can0 381#79020A000600
(1655539398.121577) can0 001#000304760000
(1655539398.128330) can0 201#0F000000400D0300
(1655539398.128517) can0 080#00
(1655539398.128781) can0 181#27003B010000
(1655539398.128971) can0 281#001774040000
(1655539398.129171) can0 381#79020C000600
(1655539398.129424) can0 001#000304760000
(1655539398.136127) can0 201#0F000000400D0300
(1655539398.136293) can0 080#00
(1655539398.136536) can0 181#27003C010000
(1655539398.136727) can0 281#001774040000
(1655539398.136940) can0 381#79020A000600
(1655539398.137426) can0 001#000304760000
(1655539398.137668) can0 6D0#41FFFF0476000E9F
(1655539398.139593) can0 080#061800A2
(1655539398.139878) can0 1838F380#000B180B18180303
(1655539398.140160) can0 1839F380#0018181804030393
(1655539398.143944) can0 201#0F000000400D0300
(1655539398.144121) can0 080#00
(1655539398.144337) can0 181#27003B010000
(1655539398.144542) can0 281#001774040000
(1655539398.144747) can0 381#7B020D000600
(1655539398.145428) can0 001#000304760000
(1655539398.151758) can0 201#0F000000400D0300
(1655539398.151933) can0 080#00
(1655539398.152152) can0 181#27003B010000
(1655539398.152357) can0 281#001774040000
(1655539398.152573) can0 381#79020D000600
(1655539398.155149) can0 001#000204760000
(1655539398.155208) can0 6D0#42FFFE04760012A3
(1655539398.159579) can0 201#0F000000400D0300
(1655539398.159754) can0 080#00
(1655539398.160001) can0 181#270035010000
(1655539398.160210) can0 281#001774040000
(1655539398.160408) can0 381#79020A000600
(1655539398.161438) can0 001#000304760000
(1655539398.161683) can0 6D0#43FFFD0476020A9D
(1655539398.167390) can0 201#0F000000400D0300
(1655539398.167570) can0 080#00
(1655539398.167820) can0 181#270035010000
(1655539398.168021) can0 281#001774040000
(1655539398.168228) can0 381#79020C000600
(1655539398.169502) can0 001#000304760000
(1655539398.169748) can0 6D0#44FFFD04760233C7
(1655539398.175262) can0 201#0F000000400D0300
(1655539398.175366) can0 080#00
(1655539398.175626) can0 181#270033010000
(1655539398.175825) can0 281#001774040000
(1655539398.176035) can0 381#79020C000600
(1655539398.177427) can0 001#000104760000
(1655539398.177662) can0 6D0#45FFFF047600B94E
(1655539398.183017) can0 201#0F000000400D0300
(1655539398.183191) can0 080#00
(1655539398.183455) can0 181#270035010000
(1655539398.183659) can0 281#001774040000
(1655539398.183842) can0 381#79020A000700
(1655539398.185502) can0 001#000104760000
(1655539398.190766) can0 201#0F000000400D0300
(1655539398.190951) can0 080#00
(1655539398.191196) can0 181#270031010000
(1655539398.191396) can0 281#001774040000
(1655539398.191605) can0 381#79020C000700
(1655539398.193429) can0 001#000104760000
(1655539398.193667) can0 6D0#46FFFF047600790F
(1655539398.198613) can0 201#0F000000400D0300
(1655539398.198789) can0 080#00
(1655539398.199006) can0 181#27002F010000
(1655539398.199237) can0 281#001774040000
(1655539398.199416) can0 381#79020A000600
(1655539398.201497) can0 001#000304760000
(1655539398.206436) can0 201#0F000000400D0300
(1655539398.206608) can0 080#00
(1655539398.206835) can0 181#270031010000
(1655539398.207031) can0 281#001774040000
(1655539398.207235) can0 381#79020A000600
(1655539398.209424) can0 001#000204760000
(1655539398.209679) can0 6D0#47FFFE047607F794
(1655539398.215525) can0 201#0F000000400D0300
(1655539398.215543) can0 080#00
(1655539398.215551) can0 181#27002F010000
(1655539398.215560) can0 281#001774040000
(1655539398.215568) can0 381#7A020C000600
(1655539398.217423) can0 001#000204760000
(1655539398.222050) can0 201#0F000000400D0300
(1655539398.222224) can0 080#00
(1655539398.222443) can0 181#270031010000
(1655539398.222648) can0 281#001774040000
(1655539398.222854) can0 381#7A020C000700
(1655539398.225494) can0 001#000204760000
(1655539398.229847) can0 201#0F000000400D0300
(1655539398.229993) can0 080#00
(1655539398.230247) can0 181#270031010000
(1655539398.230443) can0 281#001774040000
(1655539398.230650) can0 381#79020C000600
(1655539398.233417) can0 001#000104760000
(1655539398.233657) can0 6D0#48FFFF04760800A0
(1655539398.237661) can0 201#0F000000400D0300
(1655539398.237835) can0 080#00
(1655539398.238054) can0 181#270033010000
(1655539398.238263) can0 281#001774040000
(1655539398.238460) can0 381#790209000600
(1655539398.239572) can0 080#051800A1
(1655539398.239860) can0 1838F380#0000180018180303
(1655539398.240139) can0 18EEFF80#F30080F300401E90
(1655539398.240428) can0 1839F380#0018181804030393
(1655539398.241490) can0 001#000104760000
(1655539398.245486) can0 201#0F000000400D0300
(1655539398.245662) can0 080#00
(1655539398.245887) can0 181#27002D010000
(1655539398.246086) can0 281#001774040000
(1655539398.246290) can0 381#79020C000600
(1655539398.249419) can0 001#000204760000
(1655539398.249657) can0 6D0#49FFFE0476000098
(1655539398.253279) can0 201#0F000000400D0300
(1655539398.253424) can0 080#00
(1655539398.253688) can0 181#27002D010000
(1655539398.253885) can0 281#001774040000
(1655539398.254097) can0 381#79020C000600
(1655539398.257492) can0 001#000104760000
(1655539398.261104) can0 201#0F000000400D0300
(1655539398.261280) can0 080#00
(1655539398.261501) can0 181#27002C010000
(1655539398.261704) can0 281#001774040000
(1655539398.261908) can0 381#79020A000700
(1655539398.265425) can0 001#000304760000
(1655539398.265658) can0 6D0#4AFFFD0476081FBF
(1655539398.268904) can0 201#0F000000400D0300
(1655539398.269047) can0 080#00
(1655539398.269300) can0 181#270028010000
(1655539398.269504) can0 281#001774040000
(1655539398.269708) can0 381#79020D000600
(1655539398.273484) can0 001#000104760000
(1655539398.276720) can0 201#0F000000400D0300
(1655539398.276894) can0 080#00
(1655539398.277113) can0 181#27002C010000
(1655539398.277317) can0 281#001774040000
(1655539398.277519) can0 381#79020A000600
(1655539398.281418) can0 001#000304760000
(1655539398.281650) can0 6D0#4BFFFD0476117A24
(1655539398.284539) can0 201#0F000000400D0300
(1655539398.284719) can0 080#00
(1655539398.284940) can0 181#27002A010000
(1655539398.285143) can0 281#001774040000
(1655539398.285351) can0 381#79020C000600
(1655539398.289421) can0 001#000304760000
(1655539398.292299) can0 201#0F000000400D0300
(1655539398.292474) can0 080#00
(1655539398.292721) can0 181#27002A010000
(1655539398.292931) can0 281#001774040000
(1655539398.293131) can0 381#79020E000700
(1655539398.297496) can0 001#000304760000
(1655539398.300156) can0 201#0F000000400D0300
(1655539398.300331) can0 080#00
(1655539398.300563) can0 181#270026010000
(1655539398.300771) can0 281#001774040000
(1655539398.300973) can0 381#79020C000600
(1655539398.305418) can0 001#000304760000
(1655539398.305657) can0 6D0#4CFFFD047608983A
(1655539398.308033) can0 201#0F000000400D0300
(1655539398.308217) can0 080#00
(1655539398.308435) can0 181#270026010000
(1655539398.308640) can0 281#001774040000
(1655539398.308843) can0 381#79020E000600
(1655539398.313488) can0 001#000304760000
(1655539398.315852) can0 201#0F000000400D0300
(1655539398.316023) can0 080#00
(1655539398.316247) can0 181#270024010000
(1655539398.316451) can0 281#001774040000
(1655539398.316648) can0 381#79020A000600
(1655539398.321423) can0 001#000304760000
(1655539398.321651) can0 6D0#4DFFFD0476076C0E
(1655539398.323773) can0 201#0F000000400D0300
(1655539398.323948) can0 080#00
(1655539398.324168) can0 181#270024010000
(1655539398.324372) can0 281#001774040000
(1655539398.324577) can0 381#7A020A000600
(1655539398.329503) can0 001#000204760000
(1655539398.329736) can0 6D0#4EFFFE047600019E
(1655539398.331531) can0 201#0F000000400D0300
(1655539398.331705) can0 080#00
(1655539398.331926) can0 181#27002A010000
(1655539398.332130) can0 281#001774040000
(1655539398.332335) can0 381#79020C000600
(1655539398.337422) can0 001#000104760000
(1655539398.337646) can0 6D0#4FFFFF047690E110
(1655539398.339355) can0 201#0F000000400D0300
(1655539398.339527) can0 080#00
(1655539398.339813) can0 1838F380#0003180318180303
(1655539398.340019) can0 181#270026010000
(1655539398.340225) can0 281#001774040000
(1655539398.340426) can0 381#79020C000600
(1655539398.340714) can0 1839F380#0018181804030393
(1655539398.340882) can0 080#061800A2
(1655539398.345503) can0 001#000304760000
(1655539398.345727) can0 6D0#50FFFD04764F311E
(1655539398.347204) can0 201#0F000000400D0300
(1655539398.347380) can0 080#00
(1655539398.347607) can0 181#270028010000
(1655539398.347818) can0 281#001774040000
(1655539398.348016) can0 381#79020C000600
(1655539398.353422) can0 001#000104760000
(1655539398.353650) can0 6D0#51FFFF04762131F3
(1655539398.354963) can0 201#0F000000400D0300
(1655539398.355137) can0 080#00
(1655539398.355365) can0 181#270022010000
(1655539398.355565) can0 281#001774040000
(1655539398.355766) can0 381#79020A000600
(1655539398.361418) can0 001#000104760000
(1655539398.361657) can0 6D0#52FFFE04760000A1
(1655539398.362827) can0 201#0F000000400D0300
(1655539398.363001) can0 080#00
(1655539398.363231) can0 181#270022010000
(1655539398.363430) can0 281#001774040000
(1655539398.363633) can0 381#79020D000600
(1655539398.369416) can0 001#000104760000
(1655539398.370526) can0 201#0F000000400D0300
(1655539398.370705) can0 080#00
(1655539398.370960) can0 181#27001E010000
(1655539398.371169) can0 281#001774040000
(1655539398.371367) can0 381#79020D000600
(1655539398.377491) can0 001#000104760000
(1655539398.377727) can0 6D0#53FFFF04760000A3
(1655539398.378405) can0 201#0F000000400D0300
(1655539398.378616) can0 080#00
(1655539398.378839) can0 181#27001E010000
(1655539398.379045) can0 281#001774040000
(1655539398.379267) can0 381#7A020C000600
(1655539398.385416) can0 001#000304760000
(1655539398.385645) can0 6D0#54FFFD04760236DA
(1655539398.386253) can0 201#0F000000400D0300
(1655539398.386432) can0 080#00
(1655539398.386654) can0 181#27001D010000
(1655539398.386858) can0 281#001774040000
(1655539398.387065) can0 381#7A020C000600
(1655539398.393480) can0 001#000304760000
(1655539398.393721) can0 6D0#55FFFE04760000A4
(1655539398.393974) can0 201#0F000000400D0300
(1655539398.394191) can0 080#00
(1655539398.394414) can0 181#27001D010000
(1655539398.394617) can0 281#001774040000
(1655539398.394822) can0 381#79020A000600
(1655539398.401413) can0 001#000204760000
(1655539398.401657) can0 6D0#56FFFE04760000A5
(1655539398.401894) can0 201#0F000000400D0300
(1655539398.402012) can0 080#00
(1655539398.402266) can0 181#27001D010000
(1655539398.402471) can0 281#001774040000
(1655539398.402675) can0 381#79020A000600
(1655539398.409511) can0 201#0F000000400D0300
(1655539398.409720) can0 001#000204760000
(1655539398.409836) can0 080#00
(1655539398.410041) can0 181#27001D010000
(1655539398.410245) can0 281#001774040000
(1655539398.410452) can0 381#79020C000600
(1655539398.417281) can0 201#0F000000400D0300
(1655539398.417491) can0 001#000304760000
(1655539398.417607) can0 080#00
(1655539398.417809) can0 181#27001B010000
(1655539398.418014) can0 281#001774040000
(1655539398.418223) can0 381#79020C000700
(1655539398.418458) can0 6D0#57FFFF04760000A7
(1655539398.425149) can0 201#0F000000400D0300
(1655539398.425325) can0 080#00
(1655539398.425535) can0 001#000304760000
(1655539398.425738) can0 181#27001B010000
(1655539398.425942) can0 281#001774040000
(1655539398.426147) can0 381#7A020C000600
(1655539398.426385) can0 6D0#58FFFD0476FFD87D
(1655539398.432954) can0 201#0F000000400D0300
(1655539398.433128) can0 080#00
(1655539398.433352) can0 181#27001B010000
(1655539398.433563) can0 001#000204760000
(1655539398.433770) can0 281#001774040000
(1655539398.433965) can0 381#79020D000700
(1655539398.434224) can0 6D0#59FFFE04760000A8
(1655539398.439575) can0 080#051800A1
(1655539398.439866) can0 1838F380#0006180618180303
(1655539398.440144) can0 1839F380#0018181804030393
(1655539398.440428) can0 18EEFF80#F30080F300401E90
(1655539398.441236) can0 201#0F000000400D0300
(1655539398.441445) can0 001#000204760000
(1655539398.441561) can0 080#00
(1655539398.441774) can0 181#27001D010000
(1655539398.441977) can0 281#001774040000
(1655539398.442171) can0 381#790209000600
(1655539398.448637) can0 201#0F000000400D0300
(1655539398.448813) can0 080#00
(1655539398.449050) can0 181#27001D010000
(1655539398.449248) can0 281#001774040000
(1655539398.449464) can0 381#79020C000600
(1655539398.449657) can0 001#000204760000
(1655539398.456386) can0 201#0F000000400D0300
(1655539398.456561) can0 080#00
(1655539398.456783) can0 181#27001B010000
(1655539398.456987) can0 281#001774040000
(1655539398.457193) can0 381#79020C000600
(1655539398.457430) can0 001#000104760000
(1655539398.457655) can0 6D0#5AFFFF04760000AA
(1655539398.464193) can0 201#0F000000400D0300
(1655539398.464366) can0 080#00
(1655539398.464591) can0 181#27001B010000
(1655539398.464795) can0 281#001774040000
(1655539398.464995) can0 381#79020A000600
(1655539398.465489) can0 001#000104760000
(1655539398.465735) can0 6D0#5BFFFE04760000AA
(1655539398.472021) can0 201#0F000000400D0300
(1655539398.472196) can0 080#00
(1655539398.472443) can0 181#270017010000
(1655539398.472655) can0 281#001774040000
(1655539398.472853) can0 381#79020C000700
(1655539398.473411) can0 001#000304760000
(1655539398.473646) can0 6D0#5CFFFD04760000AA
(1655539398.479832) can0 201#0F000000400D0300
(1655539398.479996) can0 080#00
(1655539398.480212) can0 181#270015010000
(1655539398.480413) can0 281#001774040000
(1655539398.480630) can0 381#79020A000600
(1655539398.481481) can0 001#000104760000
(1655539398.487642) can0 201#0F000000400D0300
(1655539398.487822) can0 080#00
(1655539398.488069) can0 181#270013010000
(1655539398.488270) can0 281#001774040000
(1655539398.488479) can0 381#79020A000600
(1655539398.489411) can0 001#000304760000
(1655539398.489655) can0 6D0#5DFFFD04760000AB
(1655539398.495457) can0 201#0F000000400D0300
(1655539398.495622) can0 080#00
(1655539398.495875) can0 181#270015010000
(1655539398.496096) can0 281#001774040000
(1655539398.496285) can0 381#79020F000600
(1655539398.497480) can0 001#000204760000
(1655539398.503246) can0 201#0F000000400D0300
(1655539398.503425) can0 080#00
(1655539398.503653) can0 181#270013010000
(1655539398.503850) can0 281#001774040000
(1655539398.504058) can0 381#7A020A000600
(1655539398.505410) can0 001#000104760000
(1655539398.505649) can0 6D0#5EFFFF04760000AE
(1655539398.511074) can0 201#0F000000400D0300
(1655539398.511248) can0 080#00
(1655539398.511496) can0 181#270011010000
(1655539398.511720) can0 281#001774040000
(1655539398.511904) can0 381#79020A000600
(1655539398.513420) can0 001#000104760000
(1655539398.518864) can0 201#0F000000400D0300
(1655539398.519038) can0 080#00
(1655539398.519263) can0 181#27000F010000
(1655539398.519466) can0 281#001774040000
(1655539398.519671) can0 381#79020D000600
(1655539398.521484) can0 001#000104760000
(1655539398.526687) can0 201#0F000000400D0300
(1655539398.526848) can0 080#00
(1655539398.527071) can0 181#27000F010000
(1655539398.527273) can0 281#001774040000
(1655539398.527482) can0 381#7A020A000600
(1655539398.529420) can0 001#000204760000
(1655539398.529654) can0 6D0#5FFFFE04760000AE
(1655539398.534497) can0 201#0F000000400D0300
(1655539398.534679) can0 080#00
(1655539398.534935) can0 181#270011010000
(1655539398.535131) can0 281#001774040000
(1655539398.535358) can0 381#79020C000600
(1655539398.538783) can0 001#000304760000
(1655539398.539583) can0 080#061800A2
(1655539398.539928) can0 1838F380#000B180B18180303
(1655539398.540156) can0 1839F380#0018181804030393
(1655539398.542483) can0 201#0F000000400D0300
(1655539398.542656) can0 080#00
(1655539398.542877) can0 181#270013010000
(1655539398.543093) can0 281#001774040000
(1655539398.543294) can0 381#7A020C000600
(1655539398.545420) can0 001#000104760000
(1655539398.545652) can0 6D0#60FFFF04760000B0
(1655539398.550111) can0 201#0F000000400D0300
(1655539398.550282) can0 080#00
(1655539398.550521) can0 181#270011010000
(1655539398.550714) can0 281#001774040000
(1655539398.550915) can0 381#790209000600
(1655539398.553480) can0 001#000204760000
(1655539398.557928) can0 201#0F000000400D0300
(1655539398.558107) can0 080#00
(1655539398.558326) can0 181#270011010000
(1655539398.558529) can0 281#001774040000
(1655539398.558741) can0 381#7A020A000600
(1655539398.561420) can0 001#000304760000
(1655539398.561655) can0 6D0#61FFFD04760000AF
(1655539398.565692) can0 201#0F000000400D0300
(1655539398.565862) can0 080#00
(1655539398.566111) can0 181#27000F010000
(1655539398.566322) can0 281#001774040000
(1655539398.566519) can0 381#79020C000600
(1655539398.569477) can0 001#000104760000
(1655539398.569747) can0 6D0#62FFFF04760000B2
(1655539398.573540) can0 201#0F000000400D0300
(1655539398.573718) can0 080#00
(1655539398.573935) can0 181#27000E010000
(1655539398.574136) can0 281#001774040000
(1655539398.574345) can0 381#79020C000600
(1655539398.577407) can0 001#000304760000
(1655539398.577649) can0 6D0#63FFFD04760000B1
(1655539398.581362) can0 201#0F000000400D0300
(1655539398.581541) can0 080#00
(1655539398.581764) can0 181#27000C010000
(1655539398.581965) can0 281#001774040000
(1655539398.582177) can0 381#79020E000600
(1655539398.585408) can0 001#000304760000
(1655539398.589159) can0 201#0F000000400D0300
(1655539398.589302) can0 080#00
(1655539398.589560) can0 181#270008010000
(1655539398.589768) can0 281#001774040000
(1655539398.589981) can0 381#79020C000600
(1655539398.593481) can0 001#000304760000
(1655539398.596937) can0 201#0F000000400D0300
(1655539398.597119) can0 080#00
(1655539398.597362) can0 181#27000C010000
(1655539398.597565) can0 281#001774040000
(1655539398.597769) can0 381#79020A000600
(1655539398.601406) can0 001#000304760000
(1655539398.601654) can0 6D0#64FFFD04760000B2
(1655539398.604789) can0 201#0F000000400D0300
(1655539398.604964) can0 080#00
(1655539398.605215) can0 181#270008010000
(1655539398.605389) can0 281#001774040000
(1655539398.605594) can0 381#7A020E000600
(1655539398.609477) can0 001#000304760000
(1655539398.612600) can0 201#0F000000400D0300
(1655539398.612769) can0 080#00
(1655539398.613007) can0 181#270008010000
(1655539398.613195) can0 281#001774040000
(1655539398.613428) can0 381#79020A000600
(1655539398.617403) can0 001#000104760000
(1655539398.617642) can0 6D0#65FFFF04760000B5
(1655539398.620404) can0 201#0F000000400D0300
(1655539398.620585) can0 080#00
(1655539398.620807) can0 181#270008010000
(1655539398.621010) can0 281#001774040000
(1655539398.621215) can0 381#79020A000600
(1655539398.625477) can0 001#000304760000
(1655539398.625709) can0 6D0#66FFFD04760000B4
(1655539398.628226) can0 201#0F000000400D0300
(1655539398.628398) can0 080#00
(1655539398.628625) can0 181#270006010000
(1655539398.628832) can0 281#001774040000
(1655539398.629038) can0 381#79020E000C00
(1655539398.633406) can0 001#000104760000
(1655539398.633642) can0 6D0#67FFFF0476FFFFB5
(1655539398.636041) can0 201#0F000000400D0300
(1655539398.636211) can0 080#00
(1655539398.636438) can0 181#270006010000
(1655539398.636635) can0 281#001774040000
(1655539398.636840) can0 381#79020A000600
(1655539398.639630) can0 080#051800A1
(1655539398.639926) can0 1838F380#0000180018180303
(1655539398.640204) can0 1839F380#0018181804030393
(1655539398.640485) can0 18EEFF80#F30080F300401E90
(1655539398.641479) can0 001#000104760000
(1655539398.641721) can0 6D0#6EFFFF04760040FE
(1655539398.643972) can0 201#0F000000400D0300
(1655539398.644145) can0 080#00
(1655539398.644373) can0 181#270006010000
(1655539398.644577) can0 281#001774040000
(1655539398.644780) can0 381#79020A000700
(1655539398.649403) can0 001#000304760000
(1655539398.649641) can0 6D0#73FFFD04760800C9
(1655539398.651833) can0 201#0F000000400D0300
(1655539398.652007) can0 080#00
(1655539398.652229) can0 181#270008010000
(1655539398.652433) can0 281#001774040000
(1655539398.652675) can0 381#7D020E000800
(1655539398.657412) can0 001#000304760000
(1655539398.657664) can0 6D0#74FFFF04760800CC
(1655539398.659592) can0 201#0F000000400D0300
(1655539398.659765) can0 080#00
(1655539398.659988) can0 181#270008010000
(1655539398.660192) can0 281#001774040000
(1655539398.660400) can0 381#79020A000600
(1655539398.665406) can0 001#000304760000
(1655539398.667349) can0 201#0F000000400D0300
(1655539398.667549) can0 080#00
(1655539398.667782) can0 181#270006010000
(1655539398.667985) can0 281#001774040000
(1655539398.668188) can0 381#79020A000600
(1655539398.673482) can0 001#000304760000
(1655539398.673734) can0 6D0#75FFFD04760000C3
(1655539398.675224) can0 201#0F000000400D0300
(1655539398.675396) can0 080#00
(1655539398.675653) can0 181#270004010000
(1655539398.675857) can0 281#001774040000
(1655539398.676061) can0 381#79020C000600
(1655539398.681410) can0 001#000104760000
(1655539398.681656) can0 6D0#76FFFF04760000C6
(1655539398.683027) can0 201#0F000000400D0300
(1655539398.683219) can0 080#00
(1655539398.683424) can0 181#270002010000
(1655539398.683627) can0 281#001774040000
(1655539398.683837) can0 381#7A020A000600
(1655539398.689473) can0 001#000104760000
(1655539398.689718) can0 6D0#77FFFE04760000C6
(1655539398.690846) can0 201#0F000000400D0300
(1655539398.691031) can0 080#00
(1655539398.691293) can0 181#270000010000
(1655539398.691484) can0 281#001774040000
(1655539398.691692) can0 381#79020C000600
(1655539398.697402) can0 001#000304760000
(1655539398.697639) can0 6D0#78FFFD04760000C6
(1655539398.698668) can0 201#0F000000400D0300
(1655539398.698834) can0 080#00
(1655539398.699093) can0 181#270000010000
(1655539398.699294) can0 281#001774040000
(1655539398.699496) can0 381#79020C000600
(1655539398.705483) can0 001#000304760000
(1655539398.706395) can0 201#0F000000400D0300
(1655539398.706573) can0 080#00
(1655539398.706800) can0 181#270000010000
(1655539398.706999) can0 281#001774040000
(1655539398.707207) can0 381#7A020A000600
(1655539398.713400) can0 001#000204760000
(1655539398.713655) can0 6D0#79FFFE04760000C8
(1655539398.714315) can0 201#0F000000400D0300
(1655539398.714496) can0 080#00
(1655539398.714735) can0 181#270000010000
(1655539398.714923) can0 281#001774040000
(1655539398.715130) can0 381#79020A000600
(1655539398.721403) can0 001#000204760000
(1655539398.721640) can0 6D0#7AFFFE04760000C9
(1655539398.722088) can0 201#0F000000400D0300
(1655539398.722259) can0 080#00
(1655539398.722477) can0 181#2700FF000000
(1655539398.722682) can0 281#001774040000
(1655539398.722885) can0 381#79020D000600
(1655539398.729411) can0 001#000204760000
(1655539398.729830) can0 201#0F000000400D0300
(1655539398.729998) can0 080#00
(1655539398.730223) can0 181#2700FD000000
(1655539398.730431) can0 281#001774040000
(1655539398.730641) can0 381#79020C000600
(1655539398.737479) can0 001#000204760000
(1655539398.737714) can0 201#0F000000400D0300
(1655539398.737873) can0 080#00
(1655539398.738095) can0 181#2700FB000000
(1655539398.738304) can0 281#001774040000
(1655539398.738499) can0 381#79020C000700
(1655539398.739577) can0 080#061800A2
(1655539398.739861) can0 1838F380#0003180318180303
(1655539398.740148) can0 1839F380#0018181804030393
(1655539398.745400) can0 201#0F000000400D0300
(1655539398.745610) can0 001#000204760000
(1655539398.745722) can0 080#00
(1655539398.745939) can0 181#2700FD000000
(1655539398.746134) can0 281#001774040000
(1655539398.746337) can0 381#79020C000600
(1655539398.746592) can0 6D0#7BFFFE04760003CD
(1655539398.753207) can0 201#0F000000400D0300
(1655539398.753472) can0 001#000104760000
(1655539398.753585) can0 080#00
(1655539398.753817) can0 181#2700FD000000
(1655539398.753994) can0 281#001774040000
(1655539398.754207) can0 381#7A020A000800
(1655539398.754437) can0 6D0#7CFFFF04760006D2
(1655539398.761033) can0 201#0F000000400D0300
(1655539398.761224) can0 080#00
(1655539398.761423) can0 001#000204760000
(1655539398.761627) can0 181#2700FB000000
(1655539398.761863) can0 281#001774040000
(1655539398.762040) can0 381#79020A000700
(1655539398.762283) can0 6D0#7DFFFE04760030FC
(1655539398.768842) can0 201#0F000000400D0300
(1655539398.769011) can0 080#00
(1655539398.769311) can0 181#2700FB000000
(1655539398.769488) can0 001#000204760000
(1655539398.769683) can0 281#001774040000
(1655539398.769914) can0 381#79020D000600
(1655539398.770128) can0 6D0#7EFFFE04760000CD
(1655539398.776651) can0 201#0F000000400D0300
(1655539398.776818) can0 080#00
(1655539398.777040) can0 181#2700FD000000
(1655539398.777243) can0 281#001774040000
(1655539398.777454) can0 001#000104760000
(1655539398.777654) can0 381#79020A000600
(1655539398.777895) can0 6D0#7FFFFF047602EEBF
(1655539398.784454) can0 201#0F000000400D0300
(1655539398.784634) can0 080#00
(1655539398.784889) can0 181#2700FB000000
(1655539398.785094) can0 281#001774040000
(1655539398.785296) can0 381#79020A000600
(1655539398.785500) can0 001#000104760000
(1655539398.785754) can0 6D0#80FFFE04760000CF
(1655539398.792307) can0 201#0F000000400D0300
(1655539398.792482) can0 080#00
(1655539398.792711) can0 181#2700FB000000
(1655539398.792940) can0 281#001774040000
(1655539398.793120) can0 381#79020C000600
(1655539398.793405) can0 001#000204760000
(1655539398.793636) can0 6D0#00FFFE0476010353
(1655539398.800074) can0 201#0F000000400D0300
(1655539398.800254) can0 080#00
(1655539398.800467) can0 181#2700F7000000
(1655539398.800692) can0 281#001774040000
(1655539398.800874) can0 381#7A020A000600
(1655539398.801400) can0 001#000204760000
(1655539398.807887) can0 201#0F000000400D0300
(1655539398.808058) can0 080#00
(1655539398.808286) can0 181#2700F7000000
(1655539398.808485) can0 281#001774040000
(1655539398.808688) can0 381#79020A000600
(1655539398.809402) can0 001#000204760000
(1655539398.815742) can0 201#0F000000400D0300
(1655539398.815890) can0 080#00
(1655539398.816139) can0 181#2700F5000000
(1655539398.816338) can0 281#001774040000
(1655539398.816551) can0 381#79020C000600
(1655539398.817469) can0 001#000204760000
(1655539398.823534) can0 201#0F000000400D0300
(1655539398.823692) can0 080#00
(1655539398.823947) can0 181#2700F3000000
(1655539398.824148) can0 281#001774040000
(1655539398.824353) can0 381#79020C000600
(1655539398.825412) can0 001#000104760000
(1655539398.825643) can0 6D0#01FFFF047606035A
(1655539398.832175) can0 201#0F000000400D0300
(1655539398.832216) can0 080#00
(1655539398.832228) can0 181#2700F3000000
(1655539398.832240) can0 281#001774040000
(1655539398.832259) can0 381#790209000600
(1655539398.833515) can0 001#000204760000
(1655539398.833875) can0 200#05009B009B000000
(1655539398.839174) can0 201#0F000000400D0300
(1655539398.839350) can0 080#00
(1655539398.839576) can0 181#2700F1000000
(1655539398.839780) can0 281#001774040000
(1655539398.839992) can0 381#7A020C000600
(1655539398.840276) can0 1839F380#0018181804030393
(1655539398.840562) can0 1838F380#0006180618180303
(1655539398.840730) can0 080#051800A1
(1655539398.841395) can0 001#000204760000
(1655539398.841633) can0 6D0#02FFFE0476057AD0
(1655539398.842258) can0 18EEFF80#F30080F300401E90
(1655539398.846931) can0 201#0F000000400D0300
(1655539398.847098) can0 080#00
(1655539398.847354) can0 181#2700F3000000
(1655539398.847525) can0 281#001774040000
(1655539398.847761) can0 381#79020E000600
(1655539398.849463) can0 001#000104760000
(1655539398.849701) can0 6D0#03FFFF047624037A
(1655539398.854736) can0 201#0F000000400D0300
(1655539398.854917) can0 080#00
(1655539398.855134) can0 181#2700F1000000
(1655539398.855347) can0 281#001774040000
(1655539398.855544) can0 381#79020A000700
(1655539398.857397) can0 001#000204760000
(1655539398.857631) can0 6D0#04FFFE04760063B6
(1655539398.862569) can0 201#0F000000400D0300
(1655539398.862747) can0 080#00
(1655539398.862996) can0 181#2700F1000000
(1655539398.863205) can0 281#001774040000
(1655539398.863408) can0 381#79020A000800
(1655539398.865468) can0 001#000304760000
(1655539398.865720) can0 6D0#05FFFD0476000053
(1655539398.870357) can0 201#0F000000400D0300
(1655539398.870542) can0 080#00
(1655539398.870756) can0 181#2700EE000000
(1655539398.870962) can0 281#001774040000
(1655539398.871168) can0 381#79020C000600
(1655539398.873394) can0 001#000104760000
(1655539398.873642) can0 6D0#06FFFF0476003086
(1655539398.878170) can0 201#0F000000400D0300
(1655539398.878344) can0 080#00
(1655539398.878572) can0 181#2700F0000000
(1655539398.878776) can0 281#001774040000
(1655539398.878978) can0 381#7A0209000600
(1655539398.881392) can0 001#000104760000
(1655539398.881640) can0 6D0#07FFFE0476001C72
(1655539398.885989) can0 201#0F000000400D0300
(1655539398.886164) can0 080#00
(1655539398.886393) can0 181#2700F1000000
(1655539398.886592) can0 281#001774040000
(1655539398.886804) can0 381#7E020C000600
(1655539398.889399) can0 001#000104760000
(1655539398.893793) can0 201#0F000000400D0300
(1655539398.893972) can0 080#00
(1655539398.894194) can0 181#2700F1000000
(1655539398.894402) can0 281#001774040000
(1655539398.894602) can0 381#79020C000600
(1655539398.897462) can0 001#000104760000
(1655539398.897711) can0 6D0#08FFFF0476005CB4
(1655539398.901613) can0 201#0F000000400D0300
(1655539398.901783) can0 080#00
(1655539398.902009) can0 181#2700F1000000
(1655539398.902215) can0 281#001774040000
(1655539398.902415) can0 381#7A020A000700
(1655539398.905392) can0 001#000104760000
(1655539398.905639) can0 6D0#09FFFF0476000059
(1655539398.909427) can0 201#0F000000400D0300
(1655539398.909609) can0 080#00
(1655539398.909870) can0 181#2700F0000000
(1655539398.910065) can0 281#001774040000
(1655539398.910274) can0 381#7A020C000700
(1655539398.913457) can0 001#000104760000
(1655539398.913699) can0 6D0#0AFFFD0476003088
(1655539398.917223) can0 201#0F000000400D0300
(1655539398.917401) can0 080#00
(1655539398.917633) can0 181#2700EC000000
(1655539398.917832) can0 281#001774040000
(1655539398.918044) can0 381#79020C000600
(1655539398.921389) can0 001#000104760000
(1655539398.921631) can0 6D0#0BFFFF04760258B5
(1655539398.925030) can0 201#0F000000400D0300
(1655539398.925175) can0 080#00
(1655539398.925428) can0 181#2700EA000000
(1655539398.925626) can0 281#001774040000
(1655539398.925835) can0 381#79020A000600
(1655539398.929457) can0 001#000104760000
(1655539398.932847) can0 201#0F000000400D0300
(1655539398.933024) can0 080#00
(1655539398.933253) can0 181#2700EC000000
(1655539398.933460) can0 281#001774040000
(1655539398.933650) can0 381#79020A000600
(1655539398.937388) can0 001#000304760000
(1655539398.937636) can0 6D0#0CFFFD047600035D
(1655539398.939584) can0 080#061800A2
(1655539398.939878) can0 1838F380#000B180B18180303
(1655539398.940157) can0 1839F380#0018181804030393
(1655539398.941038) can0 201#0F000000400D0300
(1655539398.941213) can0 080#00
(1655539398.941441) can0 181#2700EA000000
(1655539398.941639) can0 281#001774040000
(1655539398.941848) can0 381#79020C000600
(1655539398.945472) can0 001#000104760000
(1655539398.945721) can0 6D0#0DFFFF04760476D7
(1655539398.948472) can0 201#0F000000400D0300
(1655539398.948651) can0 080#00
(1655539398.948869) can0 181#2700EA000000
(1655539398.949077) can0 281#001774040000
(1655539398.949285) can0 381#79020C000700
(1655539398.953387) can0 001#000104760000
(1655539398.953632) can0 6D0#0EFFFF04760476D8
(1655539398.956277) can0 201#0F000000400D0300
(1655539398.956457) can0 080#00
(1655539398.956685) can0 181#2700EA000000
(1655539398.956891) can0 281#001774040000
(1655539398.957084) can0 381#7B020C000700
(1655539398.961395) can0 001#000104760000
(1655539398.964106) can0 201#0F000000400D0300
(1655539398.964282) can0 080#00
(1655539398.964554) can0 181#2700E6000000
(1655539398.964760) can0 281#001774040000
(1655539398.964953) can0 381#79020C000600
(1655539398.969471) can0 001#000104760000
(1655539398.971914) can0 201#0F000000400D0300
(1655539398.972087) can0 080#00
(1655539398.972304) can0 181#2700E8000000
(1655539398.972507) can0 281#001774040000
(1655539398.972715) can0 381#79020C000600
(1655539398.977388) can0 001#000104760000
(1655539398.977629) can0 6D0#0FFFFF047600B716
(1655539398.979871) can0 201#0F000000400D0300
(1655539398.980035) can0 080#00
(1655539398.980285) can0 181#2700E4000000
(1655539398.980494) can0 281#001774040000
(1655539398.980693) can0 381#790209000600
(1655539398.985460) can0 001#000204760000
(1655539398.987654) can0 201#0F000000400D0300
(1655539398.987829) can0 080#00
(1655539398.988054) can0 181#2700E6000000
(1655539398.988258) can0 281#001774040000
(1655539398.988466) can0 381#79020A000600
(1655539398.993389) can0 001#000204760000
(1655539398.993626) can0 6D0#10FFFE047602B011
(1655539398.995477) can0 201#0F000000400D0300
(1655539398.995656) can0 080#00
(1655539398.995907) can0 181#2700E4000000
(1655539398.996119) can0 281#001774040000
(1655539398.996314) can0 381#79020E000600
(1655539399.001457) can0 001#000104760000
(1655539399.003216) can0 201#0F000000400D0300
(1655539399.003389) can0 080#00
(1655539399.003615) can0 181#2700E4000000
(1655539399.003821) can0 281#001774040000
(1655539399.004020) can0 381#7A020C000800
(1655539399.009389) can0 001#000204760000
(1655539399.009647) can0 6D0#11FFFE0476003595
(1655539399.011108) can0 201#0F000000400D0300
(1655539399.011279) can0 080#00
(1655539399.011534) can0 181#2700E4000000
(1655539399.011738) can0 281#001774040000
(1655539399.011956) can0 381#79020A000600
(1655539399.017457) can0 001#000204760000
(1655539399.018859) can0 201#0F000000400D0300
(1655539399.019027) can0 080#00
(1655539399.019280) can0 181#2700E4000000
(1655539399.019493) can0 281#001774040000
(1655539399.019691) can0 381#79020C000600
(1655539399.025389) can0 001#000104760000
(1655539399.025621) can0 6D0#12FFFF047600086A
(1655539399.026726) can0 201#0F000000400D0300
(1655539399.026900) can0 080#00
(1655539399.027150) can0 181#2700E6000000
(1655539399.027365) can0 281#001774040000
(1655539399.027563) can0 381#79020C000600
(1655539399.033389) can0 001#000104760000
(1655539399.033629) can0 6D0#13FFFF04760064C7
(1655539399.034573) can0 201#0F000000400D0300
(1655539399.034744) can0 080#00
(1655539399.034975) can0 181#2700E4000000
(1655539399.035173) can0 281#001774040000
(1655539399.035378) can0 381#7B020C000700
(1655539399.039555) can0 080#051800A1
(1655539399.039856) can0 1838F380#0000180018180303
(1655539399.040122) can0 18EEFF80#F30080F300401E90
(1655539399.040431) can0 1839F380#0018181804030393
(1655539399.041392) can0 001#000104760000
(1655539399.042633) can0 201#0F000000400D0300
(1655539399.042808) can0 080#00
(1655539399.043033) can0 181#2700E2000000
(1655539399.043236) can0 281#001774040000
(1655539399.043442) can0 381#7A020C000600
(1655539399.049452) can0 001#000104760000
(1655539399.049708) can0 6D0#14FFFF04762CA434
(1655539399.050145) can0 201#0F000000400D0300
(1655539399.050320) can0 080#00
(1655539399.050577) can0 181#2700E1000000
(1655539399.050780) can0 281#001774040000
(1655539399.050984) can0 381#79020E000600
(1655539399.057386) can0 001#000104760000
(1655539399.057626) can0 6D0#15FFFF04767FFEE2
(1655539399.057974) can0 201#0F000000400D0300
(1655539399.058144) can0 080#00
(1655539399.058390) can0 181#2700E1000000
(1655539399.058600) can0 281#001774040000
(1655539399.058804) can0 381#7B0209000600
(1655539399.065465) can0 001#000104760000
(1655539399.065713) can0 201#0F000000400D0300
(1655539399.065949) can0 6D0#16FFFE0476049801
(1655539399.066062) can0 080#00
(1655539399.066275) can0 181#2700DD000000
(1655539399.066486) can0 281#001774040000
(1655539399.066671) can0 381#7A020D000600
(1655539399.073411) can0 201#0F000000400D0300
(1655539399.073624) can0 001#000204760000
(1655539399.073735) can0 080#00
(1655539399.073942) can0 181#2700DF000000
(1655539399.074147) can0 281#001774040000
(1655539399.074350) can0 381#79020D000600
(1655539399.074588) can0 6D0#17FFFE047602BC24
(1655539399.081270) can0 201#0F000000400D0300
(1655539399.081479) can0 001#000104760000
(1655539399.081595) can0 080#00
(1655539399.081799) can0 181#2700DB000000
(1655539399.082004) can0 281#001774040000
(1655539399.082205) can0 381#79020D000700
(1655539399.089070) can0 201#0F000000400D0300
(1655539399.089243) can0 080#00
(1655539399.089452) can0 001#000204760000
(1655539399.089654) can0 181#2700DD000000
(1655539399.089859) can0 281#001774040000
(1655539399.090060) can0 381#7B020D000700
(1655539399.090308) can0 6D0#18FFFE047600036A
(1655539399.096935) can0 201#0F000000400D0300
(1655539399.097081) can0 080#00
(1655539399.097361) can0 181#2700DB000000
(1655539399.097545) can0 001#000204760000
(1655539399.097748) can0 281#001774040000
(1655539399.097954) can0 381#79020C000600
(1655539399.104698) can0 201#0F000000400D0300
(1655539399.104871) can0 080#00
(1655539399.105130) can0 181#2700DB000000
(1655539399.105298) can0 281#001774040000
(1655539399.105513) can0 001#000104760000
(1655539399.105722) can0 381#79020C000600
(1655539399.105950) can0 6D0#19FFFF0476060473
(1655539399.112528) can0 201#0F000000400D0300
(1655539399.112725) can0 080#00
(1655539399.112954) can0 181#2700D7000000
(1655539399.113152) can0 281#001774040000
(1655539399.113369) can0 381#79020C000600
(1655539399.113564) can0 001#000104760000
(1655539399.120373) can0 201#0F000000400D0300
(1655539399.120556) can0 080#00
(1655539399.120778) can0 181#2700DB000000
(1655539399.120989) can0 281#001774040000
(1655539399.121192) can0 381#7A020C000600
(1655539399.121472) can0 001#000104760000
(1655539399.128125) can0 201#0F000000400D0300
(1655539399.128300) can0 080#00
(1655539399.128533) can0 181#2700D9000000
(1655539399.128734) can0 281#001774040000
(1655539399.128945) can0 381#79020C000600
(1655539399.129390) can0 001#000104760000
(1655539399.135948) can0 201#0F000000400D0300
(1655539399.136121) can0 080#00
(1655539399.136338) can0 181#2700D7000000
(1655539399.136545) can0 281#001774040000
(1655539399.136747) can0 381#7A020C000600
(1655539399.137378) can0 001#000104760000
(1655539399.139564) can0 080#061800A2
(1655539399.139848) can0 1838F380#0003180318180303
(1655539399.140134) can0 1839F380#0018181804030393
(1655539399.143746) can0 201#0F000000400D0300
(1655539399.143918) can0 080#00
(1655539399.144138) can0 181#2700D7000000
(1655539399.144342) can0 281#001774040000
(1655539399.144546) can0 381#7A020A000700
(1655539399.145382) can0 001#000104760000
(1655539399.151627) can0 201#0F000000400D0300
(1655539399.151800) can0 080#00
(1655539399.152024) can0 181#2700D9000000
(1655539399.152236) can0 281#001774040000
(1655539399.152432) can0 381#79020E000600
(1655539399.153450) can0 001#000204760000
(1655539399.153713) can0 6D0#1AFFFE04760038A1
(1655539399.159394) can0 201#0F000000400D0300
(1655539399.159598) can0 080#00
(1655539399.159828) can0 181#2700D9000000
(1655539399.160028) can0 281#001774040000
(1655539399.160240) can0 381#79020D000600
(1655539399.161381) can0 001#000204760000
(1655539399.167197) can0 201#0F000000400D0300
(1655539399.167368) can0 080#00
(1655539399.167630) can0 181#2700D9000000
(1655539399.167830) can0 281#001774040000
(1655539399.168052) can0 381#7A020C000600
(1655539399.169382) can0 001#000204760000
(1655539399.175053) can0 201#0F000000400D0300
(1655539399.175230) can0 080#00
(1655539399.175450) can0 181#2700D7000000
(1655539399.175671) can0 281#001774040000
(1655539399.175856) can0 381#7B020A000600
(1655539399.177379) can0 001#000204760000
(1655539399.177620) can0 6D0#1BFFFE047601CA35
(1655539399.182802) can0 201#0F000000400D0300
(1655539399.182980) can0 080#00
(1655539399.183203) can0 181#2700D5000000
(1655539399.183401) can0 281#001774040000
(1655539399.183608) can0 381#79020C000600
(1655539399.185386) can0 001#000204760000
(1655539399.190613) can0 201#0F000000400D0300
(1655539399.190789) can0 080#00
(1655539399.191028) can0 181#2700D5000000
(1655539399.191215) can0 281#001774040000
(1655539399.191415) can0 381#79020A000700
(1655539399.193458) can0 001#000204760000
(1655539399.198426) can0 201#0F000000400D0300
(1655539399.198598) can0 080#00
(1655539399.198820) can0 181#2700D2000000
(1655539399.199024) can0 281#001774040000
(1655539399.199229) can0 381#79020C000700
(1655539399.201380) can0 001#000204760000
(1655539399.201616) can0 6D0#1CFFFE0476032A98
(1655539399.206252) can0 201#0F000000400D0300
(1655539399.206431) can0 080#00
(1655539399.206705) can0 181#2700D2000000
(1655539399.206886) can0 281#001774040000
(1655539399.207093) can0 381#79020C000600
(1655539399.209446) can0 001#000204760000
(1655539399.209689) can0 6D0#1DFFFE04760078E4
(1655539399.214046) can0 201#0F000000400D0300
(1655539399.214221) can0 080#00
(1655539399.214467) can0 181#2700D2000000
(1655539399.214656) can0 281#001774040000
(1655539399.214858) can0 381#79020A000600
(1655539399.217381) can0 001#000104760000
(1655539399.217620) can0 6D0#1EFFFF047600006E
(1655539399.221819) can0 201#0F000000400D0300
(1655539399.221992) can0 080#00
(1655539399.222248) can0 181#2700D2000000
(1655539399.222446) can0 281#001774040000
(1655539399.222657) can0 381#7A020A000600
(1655539399.225376) can0 001#000104760000
(1655539399.225618) can0 6D0#1FFFFF0476001483
(1655539399.229669) can0 201#0F000000400D0300
(1655539399.229843) can0 080#00
(1655539399.230075) can0 181#2700D2000000
(1655539399.230268) can0 281#001774040000
(1655539399.230472) can0 381#7A020E000700
(1655539399.233449) can0 001#000204760000
(1655539399.233692) can0 6D0#20FFFE0476000877
(1655539399.237491) can0 201#0F000000400D0300
(1655539399.237672) can0 080#00
(1655539399.237928) can0 181#2700D2000000
(1655539399.238125) can0 281#001774040000
(1655539399.238330) can0 381#79020C000600
(1655539399.239610) can0 080#051800A1
(1655539399.239894) can0 1838F380#0006180618180303
(1655539399.240189) can0 1839F380#0018181804030393
(1655539399.240469) can0 18EEFF80#F30080F300401E90
(1655539399.241375) can0 001#000204760000
(1655539399.241618) can0 6D0#21FFFE0476000070
(1655539399.245294) can0 201#0F000000400D0300
(1655539399.245472) can0 080#00
(1655539399.245707) can0 181#2700CE000000
(1655539399.245899) can0 281#001774040000
(1655539399.246114) can0 381#7A020C000600
(1655539399.249442) can0 001#000104760000
(1655539399.253108) can0 201#0F000000400D0300
(1655539399.253291) can0 080#00
(1655539399.253503) can0 181#2700CC000000
(1655539399.253705) can0 281#001774040000
(1655539399.253911) can0 381#7A020A000700
(1655539399.257373) can0 001#000104760000
(1655539399.257616) can0 6D0#22FFFF0476000072
(1655539399.260924) can0 201#0F000000400D0300
(1655539399.261114) can0 080#00
(1655539399.261323) can0 181#2700CC000000
(1655539399.261526) can0 281#001774040000
(1655539399.261749) can0 381#7A020C000600
(1655539399.265380) can0 001#000104760000
(1655539399.268725) can0 201#0F000000400D0300
(1655539399.268898) can0 080#00
(1655539399.269123) can0 181#2700CC000000
(1655539399.269325) can0 281#001774040000
(1655539399.269530) can0 381#79020D000600
(1655539399.273443) can0 001#000104760000
(1655539399.276539) can0 201#0F000000400D0300
(1655539399.276714) can0 080#00
(1655539399.276939) can0 181#2700CC000000
(1655539399.277140) can0 281#001774040000
(1655539399.277343) can0 381#79020D000600
(1655539399.281372) can0 001#000104760000
(1655539399.281620) can0 6D0#23FFFF04760476ED
(1655539399.284308) can0 201#0F000000400D0300
(1655539399.284538) can0 080#00
(1655539399.284737) can0 181#2700CA000000
(1655539399.284948) can0 281#001774040000
(1655539399.285145) can0 381#79020A000700
(1655539399.289447) can0 001#000104760000
(1655539399.289682) can0 6D0#24FFFE047600990C
(1655539399.292158) can0 201#0F000000400D0300
(1655539399.292336) can0 080#00
(1655539399.292566) can0 181#2700CC000000
(1655539399.292770) can0 281#001774040000
(1655539399.292975) can0 381#7A020C000600
(1655539399.297374) can0 001#000204760000
(1655539399.297618) can0 6D0#25FFFE0476000579
(1655539399.300046) can0 201#0F000000400D0300
(1655539399.300217) can0 080#00
(1655539399.300477) can0 181#2700CC000000
(1655539399.300682) can0 281#001774040000
(1655539399.300888) can0 381#79020C000600
(1655539399.305444) can0 001#000204760000
(1655539399.307850) can0 201#0F000000400D0300
(1655539399.308025) can0 080#00
(1655539399.308247) can0 181#2700CA000000
(1655539399.308450) can0 281#001774040000
(1655539399.308657) can0 381#79020C000700
(1655539399.313374) can0 001#000104760000
(1655539399.313611) can0 6D0#26FFFF04767E1004
(1655539399.315731) can0 201#0F000000400D0300
(1655539399.315911) can0 080#00
(1655539399.316156) can0 181#2700CA000000
(1655539399.316360) can0 281#001774040000
(1655539399.316561) can0 381#79020A000600
(1655539399.321372) can0 001#000204760000
(1655539399.321612) can0 6D0#27FFFE0476000177
(1655539399.323590) can0 201#0F000000400D0300
(1655539399.323773) can0 080#00
(1655539399.323988) can0 181#2700CA000000
(1655539399.324194) can0 281#001774040000
(1655539399.324399) can0 381#7A020C000600
(1655539399.329442) can0 001#000204760000
(1655539399.329688) can0 6D0#28FFFE0476001990
(1655539399.331353) can0 201#0F000000400D0300
(1655539399.331534) can0 080#00
(1655539399.331790) can0 181#2700CA000000
(1655539399.331989) can0 281#001774040000
(1655539399.332201) can0 381#79020C000600
(1655539399.337367) can0 001#000104760000
(1655539399.337610) can0 6D0#29FFFF0476001891
(1655539399.339153) can0 201#0F000000400D0300
(1655539399.339328) can0 080#00
(1655539399.339552) can0 181#2700C8000000
(1655539399.339762) can0 281#001774040000
(1655539399.339957) can0 381#7A020A000600
(1655539399.340255) can0 1839F380#0018181804030393
(1655539399.340530) can0 1838F380#000B180B18180303
(1655539399.340699) can0 080#061800A2
(1655539399.345381) can0 001#000104760000
(1655539399.346919) can0 201#0F000000400D0300
(1655539399.347095) can0 080#00
(1655539399.347345) can0 181#2700C6000000
(1655539399.347560) can0 281#001774040000
(1655539399.347753) can0 381#79020A000700
(1655539399.353443) can0 001#000104760000
(1655539399.354761) can0 201#0F000000400D0300
(1655539399.354939) can0 080#00
(1655539399.355156) can0 181#2700C4000000
(1655539399.355362) can0 281#001774040000
(1655539399.355565) can0 381#7B020C000600
(1655539399.361367) can0 001#000104760000
(1655539399.361607) can0 6D0#2AFFFF0476001892
(1655539399.362645) can0 201#0F000000400D0300
(1655539399.362816) can0 080#00
(1655539399.363040) can0 181#2700C1000000
(1655539399.363247) can0 281#001774040000
(1655539399.363446) can0 381#79020C000700
(1655539399.369442) can0 001#000104760000
(1655539399.369687) can0 6D0#2BFFFF047600007B
(1655539399.370441) can0 201#0F000000400D0300
(1655539399.370619) can0 080#00
(1655539399.370841) can0 181#2700C3000000
(1655539399.371046) can0 281#001774040000
(1655539399.371251) can0 381#7A020C000700
(1655539399.377378) can0 001#000104760000
(1655539399.377624) can0 6D0#2CFFFF047600007C
(1655539399.378221) can0 201#0F000000400D0300
(1655539399.378430) can0 080#00
(1655539399.378651) can0 181#2700C4000000
(1655539399.378854) can0 281#001774040000
(1655539399.379058) can0 381#79020A000600
(1655539399.385443) can0 001#000104760000
(1655539399.385683) can0 6D0#2DFFFE047600219D
(1655539399.386070) can0 201#0F000000400D0300
(1655539399.386245) can0 080#00
(1655539399.386468) can0 181#2700C3000000
(1655539399.386678) can0 281#001774040000
(1655539399.386880) can0 381#7A020C000600
(1655539399.393370) can0 001#000104760000
(1655539399.393619) can0 6D0#2EFFFF0476000280
(1655539399.393856) can0 201#0F000000400D0300
(1655539399.394021) can0 080#00
(1655539399.394271) can0 181#2700C1000000
(1655539399.394471) can0 281#001774040000
(1655539399.394674) can0 381#79020D000800
(1655539399.401441) can0 001#000104760000
(1655539399.401684) can0 201#0F000000400D0300
(1655539399.401801) can0 080#00
(1655539399.402008) can0 181#2700BF000000
(1655539399.402209) can0 281#001774040000
(1655539399.402413) can0 381#7A020A000700
(1655539399.409320) can0 201#0F000000400D0300
(1655539399.409530) can0 001#000204760000
(1655539399.409644) can0 080#00
(1655539399.409854) can0 181#2700C1000000
(1655539399.410056) can0 281#001774040000
(1655539399.410257) can0 381#79020A000700
(1655539399.410497) can0 6D0#2FFFFE04760068E6
(1655539399.417193) can0 201#0F000000400D0300
(1655539399.417402) can0 001#000204760000
(1655539399.417534) can0 080#00
(1655539399.417730) can0 181#2700BF000000
(1655539399.417928) can0 281#001774040000
(1655539399.418133) can0 381#7A020C000600
(1655539399.424956) can0 201#0F000000400D0300
(1655539399.425134) can0 080#00
(1655539399.425354) can0 181#2700BF000000
(1655539399.425566) can0 001#000204760000
(1655539399.425769) can0 281#001774040000
(1655539399.425980) can0 381#79020E000600
(1655539399.432751) can0 201#0F000000400D0300
(1655539399.432899) can0 080#00
(1655539399.433143) can0 181#2700BD000000
(1655539399.433345) can0 281#001774040000
(1655539399.433555) can0 001#000104760000
(1655539399.433757) can0 381#7A020A000600
(1655539399.439547) can0 080#051800A1
(1655539399.439840) can0 1838F380#0000180018180303
(1655539399.440115) can0 18EEFF80#F30080F300401E90
(1655539399.440405) can0 1839F380#0018181804030393
(1655539399.441048) can0 201#0F000000400D0300
(1655539399.441195) can0 080#00
(1655539399.441406) can0 001#000204760000
(1655539399.441612) can0 181#2700BF000000
(1655539399.441818) can0 281#001774040000
(1655539399.442019) can0 381#79020D000600
(1655539399.442261) can0 6D0#30FFFE0476000180
(1655539399.448406) can0 201#0F000000400D0300
(1655539399.448607) can0 080#00
(1655539399.448829) can0 181#2700BD000000
(1655539399.449045) can0 281#001774040000
(1655539399.449244) can0 381#7A020C000700
(1655539399.449454) can0 001#000204760000
(1655539399.449688) can0 6D0#31FFFE0476000080
(1655539399.456212) can0 201#0F000000400D0300
(1655539399.456422) can0 080#00
(1655539399.456646) can0 181#2700BF000000
(1655539399.456855) can0 281#001774040000
(1655539399.457054) can0 381#79020C000600
(1655539399.457363) can0 001#000104760000
(1655539399.457600) can0 6D0#32FFFF04769F2546
(1655539399.464011) can0 201#0F000000400D0300
(1655539399.464190) can0 080#00
(1655539399.464404) can0 181#2700BF000000
(1655539399.464615) can0 281#001774040000
(1655539399.464812) can0 381#7A020A000600
(1655539399.465435) can0 001#000104760000
(1655539399.465676) can0 6D0#33FFFF04769FB4D6
(1655539399.471833) can0 201#0F000000400D0300
(1655539399.472008) can0 080#00
(1655539399.472262) can0 181#2700BD000000
(1655539399.472455) can0 281#001774040000
(1655539399.472660) can0 381#79020A000600
(1655539399.473367) can0 001#000204760000
(1655539399.473602) can0 6D0#34FFFE04769F6E90
(1655539399.479681) can0 201#0F000000400D0300
(1655539399.479852) can0 080#00
(1655539399.480075) can0 181#2700BD000000
(1655539399.480284) can0 281#001774040000
(1655539399.480482) can0 381#7A020C000600
(1655539399.481437) can0 001#000204760000
(1655539399.481680) can0 6D0#35FFFE04769F284B
(1655539399.487492) can0 201#0F000000400D0300
(1655539399.487669) can0 080#00
(1655539399.487891) can0 181#2700BB000000
(1655539399.488100) can0 281#001774040000
(1655539399.488302) can0 381#79020C000700
(1655539399.489365) can0 001#000104760000
(1655539399.489604) can0 6D0#36FFFF04769FB6DB
(1655539399.495256) can0 201#0F000000400D0300
(1655539399.495433) can0 080#00
(1655539399.495656) can0 181#2700BB000000
(1655539399.495857) can0 281#001774040000
(1655539399.496059) can0 381#7A020A000600
(1655539399.497368) can0 001#000104760000
(1655539399.503075) can0 201#0F000000400D0300
(1655539399.503248) can0 080#00
(1655539399.503503) can0 181#2700BB000000
(1655539399.503709) can0 281#001774040000
(1655539399.503914) can0 381#79020C000600
(1655539399.505372) can0 001#000104760000
(1655539399.510931) can0 201#0F000000400D0300
(1655539399.511103) can0 080#00
(1655539399.511325) can0 181#2700B7000000
(1655539399.511528) can0 281#001774040000
(1655539399.511733) can0 381#7A020D000600
(1655539399.513437) can0 001#000204760000
(1655539399.513671) can0 6D0#37FFFE04769F7095
(1655539399.518687) can0 201#0F000000400D0300
(1655539399.518860) can0 080#00
(1655539399.519078) can0 181#2700B7000000
(1655539399.519284) can0 281#001774040000
(1655539399.519487) can0 381#79020D000600
(1655539399.521360) can0 001#000104760000
(1655539399.521604) can0 6D0#38FFFF047600BE46
(1655539399.526491) can0 201#0F000000400D0300
(1655539399.526660) can0 080#00
(1655539399.526885) can0 181#2700B5000000
(1655539399.527085) can0 281#001774040000
(1655539399.527297) can0 381#7A020A000700
(1655539399.529432) can0 001#000104760000
(1655539399.534297) can0 201#0F000000400D0300
(1655539399.534477) can0 080#00
(1655539399.534701) can0 181#2700B7000000
(1655539399.534899) can0 281#001774040000
(1655539399.535105) can0 381#79020A000600
(1655539399.537361) can0 001#000104760000
(1655539399.537600) can0 6D0#39FFFF047600BE47
(1655539399.539555) can0 080#061800A2
(1655539399.539843) can0 1838F380#0003180318180303
(1655539399.540126) can0 1839F380#0018181804030393
(1655539399.542418) can0 201#0F000000400D0300
(1655539399.542599) can0 080#00
(1655539399.542819) can0 181#2700B5000000
(1655539399.543022) can0 281#001774040000
(1655539399.543228) can0 381#7A020C000600
(1655539399.545440) can0 001#000204760000
(1655539399.545677) can0 6D0#3AFFFE047600BE47
(1655539399.549922) can0 201#0F000000400D0300
(1655539399.550096) can0 080#00
(1655539399.550321) can0 181#2700B4000000
(1655539399.550522) can0 281#001774040000
(1655539399.550726) can0 381#79020D000600
(1655539399.553362) can0 001#000104760000
(1655539399.553611) can0 6D0#3BFFFF0476A4103F
(1655539399.557727) can0 201#0F000000400D0300
(1655539399.557891) can0 080#00
(1655539399.558122) can0 181#2700B4000000
(1655539399.558331) can0 281#001774040000
(1655539399.558535) can0 381#7A020C000700
(1655539399.561428) can0 001#000104760000
(1655539399.561664) can0 6D0#3CFFFF047661A895
(1655539399.565544) can0 201#0F000000400D0300
(1655539399.565717) can0 080#00
(1655539399.565943) can0 181#2700B4000000
(1655539399.566144) can0 281#001774040000
(1655539399.566346) can0 381#790209000700
(1655539399.569363) can0 001#000104760000
(1655539399.569605) can0 6D0#3DFFFF0476002AB7
(1655539399.573368) can0 201#0F000000400D0300
(1655539399.573545) can0 080#00
(1655539399.573794) can0 181#2700B2000000
(1655539399.573997) can0 281#001774040000
(1655539399.574203) can0 381#7A020C000600
(1655539399.577371) can0 001#000104760000
(1655539399.577613) can0 6D0#3EFFFE0476000491
(1655539399.581170) can0 201#0F000000400D0300
(1655539399.581344) can0 080#00
(1655539399.581573) can0 181#2700B0000000
(1655539399.581773) can0 281#001774040000
(1655539399.581980) can0 381#79020C000600
(1655539399.585365) can0 001#000104760000
(1655539399.588987) can0 201#0F000000400D0300
(1655539399.589155) can0 080#00
(1655539399.589374) can0 181#2700B0000000
(1655539399.589580) can0 281#001774040000
(1655539399.589779) can0 381#7A020D000600
(1655539399.593436) can0 001#000104760000
(1655539399.593680) can0 6D0#3FFFFF0476002AB9
(1655539399.596739) can0 201#0F000000400D0300
(1655539399.596922) can0 080#00
(1655539399.597136) can0 181#2700B0000000
(1655539399.597337) can0 281#001774040000
(1655539399.597550) can0 381#7A020C000600
(1655539399.601365) can0 001#000104760000
(1655539399.601607) can0 6D0#40FFFF0476000494
(1655539399.604599) can0 201#0F000000400D0300
