(1655551527.105863) can0 201#06000000400D0300
(1655551527.106023) can0 080#00
(1655551527.106254) can0 181#A10000000000
(1655551527.106459) can0 281#001A7A030000
(1655551527.106660) can0 381#79020D000700
(1655551527.112086) can0 001#000004320000
(1655551527.113667) can0 201#06000000400D0300
(1655551527.113836) can0 080#00
(1655551527.114066) can0 181#A10000000000
(1655551527.114270) can0 281#001A7A030000
(1655551527.114471) can0 381#79020D000700
(1655551527.117767) can0 080#061A00A4
(1655551527.118044) can0 1838F380#000B180B181A0006
(1655551527.118328) can0 1839F380#00181A1804000695
(1655551527.120019) can0 001#000004320000
(1655551527.121478) can0 201#06000000400D0300
(1655551527.121652) can0 080#00
(1655551527.121906) can0 181#A10000000000
(1655551527.122112) can0 281#001A7A030000
(1655551527.122315) can0 381#79020D000700
(1655551527.128013) can0 001#000004320000
(1655551527.129298) can0 201#06000000400D0300
(1655551527.129468) can0 080#00
(1655551527.129728) can0 181#A10000000000
(1655551527.129931) can0 281#001A7A030000
(1655551527.130135) can0 381#79020D000700
(1655551527.130380) can0 601#406C600000000000
(1655551527.130749) can0 581#436C600000000000
(1655551527.136016) can0 001#000004320000
(1655551527.136250) can0 6D0#7F0000043202EE7D
(1655551527.137214) can0 201#06000000400D0300
(1655551527.137386) can0 080#00
(1655551527.137614) can0 181#A10000000000
(1655551527.137822) can0 281#001A7A030000
(1655551527.138027) can0 381#79020C000700
(1655551527.144085) can0 001#000004320000
(1655551527.144326) can0 6D0#800000043200008E
(1655551527.144977) can0 201#06000000400D0300
(1655551527.145149) can0 080#00
(1655551527.145424) can0 181#A10000000000
(1655551527.145620) can0 281#001A7A030000
(1655551527.145825) can0 381#79020C000700
(1655551527.152011) can0 001#000004320000
(1655551527.152251) can0 6D0#0000000432010312
(1655551527.152779) can0 201#06000000400D0300
(1655551527.152950) can0 080#00
(1655551527.153181) can0 181#A10000000000
(1655551527.153384) can0 281#001A7A030000
(1655551527.153589) can0 381#79020C000700
(1655551527.160090) can0 001#000004320000
(1655551527.160328) can0 6D0#0100000432060318
(1655551527.160573) can0 201#06000000400D0300
(1655551527.160777) can0 080#00
(1655551527.161033) can0 181#A10000000000
(1655551527.161239) can0 281#001A7A030000
(1655551527.161444) can0 381#79020C000700
(1655551527.168022) can0 001#000004320000
(1655551527.168251) can0 6D0#0200000432057A8F
(1655551527.168493) can0 201#06000000400D0300
(1655551527.168610) can0 080#00
(1655551527.168850) can0 181#A10000000000
(1655551527.169055) can0 281#001A7A030000
(1655551527.169258) can0 381#79020C000700
(1655551527.176011) can0 001#000004320000
(1655551527.176256) can0 201#06000000400D0300
(1655551527.176505) can0 601#406C600000000000
(1655551527.176618) can0 080#00
(1655551527.176846) can0 181#A10000000000
(1655551527.177057) can0 281#001A7A030000
(1655551527.177251) can0 381#79020D000700
(1655551527.177490) can0 581#436C600000000000
(1655551527.183890) can0 201#06000000400D0300
(1655551527.184097) can0 001#000004320000
(1655551527.184212) can0 080#00
(1655551527.184426) can0 181#A10000000000
(1655551527.184630) can0 281#001A7A030000
(1655551527.184832) can0 381#79020D000700
(1655551527.191703) can0 201#06000000400D0300
(1655551527.191874) can0 080#00
(1655551527.192087) can0 001#000004320000
(1655551527.192295) can0 181#A10000000000
(1655551527.192498) can0 281#001A7A030000
(1655551527.192703) can0 381#79020C000700
(1655551527.192941) can0 6D0#0300000432240338
(1655551527.199509) can0 201#06000000400D0300
(1655551527.199681) can0 080#00
(1655551527.199912) can0 181#A10000000000
(1655551527.200120) can0 001#000004320000
(1655551527.200323) can0 281#001A7A030000
(1655551527.200526) can0 381#79020D000700
(1655551527.207387) can0 201#06000000400D0300
(1655551527.207519) can0 080#00
(1655551527.207781) can0 181#A10000000000
(1655551527.207983) can0 281#001A7A030000
(1655551527.208192) can0 001#000004320000
(1655551527.208397) can0 381#79020D000700
(1655551527.208634) can0 6D0#0400000432006375
(1655551527.215155) can0 201#06000000400D0300
(1655551527.215332) can0 080#00
(1655551527.215589) can0 181#A10000000000
(1655551527.215792) can0 281#001A7A030000
(1655551527.215996) can0 381#79020C000700
(1655551527.216205) can0 001#000004320000
(1655551527.216446) can0 6D0#0500000432000013
(1655551527.217809) can0 080#051800A1
(1655551527.218097) can0 1838F380#00001A00181A0006
(1655551527.218378) can0 18EEFF80#F30080F300401E90
(1655551527.218662) can0 1839F380#00181A1804000695
(1655551527.222481) can0 601#406C600000000000
(1655551527.223012) can0 201#06000000400D0300
(1655551527.223327) can0 581#436C600000000000
(1655551527.223499) can0 080#00
(1655551527.223713) can0 181#A10000000000
(1655551527.223916) can0 281#001A7A030000
(1655551527.224124) can0 001#000004320000
(1655551527.224327) can0 381#79020C000700
(1655551527.224572) can0 6D0#0600000432003044
(1655551527.230770) can0 201#06000000400D0300
(1655551527.230942) can0 080#00
(1655551527.231170) can0 181#A10000000000
(1655551527.231375) can0 281#001A7A030000
(1655551527.231579) can0 381#79020C000700
(1655551527.232083) can0 001#000004320000
(1655551527.232319) can0 6D0#0700000432001C31
(1655551527.238580) can0 201#06000000400D0300
(1655551527.238751) can0 080#00
(1655551527.238990) can0 181#A10000000000
(1655551527.239186) can0 281#001A7A030000
(1655551527.239390) can0 381#79020C000700
(1655551527.240015) can0 001#000004320000
(1655551527.240246) can0 6D0#080000043200A2B8
(1655551527.246395) can0 201#06000000400D0300
(1655551527.246564) can0 080#00
(1655551527.246795) can0 181#A10000000000
(1655551527.247010) can0 281#001A7A030000
(1655551527.247210) can0 381#79020C000700
(1655551527.248016) can0 001#000004320000
(1655551527.254216) can0 201#06000000400D0300
(1655551527.254384) can0 080#00
(1655551527.254643) can0 181#A10000000000
(1655551527.254847) can0 281#001A7A030000
(1655551527.255051) can0 381#79020C000700
(1655551527.256076) can0 001#000004320000
(1655551527.262013) can0 201#06000000400D0300
(1655551527.262185) can0 080#00
(1655551527.262450) can0 181#A10000000000
(1655551527.262654) can0 281#001A7A030000
(1655551527.262858) can0 381#79020C000700
(1655551527.264015) can0 001#000004320000
(1655551527.264250) can0 6D0#0900000432000017
(1655551527.269829) can0 201#06000000400D0300
(1655551527.269997) can0 080#00
(1655551527.270227) can0 181#A10000000000
(1655551527.270431) can0 281#001A7A030000
(1655551527.270633) can0 381#79020D000700
(1655551527.272075) can0 001#000004320000
(1655551527.272318) can0 6D0#0A00000432007890
(1655551527.277622) can0 201#06000000400D0300
(1655551527.277792) can0 080#00
(1655551527.278027) can0 181#A10000000000
(1655551527.278227) can0 281#001A7A030000
(1655551527.278430) can0 381#79020D000700
(1655551527.280006) can0 001#000004320000
(1655551527.280245) can0 6D0#0B0000043202445F
(1655551527.281286) can0 601#406C600000000000
(1655551527.281652) can0 581#436C600000000000
(1655551527.285106) can0 200#05009B009B000000
(1655551527.285507) can0 201#06000000400D0300
(1655551527.285678) can0 080#00
(1655551527.285910) can0 181#A10000000000
(1655551527.286113) can0 281#001A7A030000
(1655551527.286317) can0 381#79020C000700
(1655551527.288081) can0 001#000004320000
(1655551527.288321) can0 6D0#0C0000043200001A
(1655551527.293248) can0 201#06000000400D0300
(1655551527.293422) can0 080#00
(1655551527.293654) can0 181#A10000000000
(1655551527.293857) can0 281#001A7A030000
(1655551527.294061) can0 381#79020C000700
(1655551527.296002) can0 001#000004320000
(1655551527.296247) can0 6D0#0D00000432043251
(1655551527.301055) can0 201#06000000400D0300
(1655551527.301233) can0 080#00
(1655551527.301466) can0 181#A10000000000
(1655551527.301665) can0 281#001A7A030000
(1655551527.301869) can0 381#79020C000700
(1655551527.304072) can0 001#000004320000
(1655551527.308867) can0 201#06000000400D0300
(1655551527.309039) can0 080#00
(1655551527.309268) can0 181#A10000000000
(1655551527.309472) can0 281#001A7A030000
(1655551527.309674) can0 381#79020D000700
(1655551527.312003) can0 001#000004320000
(1655551527.312240) can0 6D0#0E00000432043252
(1655551527.316677) can0 201#06000000400D0300
(1655551527.316851) can0 080#00
(1655551527.317088) can0 181#A10000000000
(1655551527.317283) can0 281#001A7A030000
(1655551527.317486) can0 381#79020D000700
(1655551527.317756) can0 080#061A00A4
(1655551527.318040) can0 1838F380#00031903181A0006
(1655551527.318325) can0 1839F380#00181A1804000695
(1655551527.320009) can0 001#000004320000
(1655551527.324487) can0 201#06000000400D0300
(1655551527.324657) can0 080#00
(1655551527.324891) can0 181#A10000000000
(1655551527.325092) can0 281#001A7A030000
(1655551527.325297) can0 381#79020C000700
(1655551527.328071) can0 001#000004320000
(1655551527.331219) can0 601#406C600000000000
(1655551527.331832) can0 581#436C600000000000
(1655551527.332559) can0 201#06000000400D0300
(1655551527.332731) can0 080#00
(1655551527.332959) can0 181#A10000000000
(1655551527.333163) can0 281#001A7A030000
(1655551527.333367) can0 381#79020C000700
(1655551527.336002) can0 001#000004320000
(1655551527.336242) can0 6D0#0F00000432007693
(1655551527.340111) can0 201#06000000400D0300
(1655551527.340291) can0 080#00
(1655551527.340520) can0 181#A10000000000
(1655551527.340724) can0 281#001A7A030000
(1655551527.340928) can0 381#79020C000700
(1655551527.344075) can0 001#000004320000
(1655551527.344312) can0 6D0#100000043201BAD9
(1655551527.347922) can0 201#06000000400D0300
(1655551527.348094) can0 080#00
(1655551527.348329) can0 181#A10000000000
(1655551527.348533) can0 281#001A7A030000
(1655551527.348735) can0 381#79020D000700
(1655551527.352001) can0 001#000004320000
(1655551527.352242) can0 6D0#1100000432003554
(1655551527.355731) can0 201#06000000400D0300
(1655551527.355903) can0 080#00
(1655551527.356131) can0 181#A10000000000
(1655551527.356335) can0 281#001A7A030000
(1655551527.356540) can0 381#79020C000700
(1655551527.360079) can0 001#000004320000
(1655551527.360318) can0 6D0#1200000432003D5D
(1655551527.363541) can0 201#06000000400D0300
(1655551527.363715) can0 080#00
(1655551527.363944) can0 181#A10000000000
(1655551527.364148) can0 281#001A7A030000
(1655551527.364350) can0 381#79020D000700
(1655551527.368003) can0 001#000004320000
(1655551527.368239) can0 6D0#1300000432006485
(1655551527.371355) can0 201#06000000400D0300
(1655551527.371529) can0 080#00
(1655551527.371763) can0 181#A10000000000
(1655551527.371962) can0 281#001A7A030000
(1655551527.372165) can0 381#79020D000700
(1655551527.376073) can0 001#000004320000
(1655551527.376310) can0 6D0#140000043229F43F
(1655551527.377466) can0 601#406C600000000000
(1655551527.378700) can0 581#436C600000000000
(1655551527.379424) can0 201#06000000400D0300
(1655551527.379596) can0 080#00
(1655551527.379826) can0 181#A10000000000
(1655551527.380030) can0 281#001A7A030000
(1655551527.380232) can0 381#79020D000700
(1655551527.384002) can0 001#000004320000
(1655551527.384240) can0 6D0#15000004327FFFA1
(1655551527.386977) can0 201#06000000400D0300
(1655551527.387147) can0 080#00
(1655551527.387385) can0 181#A10000000000
(1655551527.387586) can0 281#001A7A030000
(1655551527.387789) can0 381#79020D000700
(1655551527.392006) can0 001#000004320000
(1655551527.394788) can0 201#06000000400D0300
(1655551527.394957) can0 080#00
(1655551527.395186) can0 181#A10000000000
(1655551527.395394) can0 281#001A7A030000
(1655551527.395595) can0 381#79020D000700
(1655551527.400069) can0 001#000004320000
(1655551527.402598) can0 201#06000000400D0300
(1655551527.402771) can0 080#00
(1655551527.402999) can0 181#A10000000000
(1655551527.403204) can0 281#001A7A030000
(1655551527.403406) can0 381#79020D000700
(1655551527.407999) can0 001#000004320000
(1655551527.408239) can0 6D0#16000004320498C0
(1655551527.410496) can0 201#06000000400D0300
(1655551527.410667) can0 080#00
(1655551527.410921) can0 181#A10000000000
(1655551527.411128) can0 281#001A7A030000
(1655551527.411331) can0 381#79020D000700
(1655551527.416081) can0 001#000004320000
(1655551527.416314) can0 6D0#170000043202BCE3
(1655551527.417804) can0 080#051800A1
(1655551527.418089) can0 1838F380#00061806181A0006
(1655551527.418369) can0 18EEFF80#F30080F300401E90
(1655551527.418615) can0 201#06000000400D0300
(1655551527.418897) can0 1839F380#00181A1804000695
(1655551527.419014) can0 080#00
(1655551527.419228) can0 181#A10000000000
(1655551527.419431) can0 281#001A7A030000
(1655551527.419636) can0 381#79020C000700
(1655551527.423999) can0 001#000004320000
(1655551527.424243) can0 601#406C600000000000
(1655551527.424492) can0 6D0#1800000432000329
(1655551527.425666) can0 581#436C600000000000
(1655551527.426418) can0 201#06000000400D0300
(1655551527.426588) can0 080#00
(1655551527.426818) can0 181#A10000000000
(1655551527.427023) can0 281#001A7A030000
(1655551527.427227) can0 381#79020C000700
(1655551527.432071) can0 001#000004320000
(1655551527.432311) can0 6D0#190000043200062D
(1655551527.433984) can0 201#06000000400D0300
(1655551527.434157) can0 080#00
(1655551527.434420) can0 181#A10000000000
(1655551527.434624) can0 281#001A7A030000
(1655551527.434828) can0 381#79020C000700
(1655551527.439997) can0 001#000004320000
(1655551527.440233) can0 6D0#1A000004320089B1
(1655551527.441799) can0 201#06000000400D0300
(1655551527.441970) can0 080#00
(1655551527.442229) can0 181#A10000000000
(1655551527.442432) can0 281#001A7A030000
(1655551527.442635) can0 381#79020D000700
(1655551527.448076) can0 001#000004320000
(1655551527.448313) can0 6D0#1B00000432019BC5
(1655551527.449608) can0 201#06000000400D0300
(1655551527.449777) can0 080#00
(1655551527.450006) can0 181#A10000000000
(1655551527.450209) can0 281#001A7A030000
(1655551527.450414) can0 381#79020C000700
(1655551527.455996) can0 001#000004320000
(1655551527.456238) can0 6D0#1C00000432032A57
(1655551527.457458) can0 201#06000000400D0300
(1655551527.457597) can0 080#00
(1655551527.457855) can0 181#A10000000000
(1655551527.458059) can0 281#001A7A030000
(1655551527.458264) can0 381#79020C000700
(1655551527.464008) can0 001#000004320000
(1655551527.465164) can0 201#06000000400D0300
(1655551527.465337) can0 080#00
(1655551527.465565) can0 181#A10000000000
(1655551527.465769) can0 281#001A7A030000
(1655551527.465972) can0 381#79020D000700
(1655551527.472066) can0 001#000004320000
(1655551527.472356) can0 601#406C600000000000
(1655551527.472724) can0 201#06000000400D0300
(1655551527.472957) can0 581#436C600000000000
(1655551527.473135) can0 080#00
(1655551527.473366) can0 181#A10000000000
(1655551527.473649) can0 281#001A7A030000
(1655551527.473852) can0 381#79020D000700
(1655551527.479995) can0 001#000004320000
(1655551527.480237) can0 6D0#1D000004320078A3
(1655551527.480864) can0 201#06000000400D0300
(1655551527.481027) can0 080#00
(1655551527.481286) can0 181#A10000000000
(1655551527.481489) can0 281#001A7A030000
(1655551527.481691) can0 381#79020D000700
(1655551527.488066) can0 001#000004320000
(1655551527.488310) can0 6D0#1E0000043200002C
(1655551527.488675) can0 201#06000000400D0300
(1655551527.488839) can0 080#00
(1655551527.489095) can0 181#A10000000000
(1655551527.489299) can0 281#001A7A030000
(1655551527.489501) can0 381#79020D000700
(1655551527.495995) can0 001#000004320000
(1655551527.496239) can0 6D0#1F00000432001441
(1655551527.496482) can0 201#06000000400D0300
(1655551527.496638) can0 080#00
(1655551527.496868) can0 181#A10000000000
(1655551527.497074) can0 281#001A7A030000
(1655551527.497273) can0 381#79020D000700
(1655551527.504065) can0 001#000004320000
(1655551527.504311) can0 201#06000000400D0300
(1655551527.504426) can0 080#00
(1655551527.504653) can0 181#A10000000000
(1655551527.504860) can0 281#001A7A030000
(1655551527.505064) can0 381#79020C000700
(1655551527.511954) can0 201#06000000400D0300
(1655551527.512166) can0 001#000004320000
(1655551527.512276) can0 080#00
(1655551527.512490) can0 181#A10000000000
(1655551527.512694) can0 281#001A7A030000
(1655551527.512896) can0 381#79020D000700
(1655551527.513138) can0 6D0#2000000432000836
(1655551527.517748) can0 080#061A00A4
(1655551527.518041) can0 1838F380#000B180B181A0006
(1655551527.518280) can0 601#406C600000000000
(1655551527.518561) can0 1839F380#00181A1804000695
(1655551527.519476) can0 581#436C600000000000
(1655551527.520066) can0 001#000004320000
(1655551527.520312) can0 6D0#210000043200002F
(1655551527.520557) can0 201#06000000400D0300
(1655551527.520681) can0 080#00
(1655551527.520906) can0 181#A10000000000
(1655551527.521111) can0 281#001A7A030000
(1655551527.521315) can0 381#79020C000700
(1655551527.527576) can0 201#06000000400D0300
(1655551527.527749) can0 080#00
(1655551527.527980) can0 181#A10000000000
(1655551527.528185) can0 001#000004320000
(1655551527.528389) can0 281#001A7A030000
(1655551527.528593) can0 381#79020C000700
(1655551527.528832) can0 6D0#2200000432000030
(1655551527.535387) can0 201#06000000400D0300
(1655551527.535559) can0 080#00
(1655551527.535788) can0 181#A10000000000
(1655551527.535992) can0 281#001A7A030000
(1655551527.536200) can0 001#000004320000
(1655551527.536404) can0 381#79020C000700
(1655551527.543218) can0 201#06000000400D0300
(1655551527.543399) can0 080#00
(1655551527.543654) can0 181#A10000000000
(1655551527.543858) can0 281#001A7A030000
(1655551527.544061) can0 381#79020D000700
(1655551527.544268) can0 001#000004320000
(1655551527.544502) can0 6D0#2300000432043267
(1655551527.551028) can0 201#06000000400D0300
(1655551527.551202) can0 080#00
(1655551527.551460) can0 181#A10000000000
(1655551527.551664) can0 281#001A7A030000
(1655551527.551866) can0 381#79020D000700
(1655551527.552074) can0 001#000004320000
(1655551527.552312) can0 6D0#2400000432002052
(1655551527.558838) can0 201#06000000400D0300
(1655551527.559007) can0 080#00
(1655551527.559240) can0 181#A10000000000
(1655551527.559441) can0 281#001A7A030000
(1655551527.559644) can0 381#79020D000700
(1655551527.560061) can0 001#000004320000
(1655551527.560305) can0 6D0#2500000432000538
(1655551527.566654) can0 201#06000000400D0300
(1655551527.566818) can0 080#00
(1655551527.567049) can0 181#A10000000000
(1655551527.567252) can0 281#001A7A030000
(1655551527.567454) can0 381#79020D000700
(1655551527.567994) can0 001#000004320000
(1655551527.568228) can0 6D0#2600000432A802DE
(1655551527.574465) can0 201#06000000400D0300
(1655551527.574628) can0 080#00
(1655551527.574867) can0 181#A10000000000
(1655551527.575061) can0 281#001A7A030000
(1655551527.575265) can0 381#79020C000700
(1655551527.576067) can0 001#000004320000
(1655551527.576305) can0 6D0#2700000432000035
(1655551527.581256) can0 601#406C600000000000
(1655551527.581817) can0 581#436C600000000000
(1655551527.582523) can0 201#06000000400D0300
(1655551527.582692) can0 080#00
(1655551527.582951) can0 181#A10000000000
(1655551527.583156) can0 281#001A7A030000
(1655551527.583358) can0 381#79020D000700
(1655551527.583988) can0 001#000004320000
(1655551527.584231) can0 6D0#2800000432001A50
(1655551527.590078) can0 201#06000000400D0300
(1655551527.590259) can0 080#00
(1655551527.590514) can0 181#A10000000000
(1655551527.590722) can0 281#001A7A030000
(1655551527.590923) can0 381#79020D000700
(1655551527.592068) can0 001#000004320000
(1655551527.592303) can0 6D0#290000043200184F
(1655551527.597894) can0 201#06000000400D0300
(1655551527.598064) can0 080#00
(1655551527.598329) can0 181#A10000000000
(1655551527.598531) can0 281#001A7A030000
(1655551527.598736) can0 381#79020C000700
(1655551527.599990) can0 001#000004320000
(1655551527.600227) can0 6D0#2A00000432001951
(1655551527.605684) can0 201#06000000400D0300
(1655551527.605855) can0 080#00
(1655551527.606088) can0 181#A10000000000
(1655551527.606291) can0 281#001A7A030000
(1655551527.606495) can0 381#79020C000700
(1655551527.607991) can0 001#000004320000
(1655551527.608229) can0 6D0#2B00000432000039
(1655551527.613501) can0 201#06000000400D0300
(1655551527.613675) can0 080#00
(1655551527.613911) can0 181#A10000000000
(1655551527.614108) can0 281#001A7A030000
(1655551527.614312) can0 381#79020C000700
(1655551527.615996) can0 001#000004320000
(1655551527.617801) can0 080#051800A1
(1655551527.618089) can0 1838F380#00001A00181A0006
(1655551527.618373) can0 1839F380#00181A1804000695
(1655551527.618654) can0 18EEFF80#F30080F300401E90
(1655551527.621306) can0 201#06000000400D0300
(1655551527.621481) can0 080#00
(1655551527.621714) can0 181#A10000000000
(1655551527.621917) can0 281#001A7A030000
(1655551527.622122) can0 381#79020C000700
(1655551527.624059) can0 001#000004320000
(1655551527.624304) can0 6D0#2C0000043200003A
(1655551527.628012) can0 601#406C600000000000
(1655551527.628658) can0 581#436C600000000000
(1655551527.629373) can0 201#06000000400D0300
(1655551527.629546) can0 080#00
(1655551527.629777) can0 181#A10000000000
(1655551527.629980) can0 281#001A7A030000
(1655551527.630182) can0 381#79020D000700
(1655551527.631986) can0 001#000004320000
(1655551527.632227) can0 6D0#2D00000432001B56
(1655551527.636929) can0 201#06000000400D0300
(1655551527.637100) can0 080#00
(1655551527.637336) can0 181#A10000000000
(1655551527.637539) can0 281#001A7A030000
(1655551527.637741) can0 381#79020D000700
(1655551527.640057) can0 001#000004320000
(1655551527.640293) can0 6D0#2E000004320065A1
(1655551527.644744) can0 201#06000000400D0300
(1655551527.644913) can0 080#00
(1655551527.645143) can0 181#A10000000000
(1655551527.645345) can0 281#001A7A030000
(1655551527.645551) can0 381#79020C000700
(1655551527.647991) can0 001#000004320000
(1655551527.648226) can0 6D0#2F00000432006BA8
(1655551527.652554) can0 201#06000000400D0300
(1655551527.652726) can0 080#00
(1655551527.652956) can0 181#A10000000000
(1655551527.653159) can0 281#001A7A030000
(1655551527.653363) can0 381#79020C000700
(1655551527.656068) can0 001#000004320000
(1655551527.656305) can0 6D0#300000043200013F
(1655551527.660365) can0 201#06000000400D0300
(1655551527.660540) can0 080#00
(1655551527.660768) can0 181#A10000000000
(1655551527.660972) can0 281#001A7A030000
(1655551527.661176) can0 381#79020C000700
(1655551527.663988) can0 001#000004320000
(1655551527.664230) can0 6D0#310000043200003F
(1655551527.668175) can0 201#06000000400D0300
(1655551527.668354) can0 080#00
(1655551527.668581) can0 181#A10000000000
(1655551527.668787) can0 281#001A7A030000
(1655551527.668991) can0 381#79020C000700
(1655551527.672057) can0 001#000004320000
(1655551527.672294) can0 6D0#3200000432956439
(1655551527.674606) can0 601#406C600000000000
(1655551527.675517) can0 581#436C600000000000
(1655551527.676238) can0 201#06000000400D0300
(1655551527.676414) can0 080#00
(1655551527.676643) can0 181#A10000000000
(1655551527.676846) can0 281#001A7A030000
(1655551527.677048) can0 381#79020D000700
(1655551527.679987) can0 001#000004320000
(1655551527.680222) can0 6D0#33000004329628FF
(1655551527.683799) can0 201#06000000400D0300
(1655551527.683971) can0 080#00
(1655551527.684200) can0 181#A10000000000
(1655551527.684402) can0 281#001A7A030000
(1655551527.684606) can0 381#79020D000700
(1655551527.687989) can0 001#000004320000
(1655551527.691614) can0 201#06000000400D0300
(1655551527.691781) can0 080#00
(1655551527.692013) can0 181#A10000000000
(1655551527.692216) can0 281#001A7A030000
(1655551527.692421) can0 381#79020C000700
(1655551527.696056) can0 001#000004320000
(1655551527.699419) can0 201#06000000400D0300
(1655551527.699591) can0 080#00
(1655551527.699819) can0 181#A10000000000
(1655551527.700024) can0 281#001A7A030000
(1655551527.700228) can0 381#79020C000700
(1655551527.703987) can0 001#000004320000
(1655551527.704223) can0 6D0#340000043295D8AF
(1655551527.707234) can0 201#06000000400D0300
(1655551527.707412) can0 080#00
(1655551527.707642) can0 181#A10000000000
(1655551527.707844) can0 281#001A7A030000
(1655551527.708047) can0 381#79020D000700
(1655551527.712054) can0 001#000004320000
(1655551527.712290) can0 6D0#350000043295643C
(1655551527.715040) can0 201#06000000400D0300
(1655551527.715218) can0 080#00
(1655551527.715454) can0 181#A10000000000
(1655551527.715653) can0 281#001A7A030000
(1655551527.715857) can0 381#79020C000700
(1655551527.717731) can0 080#061A00A4
(1655551527.718016) can0 1838F380#00031903181A0006
(1655551527.718300) can0 1839F380#00181A1804000695
(1655551527.719984) can0 001#000004320000
(1655551527.720223) can0 6D0#3600000432962600
(1655551527.720910) can0 601#406C600000000000
(1655551527.722385) can0 581#436C600000000000
(1655551527.723105) can0 201#06000000400D0300
(1655551527.723280) can0 080#00
(1655551527.723511) can0 181#A10000000000
(1655551527.723714) can0 281#001A7A030000
(1655551527.723920) can0 381#79020C000600
(1655551527.728064) can0 001#000004320000
(1655551527.728306) can0 6D0#370000043295D7B1
(1655551527.730669) can0 201#06000000400D0300
(1655551527.730836) can0 080#00
(1655551527.731066) can0 181#A10000000000
(1655551527.731269) can0 281#001A7A030000
(1655551527.731475) can0 381#79020C000600
(1655551527.735982) can0 001#000004320000
(1655551527.736229) can0 6D0#380000043200BE04
(1655551527.738538) can0 201#06000000400D0300
(1655551527.738709) can0 080#00
(1655551527.738938) can0 181#A10000000000
(1655551527.739140) can0 281#001A7A030000
(1655551527.739343) can0 381#79020D000700
(1655551527.744050) can0 001#000004320000
(1655551527.744294) can0 6D0#390000043200BE05
(1655551527.746433) can0 201#06000000400D0300
(1655551527.746604) can0 080#00
(1655551527.746862) can0 181#A10000000000
(1655551527.747065) can0 281#001A7A030000
(1655551527.747270) can0 381#79020D000600
(1655551527.751984) can0 001#000004320000
(1655551527.752226) can0 6D0#3A0000043200BE06
(1655551527.754236) can0 201#06000000400D0300
(1655551527.754411) can0 080#00
(1655551527.754672) can0 181#A10000000000
(1655551527.754874) can0 281#001A7A030000
(1655551527.755079) can0 381#79020C000700
(1655551527.759989) can0 001#000004320000
(1655551527.761985) can0 201#06000000400D0300
(1655551527.762156) can0 080#00
(1655551527.762419) can0 181#A10000000000
(1655551527.762623) can0 281#001A7A030000
(1655551527.762828) can0 381#79020C000700
(1655551527.767374) can0 601#406C600000000000
(1655551527.768052) can0 001#000004320000
(1655551527.769164) can0 581#436C600000000000
(1655551527.769915) can0 201#06000000400D0300
(1655551527.770086) can0 080#00
(1655551527.770354) can0 181#A10000000000
(1655551527.770558) can0 281#001A7A030000
(1655551527.770767) can0 381#79020C000700
(1655551527.775983) can0 001#000004320000
(1655551527.776220) can0 6D0#3B00000432A410FD
(1655551527.777768) can0 201#06000000400D0300
(1655551527.777911) can0 080#00
(1655551527.778170) can0 181#A10000000000
(1655551527.778373) can0 281#001A7A030000
(1655551527.778576) can0 381#79020D000700
(1655551527.784053) can0 001#000004320000
(1655551527.785420) can0 201#06000000400D0300
(1655551527.785591) can0 080#00
(1655551527.785821) can0 181#A10000000000
(1655551527.786023) can0 281#001A7A030000
(1655551527.786229) can0 381#79020C000700
(1655551527.791983) can0 001#000004320000
(1655551527.792218) can0 6D0#3C0000043261A853
(1655551527.793295) can0 201#06000000400D0300
(1655551527.793472) can0 080#00
(1655551527.793728) can0 181#A10000000000
(1655551527.793934) can0 281#001A7A030000
(1655551527.794136) can0 381#79020D000700
(1655551527.800053) can0 001#000004320000
(1655551527.801043) can0 201#06000000400D0300
(1655551527.801217) can0 080#00
(1655551527.801476) can0 181#A10000000000
(1655551527.801681) can0 281#001A7A030000
(1655551527.801884) can0 381#79020D000600
(1655551527.807981) can0 001#000004320000
(1655551527.808225) can0 6D0#3D00000432002A75
(1655551527.808960) can0 201#06000000400D0300
(1655551527.809131) can0 080#00
(1655551527.809364) can0 181#A10000000000
(1655551527.809569) can0 281#001A7A030000
(1655551527.809773) can0 381#79020C000700
(1655551527.816050) can0 001#000004320000
(1655551527.816291) can0 6D0#3E00000432000450
(1655551527.816718) can0 201#06000000400D0300
(1655551527.816891) can0 080#00
(1655551527.817121) can0 181#A10000000000
(1655551527.817325) can0 281#001A7A030000
(1655551527.817527) can0 381#79020D000700
(1655551527.817818) can0 080#051800A1
(1655551527.818102) can0 1838F380#00061806181A0006
(1655551527.818383) can0 18EEFF80#F30080F300401E90
(1655551527.818666) can0 1839F380#00181A1804000695
(1655551527.823981) can0 001#000004320000
(1655551527.824219) can0 6D0#3F00000432002A77
(1655551527.824583) can0 201#06000000400D0300
(1655551527.824757) can0 080#00
(1655551527.824985) can0 181#A10000000000
(1655551527.825198) can0 281#001A7A030000
(1655551527.825392) can0 381#79020D000700
(1655551527.829534) can0 601#406C600000000000
(1655551527.829900) can0 581#436C600000000000
(1655551527.831986) can0 001#000004320000
(1655551527.832230) can0 201#06000000400D0300
(1655551527.832346) can0 080#00
(1655551527.832598) can0 181#A10000000000
(1655551527.832804) can0 281#001A7A030000
(1655551527.833007) can0 381#79020C000700
(1655551527.840019) can0 201#06000000400D0300
(1655551527.840227) can0 001#000004320000
(1655551527.840342) can0 080#00
(1655551527.840554) can0 181#A10000000000
(1655551527.840759) can0 281#001A7A030000
(1655551527.840962) can0 381#79020D000700
(1655551527.847829) can0 201#06000000400D0300
(1655551527.848038) can0 001#000004320000
(1655551527.848152) can0 080#00
(1655551527.848364) can0 181#A10000000000
(1655551527.848569) can0 281#001A7A030000
(1655551527.848774) can0 381#79020C000700
(1655551527.849012) can0 6D0#4000000432000452
(1655551527.855657) can0 201#06000000400D0300
(1655551527.855827) can0 080#00
(1655551527.856054) can0 001#000004320000
(1655551527.856266) can0 181#A10000000000
(1655551527.856468) can0 281#001A7A030000
(1655551527.856672) can0 381#79020C000700
(1655551527.856912) can0 6D0#4100000432000150
(1655551527.863455) can0 201#06000000400D0300
(1655551527.863621) can0 080#00
(1655551527.863854) can0 181#A10000000000
(1655551527.864060) can0 001#000004320000
(1655551527.864264) can0 281#001A7A030000
(1655551527.864466) can0 381#79020D000700
(1655551527.864704) can0 6D0#4200000432000151
(1655551527.871279) can0 201#06000000400D0300
(1655551527.871457) can0 080#00
(1655551527.871717) can0 181#A10000000000
(1655551527.871920) can0 281#001A7A030000
(1655551527.872129) can0 001#000004320000
(1655551527.872331) can0 381#79020D000700
(1655551527.872569) can0 6D0#4300000432014193
(1655551527.876493) can0 601#406C600000000000
(1655551527.876875) can0 581#436C600000000000
(1655551527.879079) can0 201#06000000400D0300
(1655551527.879257) can0 080#00
(1655551527.879491) can0 181#A10000000000
(1655551527.879692) can0 281#001A7A030000
(1655551527.879894) can0 381#79020D000700
(1655551527.880102) can0 001#000004320000
(1655551527.880337) can0 6D0#4400000432023387
(1655551527.886903) can0 201#06000000400D0300
(1655551527.887069) can0 080#00
(1655551527.887334) can0 181#A10000000000
(1655551527.887538) can0 281#001A7A030000
(1655551527.887743) can0 381#79020C000700
(1655551527.888048) can0 001#000004320000
(1655551527.888283) can0 6D0#45000004320072C5
(1655551527.894713) can0 201#06000000400D0300
(1655551527.894882) can0 080#00
(1655551527.895112) can0 181#A10000000000
(1655551527.895315) can0 281#001A7A030000
(1655551527.895520) can0 381#79020C000700
(1655551527.895977) can0 001#000004320000
(1655551527.896217) can0 6D0#46000004320078CC
(1655551527.902527) can0 201#06000000400D0300
(1655551527.902695) can0 080#00
(1655551527.902924) can0 181#A10000000000
(1655551527.903128) can0 281#001A7A030000
(1655551527.903330) can0 381#79020D000700
(1655551527.903976) can0 001#000004320000
(1655551527.910335) can0 201#06000000400D0300
(1655551527.910506) can0 080#00
(1655551527.910737) can0 181#A10000000000
(1655551527.910942) can0 281#001A7A030000
(1655551527.911144) can0 381#79020D000700
(1655551527.912045) can0 001#000004320000
(1655551527.917728) can0 080#061A00A4
(1655551527.918010) can0 1838F380#000B180B181A0006
(1655551527.918259) can0 201#06000000400D0300
(1655551527.918543) can0 1839F380#00181A1804000695
(1655551527.918656) can0 080#00
(1655551527.918947) can0 181#A10000000000
(1655551527.919151) can0 281#001A7A030000
(1655551527.919353) can0 381#79020D000700
(1655551527.919982) can0 001#000004320000
(1655551527.920213) can0 6D0#470000043208025F
(1655551527.925625) can0 601#406C600000000000
(1655551527.926019) can0 201#06000000400D0300
(1655551527.926369) can0 581#436C600000000000
(1655551527.926505) can0 080#00
(1655551527.926717) can0 181#A10000000000
(1655551527.926930) can0 281#001A7A030000
(1655551527.927126) can0 381#79020C000700
(1655551527.928054) can0 001#000004320000
(1655551527.928290) can0 6D0#480000043208005E
(1655551527.933769) can0 201#06000000400D0300
(1655551527.933941) can0 080#00
(1655551527.934175) can0 181#A10000000000
(1655551527.934374) can0 281#001A7A030000
(1655551527.934577) can0 381#79020D000700
(1655551527.935974) can0 001#000004320000
(1655551527.936212) can0 6D0#4900000432000057
(1655551527.941564) can0 201#06000000400D0300
(1655551527.941737) can0 080#00
(1655551527.941972) can0 181#A10000000000
(1655551527.942171) can0 281#001A7A030000
(1655551527.942376) can0 381#79020C000700
(1655551527.944050) can0 001#000004320000
(1655551527.944293) can0 6D0#4A00000432080060
(1655551527.949371) can0 201#06000000400D0300
(1655551527.949544) can0 080#00
(1655551527.949780) can0 181#A10000000000
(1655551527.949978) can0 281#001A7A030000
(1655551527.950180) can0 381#79020D000700
(1655551527.951975) can0 001#000004320000
(1655551527.952211) can0 6D0#4B00000432080263
(1655551527.957189) can0 201#06000000400D0300
(1655551527.957364) can0 080#00
(1655551527.957595) can0 181#A10000000000
(1655551527.957798) can0 281#001A7A030000
(1655551527.958000) can0 381#79020D000700
(1655551527.960044) can0 001#000004320000
(1655551527.960283) can0 6D0#4C000004320898FA
(1655551527.964997) can0 201#06000000400D0300
(1655551527.965174) can0 080#00
(1655551527.965405) can0 181#A10000000000
(1655551527.965607) can0 281#001A7A030000
(1655551527.965812) can0 381#79020C000700
(1655551527.967974) can0 001#000004320000
(1655551527.968211) can0 6D0#4D00000432076CCE
(1655551527.970753) can0 601#406C600000000000
(1655551527.972340) can0 581#436C600000000000
(1655551527.973059) can0 201#06000000400D0300
(1655551527.973236) can0 080#00
(1655551527.973466) can0 181#A10000000000
(1655551527.973670) can0 281#001A7A030000
(1655551527.973874) can0 381#79020C000700
(1655551527.975979) can0 001#000004320000
(1655551527.980618) can0 201#06000000400D0300
(1655551527.980789) can0 080#00
(1655551527.981021) can0 181#A10000000000
(1655551527.981225) can0 281#001A7A030000
(1655551527.981428) can0 381#79020D000700
(1655551527.984043) can0 001#000004320000
(1655551527.988431) can0 201#06000000400D0300
(1655551527.988601) can0 080#00
(1655551527.988829) can0 181#A10000000000
(1655551527.989033) can0 281#001A7A030000
(1655551527.989235) can0 381#79020D000700
(1655551527.991974) can0 001#000004320000
(1655551527.992211) can0 6D0#4E0000043200015D
(1655551527.996244) can0 201#06000000400D0300
(1655551527.996423) can0 080#00
(1655551527.996653) can0 181#A10000000000
(1655551527.996854) can0 281#001A7A030000
(1655551527.997057) can0 381#79020D000700
(1655551528.000050) can0 001#000004320000
(1655551528.004052) can0 201#06000000400D0300
(1655551528.004228) can0 080#00
(1655551528.004455) can0 181#A10000000000
(1655551528.004659) can0 281#001A7A030000
(1655551528.004865) can0 381#79020C000700
(1655551528.007971) can0 001#000004320000
(1655551528.008205) can0 6D0#4F0000043290E0CD
(1655551528.011867) can0 201#06000000400D0300
(1655551528.012040) can0 080#00
(1655551528.012274) can0 181#A10000000000
(1655551528.012478) can0 281#001A7A030000
(1655551528.012685) can0 381#79020C000700
(1655551528.016042) can0 001#000004320000
(1655551528.016275) can0 6D0#50000004324F31DE
(1655551528.016696) can0 601#406C600000000000
(1655551528.017059) can0 581#436C600000000000
(1655551528.017733) can0 080#051800A1
(1655551528.018024) can0 1838F380#00001A00181A0006
(1655551528.018313) can0 1839F380#00181A1804000695
(1655551528.019953) can0 18EEFF80#F30080F300401E90
(1655551528.020197) can0 201#06000000400D0300
(1655551528.020313) can0 080#00
(1655551528.020529) can0 181#A10000000000
(1655551528.020730) can0 281#001A7A030000
(1655551528.020933) can0 381#79020D000700
(1655551528.023972) can0 001#000004320000
(1655551528.024210) can0 6D0#51000004322131B1
(1655551528.027488) can0 201#06000000400D0300
(1655551528.027658) can0 080#00
(1655551528.027890) can0 181#A10000000000
(1655551528.028091) can0 281#001A7A030000
(1655551528.028295) can0 381#79020D000700
(1655551528.032052) can0 001#000004320000
(1655551528.032283) can0 6D0#5200000432000060
(1655551528.035259) can0 201#06000000400D0300
(1655551528.035468) can0 080#00
(1655551528.035697) can0 181#A10000000000
(1655551528.035903) can0 281#001A7A030000
(1655551528.036105) can0 381#79020C000700
(1655551528.039971) can0 001#000004320000
(1655551528.040213) can0 6D0#5300000432000061
(1655551528.043110) can0 201#06000000400D0300
(1655551528.043286) can0 080#00
(1655551528.043524) can0 181#A10000000000
(1655551528.043718) can0 281#001A7A030000
(1655551528.043924) can0 381#79020C000700
(1655551528.047980) can0 001#000004320000
(1655551528.050922) can0 201#06000000400D0300
(1655551528.051090) can0 080#00
(1655551528.051328) can0 181#A10000000000
(1655551528.051528) can0 281#001A7A030000
(1655551528.051734) can0 381#79020C000700
(1655551528.056059) can0 001#000004320000
(1655551528.058731) can0 201#06000000400D0300
(1655551528.058901) can0 080#00
(1655551528.059139) can0 181#A10000000000
(1655551528.059335) can0 281#001A7A030000
(1655551528.059539) can0 381#79020D000700
(1655551528.063970) can0 001#000004320000
(1655551528.064205) can0 6D0#540000043202369A
(1655551528.066545) can0 201#06000000400D0300
(1655551528.066711) can0 080#00
(1655551528.066942) can0 181#A10000000000
(1655551528.067147) can0 281#001A7A030000
(1655551528.067349) can0 381#79020C000700
(1655551528.072040) can0 001#000004320000
(1655551528.072278) can0 6D0#5500000432000063
(1655551528.074428) can0 201#06000000400D0300
(1655551528.074624) can0 080#00
(1655551528.074830) can0 181#A10000000000
(1655551528.075034) can0 281#001A7A030000
(1655551528.075240) can0 381#79020C000700
(1655551528.079445) can0 601#406C600000000000
(1655551528.079847) can0 581#436C600000000000
(1655551528.080044) can0 001#000004320000
(1655551528.080285) can0 6D0#5600000432000064
(1655551528.082349) can0 201#06000000400D0300
(1655551528.082521) can0 080#00
(1655551528.082750) can0 181#A10000000000
(1655551528.082953) can0 281#001A7A030000
(1655551528.083157) can0 381#79020C000700
(1655551528.088045) can0 001#000004320000
(1655551528.088278) can0 6D0#5700000432000065
(1655551528.090118) can0 201#06000000400D0300
(1655551528.090294) can0 080#00
(1655551528.090554) can0 181#A10000000000
(1655551528.090757) can0 281#001A7A030000
(1655551528.090962) can0 381#79020C000700
(1655551528.095969) can0 001#000004320000
(1655551528.096207) can0 6D0#5800000432FFD83D
(1655551528.097930) can0 201#06000000400D0300
(1655551528.098101) can0 080#00
(1655551528.098362) can0 181#A10000000000
(1655551528.098567) can0 281#001A7A030000
(1655551528.098769) can0 381#79020D000700
(1655551528.104039) can0 001#000004320000
(1655551528.105673) can0 201#06000000400D0300
(1655551528.105842) can0 080#00
(1655551528.106073) can0 181#A10000000000
(1655551528.106287) can0 281#001A7A030000
(1655551528.106480) can0 381#79020D000700
(1655551528.111967) can0 001#000004320000
(1655551528.113482) can0 201#06000000400D0300
(1655551528.113654) can0 080#00
(1655551528.113887) can0 181#A10000000000
(1655551528.114087) can0 281#001A7A030000
(1655551528.114290) can0 381#79020D000700
(1655551528.117731) can0 080#061A00A4
(1655551528.118015) can0 1838F380#00031903181A0006
(1655551528.118298) can0 1839F380#00181A1804000695
(1655551528.119969) can0 001#000004320000
(1655551528.120206) can0 6D0#5900000432000067
(1655551528.121400) can0 201#06000000400D0300
(1655551528.121571) can0 080#00
(1655551528.121801) can0 181#A10000000000
(1655551528.122004) can0 281#001A7A030000
(1655551528.122211) can0 381#79020C000700
(1655551528.127968) can0 001#000004320000
(1655551528.128486) can0 601#406C600000000000
(1655551528.128844) can0 201#06000000400D0300
(1655551528.129086) can0 581#436C600000000000
(1655551528.129269) can0 080#00
(1655551528.129496) can0 181#A10000000000
(1655551528.129781) can0 281#001A7A030000
(1655551528.129983) can0 381#79020C000700
(1655551528.136036) can0 001#000004320000
(1655551528.136916) can0 201#06000000400D0300
(1655551528.137087) can0 080#00
(1655551528.137353) can0 181#A10000000000
(1655551528.137555) can0 281#001A7A030000
(1655551528.137761) can0 381#79020C000700
(1655551528.143968) can0 001#000004320000
(1655551528.144204) can0 6D0#5A00000432000068
(1655551528.144798) can0 201#06000000400D0300
(1655551528.144969) can0 080#00
(1655551528.145225) can0 181#A10000000000
(1655551528.145431) can0 281#001A7A030000
(1655551528.145632) can0 381#79020D000700
(1655551528.152041) can0 001#000004320000
(1655551528.152286) can0 6D0#5B00000432000069
(1655551528.152610) can0 201#06000000400D0300
(1655551528.152780) can0 080#00
(1655551528.153038) can0 181#A10000000000
(1655551528.153241) can0 281#001A7A030000
(1655551528.153453) can0 381#79020C000700
(1655551528.159963) can0 001#000004320000
(1655551528.160204) can0 6D0#5C0000043200006A
(1655551528.160453) can0 201#06000000400D0300
(1655551528.160582) can0 080#00
(1655551528.160814) can0 181#A10000000000
(1655551528.161017) can0 281#001A7A030000
(1655551528.161228) can0 381#79020C000700
(1655551528.168035) can0 001#000004320000
(1655551528.168281) can0 201#06000000400D0300
(1655551528.168521) can0 6D0#5D0000043200006B
(1655551528.168635) can0 080#00
(1655551528.168849) can0 181#A10000000000
(1655551528.169052) can0 281#001A7A030000
(1655551528.169264) can0 381#79020C000700
(1655551528.174446) can0 601#406C600000000000
(1655551528.175425) can0 581#436C600000000000
(1655551528.175963) can0 001#000004320000
(1655551528.176209) can0 201#06000000400D0300
(1655551528.176450) can0 6D0#5E0000043200006C
(1655551528.176563) can0 080#00
(1655551528.176778) can0 181#A10000000000
(1655551528.176980) can0 281#001A7A030000
(1655551528.177191) can0 381#79020D000700
(1655551528.183708) can0 201#06000000400D0300
(1655551528.183879) can0 080#00
(1655551528.184085) can0 001#000004320000
(1655551528.184301) can0 181#A10000000000
(1655551528.184501) can0 281#001A7A030000
(1655551528.184705) can0 381#79020C000700
(1655551528.184946) can0 6D0#5F0000043200006D
(1655551528.191535) can0 201#06000000400D0300
(1655551528.191705) can0 080#00
(1655551528.191935) can0 181#A10000000000
(1655551528.192143) can0 001#000004320000
(1655551528.192356) can0 281#001A7A030000
(1655551528.192554) can0 381#79020C000700
(1655551528.192792) can0 6D0#600000043200006E
(1655551528.199327) can0 201#06000000400D0300
(1655551528.199498) can0 080#00
(1655551528.199726) can0 181#A10000000000
(1655551528.199931) can0 281#001A7A030000
(1655551528.200145) can0 001#000004320000
(1655551528.200342) can0 381#79020C000700
(1655551528.207170) can0 201#06000000400D0300
(1655551528.207336) can0 080#00
(1655551528.207597) can0 181#A10000000000
(1655551528.207799) can0 281#001A7A030000
(1655551528.208011) can0 381#79020C000700
(1655551528.208210) can0 001#000004320000
(1655551528.214972) can0 201#06000000400D0300
(1655551528.215147) can0 080#00
(1655551528.215405) can0 181#A10000000000
(1655551528.215609) can0 281#001A7A030000
(1655551528.215820) can0 381#79020C000700
(1655551528.216022) can0 001#000004320000
(1655551528.216260) can0 6D0#610000043200006F
(1655551528.217782) can0 080#051800A1
(1655551528.218067) can0 1838F380#00061806181A0006
(1655551528.218351) can0 1839F380#00181A1804000695
(1655551528.218630) can0 18EEFF80#F30080F300401E90
(1655551528.220653) can0 601#406C600000000000
(1655551528.222291) can0 581#436C600000000000
(1655551528.223015) can0 201#06000000400D0300
(1655551528.223190) can0 080#00
(1655551528.223421) can0 181#A10000000000
(1655551528.223625) can0 281#001A7A030000
(1655551528.223835) can0 381#79020D000700
(1655551528.224035) can0 001#000004320000
(1655551528.224274) can0 6D0#6200000432000070
(1655551528.230587) can0 201#06000000400D0300
(1655551528.230760) can0 080#00
(1655551528.230987) can0 181#A10000000000
(1655551528.231199) can0 281#001A7A030000
(1655551528.231393) can0 381#79020D000700
(1655551528.231959) can0 001#000004320000
(1655551528.232195) can0 6D0#6300000432000071
(1655551528.238406) can0 201#06000000400D0300
(1655551528.238571) can0 080#00
(1655551528.238798) can0 181#A10000000000
(1655551528.239002) can0 281#001A7A030000
(1655551528.239211) can0 381#79020D000700
(1655551528.240040) can0 001#000004320000
(1655551528.240267) can0 6D0#6400000432000072
(1655551528.246214) can0 201#06000000400D0300
(1655551528.246388) can0 080#00
(1655551528.246647) can0 181#A10000000000
(1655551528.246851) can0 281#001A7A030000
(1655551528.247063) can0 381#79020C000700
(1655551528.247959) can0 001#000004320000
(1655551528.248202) can0 6D0#6500000432000073
(1655551528.254021) can0 201#06000000400D0300
(1655551528.254198) can0 080#00
(1655551528.254455) can0 181#A10000000000
(1655551528.254659) can0 281#001A7A030000
(1655551528.254875) can0 381#79020D000700
(1655551528.256029) can0 001#000004320000
(1655551528.256267) can0 6D0#6600000432000074
(1655551528.261833) can0 201#06000000400D0300
(1655551528.262006) can0 080#00
(1655551528.262232) can0 181#A10000000000
(1655551528.262440) can0 281#001A7A030000
(1655551528.262641) can0 381#79020C000700
(1655551528.263958) can0 001#000004320000
(1655551528.264195) can0 6D0#6700000432FFFF73
(1655551528.269635) can0 201#06000000400D0300
(1655551528.269799) can0 080#00
(1655551528.270029) can0 181#A10000000000
(1655551528.270231) can0 281#001A7A030000
(1655551528.270442) can0 381#79020C000700
(1655551528.271964) can0 001#000004320000
(1655551528.277442) can0 201#06000000400D0300
(1655551528.277609) can0 080#00
(1655551528.277842) can0 181#A10000000000
(1655551528.278043) can0 281#001A7A030000
(1655551528.278253) can0 381#79020D000700
(1655551528.280028) can0 001#000004320000
(1655551528.280274) can0 601#406C600000000000
(1655551528.280663) can0 581#436C600000000000
(1655551528.285109) can0 200#05009B009B000000
(1655551528.285362) can0 201#06000000400D0300
(1655551528.285500) can0 080#00
(1655551528.285759) can0 181#A10000000000
(1655551528.285964) can0 281#001A7A030000
(1655551528.286173) can0 381#79020D000700
(1655551528.287959) can0 001#000004320000
(1655551528.288200) can0 6D0#6E000004320040BC
(1655551528.293058) can0 201#06000000400D0300
(1655551528.293237) can0 080#00
(1655551528.293466) can0 181#A10000000000
(1655551528.293671) can0 281#001A7A030000
(1655551528.293878) can0 381#79020D000700
(1655551528.296026) can0 001#000004320000
(1655551528.296263) can0 6D0#730000043208028B
(1655551528.300873) can0 201#06000000400D0300
(1655551528.301045) can0 080#00
(1655551528.301281) can0 181#A10000000000
(1655551528.301483) can0 281#001A7A030000
(1655551528.301694) can0 381#79020D000700
(1655551528.303959) can0 001#000004320000
(1655551528.304196) can0 6D0#740000043208008A
(1655551528.308686) can0 201#06000000400D0300
(1655551528.308856) can0 080#00
(1655551528.309085) can0 181#A10000000000
(1655551528.309288) can0 281#001A7A030000
(1655551528.309497) can0 381#79020D000700
(1655551528.312038) can0 001#000004320000
(1655551528.316494) can0 201#06000000400D0300
(1655551528.316666) can0 080#00
(1655551528.316894) can0 181#A10000000000
(1655551528.317098) can0 281#001A7A030000
(1655551528.317307) can0 381#79020D000700
(1655551528.317747) can0 080#061A00A4
(1655551528.318033) can0 1838F380#000B180B181A0006
(1655551528.318321) can0 1839F380#00181A1804000695
(1655551528.319955) can0 001#000004320000
(1655551528.320197) can0 6D0#7500000432000083
(1655551528.324302) can0 201#06000000400D0300
(1655551528.324476) can0 080#00
(1655551528.324704) can0 181#A10000000000
(1655551528.324917) can0 281#001A7A030000
(1655551528.325111) can0 381#79020D000700
(1655551528.328026) can0 001#000004320000
(1655551528.328266) can0 6D0#7600000432000084
(1655551528.328715) can0 601#406C600000000000
(1655551528.329071) can0 581#436C600000000000
(1655551528.332125) can0 201#06000000400D0300
(1655551528.332301) can0 080#00
(1655551528.332528) can0 181#A10000000000
(1655551528.332734) can0 281#001A7A030000
(1655551528.332938) can0 381#79020C000700
(1655551528.335957) can0 001#000004320000
(1655551528.336194) can0 6D0#7700000432000085
(1655551528.339926) can0 201#06000000400D0300
(1655551528.340098) can0 080#00
(1655551528.340332) can0 181#A10000000000
(1655551528.340539) can0 281#001A7A030000
(1655551528.340741) can0 381#79020D000700
(1655551528.343965) can0 001#000004320000
(1655551528.347745) can0 201#06000000400D0300
(1655551528.347911) can0 080#00
(1655551528.348140) can0 181#A10000000000
(1655551528.348344) can0 281#001A7A030000
(1655551528.348548) can0 381#79020C000700
(1655551528.352026) can0 001#000004320000
(1655551528.355546) can0 201#06000000400D0300
(1655551528.355718) can0 080#00
(1655551528.355947) can0 181#A10000000000
(1655551528.356151) can0 281#001A7A030000
(1655551528.356361) can0 381#79020D000700
(1655551528.359954) can0 001#000004320000
(1655551528.360192) can0 6D0#7800000432000086
(1655551528.363362) can0 201#06000000400D0300
(1655551528.363530) can0 080#00
(1655551528.363761) can0 181#A10000000000
(1655551528.363965) can0 281#001A7A030000
(1655551528.364177) can0 381#79020C000700
(1655551528.368025) can0 001#000004320000
(1655551528.368264) can0 6D0#7900000432000087
(1655551528.371177) can0 201#06000000400D0300
(1655551528.371355) can0 080#00
(1655551528.371581) can0 181#A10000000000
(1655551528.371786) can0 281#001A7A030000
(1655551528.371987) can0 381#79020D000700
(1655551528.375241) can0 601#406C600000000000
(1655551528.375623) can0 581#436C600000000000
(1655551528.375961) can0 001#000004320000
(1655551528.376197) can0 6D0#7A00000432000088
(1655551528.378984) can0 201#06000000400D0300
(1655551528.379160) can0 080#00
(1655551528.379389) can0 181#A10000000000
(1655551528.379593) can0 281#001A7A030000
(1655551528.379800) can0 381#79020D000700
(1655551528.384027) can0 001#000004320000
(1655551528.384263) can0 6D0#7B0000043200038C
(1655551528.386792) can0 201#06000000400D0300
(1655551528.386968) can0 080#00
(1655551528.387192) can0 181#A10000000000
(1655551528.387403) can0 281#001A7A030000
(1655551528.387598) can0 381#79020D000700
(1655551528.391955) can0 001#000004320000
(1655551528.392192) can0 6D0#7C00000432000690
(1655551528.394616) can0 201#06000000400D0300
(1655551528.394775) can0 080#00
(1655551528.395004) can0 181#A10000000000
(1655551528.395209) can0 281#001A7A030000
(1655551528.395417) can0 381#79020D000700
(1655551528.400022) can0 001#000004320000
(1655551528.402416) can0 201#06000000400D0300
(1655551528.402590) can0 080#00
(1655551528.402816) can0 181#A10000000000
(1655551528.403021) can0 281#001A7A030000
(1655551528.403222) can0 381#79020D000700
(1655551528.407956) can0 001#000004320000
(1655551528.408193) can0 6D0#7D000004320030BB
(1655551528.410347) can0 201#06000000400D0300
(1655551528.410520) can0 080#00
(1655551528.410752) can0 181#A10000000000
(1655551528.410955) can0 281#001A7A030000
(1655551528.411164) can0 381#79020D000700
(1655551528.415953) can0 001#000004320000
(1655551528.417775) can0 080#051800A1
(1655551528.418065) can0 1838F380#00001A00181A0006
(1655551528.418311) can0 201#06000000400D0300
(1655551528.418591) can0 18EEFF80#F30080F300401E90
(1655551528.418704) can0 080#00
(1655551528.418919) can0 181#A10000000000
(1655551528.419123) can0 281#001A7A030000
(1655551528.419332) can0 381#79020D000700
(1655551528.419609) can0 1839F380#00181A1804000695
(1655551528.421870) can0 601#406C600000000000
(1655551528.422240) can0 581#436C600000000000
(1655551528.424033) can0 001#000004320000
(1655551528.425935) can0 201#06000000400D0300
(1655551528.426102) can0 080#00
(1655551528.426363) can0 181#A10000000000
(1655551528.426568) can0 281#001A7A030000
(1655551528.426771) can0 381#79020C000700
(1655551528.431951) can0 001#000004320000
(1655551528.432193) can0 6D0#7E0000043200008C
(1655551528.433801) can0 201#06000000400D0300
(1655551528.433975) can0 080#00
(1655551528.434236) can0 181#A10000000000
(1655551528.434441) can0 281#001A7A030000
(1655551528.434643) can0 381#79020C000700
(1655551528.440024) can0 001#000004320000
(1655551528.440264) can0 6D0#7F0000043202EE7D
(1655551528.441614) can0 201#06000000400D0300
(1655551528.441787) can0 080#00
(1655551528.442045) can0 181#A10000000000
(1655551528.442248) can0 281#001A7A030000
(1655551528.442458) can0 381#79020D000700
(1655551528.447958) can0 001#000004320000
(1655551528.448190) can0 6D0#800000043200008E
(1655551528.449420) can0 201#06000000400D0300
(1655551528.449592) can0 080#00
(1655551528.449821) can0 181#A10000000000
(1655551528.450032) can0 281#001A7A030000
(1655551528.450229) can0 381#79020D000700
(1655551528.456023) can0 001#000004320000
(1655551528.456261) can0 6D0#0000000432010312
(1655551528.457235) can0 201#06000000400D0300
(1655551528.457413) can0 080#00
(1655551528.457671) can0 181#A10000000000
(1655551528.457876) can0 281#001A7A030000
(1655551528.458078) can0 381#79020D000700
(1655551528.463949) can0 001#000004320000
(1655551528.464190) can0 6D0#0100000432060318
(1655551528.465088) can0 201#06000000400D0300
(1655551528.465264) can0 080#00
(1655551528.465493) can0 181#A10000000000
(1655551528.465699) can0 281#001A7A030000
(1655551528.465902) can0 381#79020C000700
(1655551528.472022) can0 001#000004320000
(1655551528.472257) can0 6D0#0200000432057A8F
(1655551528.472861) can0 201#06000000400D0300
(1655551528.473032) can0 080#00
(1655551528.473295) can0 181#A10000000000
(1655551528.473500) can0 281#001A7A030000
(1655551528.473702) can0 381#79020D000700
(1655551528.479949) can0 001#000004320000
(1655551528.480185) can0 6D0#0300000432240338
(1655551528.480435) can0 601#406C600000000000
(1655551528.480676) can0 201#06000000400D0300
(1655551528.480793) can0 080#00
(1655551528.481079) can0 581#436C600000000000
(1655551528.481350) can0 181#A10000000000
(1655551528.481552) can0 281#001A7A030000
(1655551528.481762) can0 381#79020D000700
(1655551528.487951) can0 001#000004320000
(1655551528.488405) can0 201#06000000400D0300
(1655551528.488576) can0 080#00
(1655551528.488811) can0 181#A10000000000
(1655551528.489009) can0 281#001A7A030000
(1655551528.489219) can0 381#79020D000700
(1655551528.496019) can0 001#000004320000
(1655551528.496266) can0 201#06000000400D0300
(1655551528.496393) can0 080#00
(1655551528.496626) can0 181#A10000000000
(1655551528.496828) can0 281#001A7A030000
(1655551528.497038) can0 381#79020D000700
(1655551528.503965) can0 201#06000000400D0300
(1655551528.504167) can0 001#000004320000
(1655551528.504283) can0 080#00
(1655551528.504496) can0 181#A10000000000
(1655551528.504699) can0 281#001A7A030000
(1655551528.504911) can0 381#79020C000700
(1655551528.505144) can0 6D0#0400000432006375
(1655551528.511786) can0 201#06000000400D0300
(1655551528.512017) can0 001#000004320000
(1655551528.512133) can0 080#00
(1655551528.512344) can0 181#A10000000000
(1655551528.512555) can0 281#001A7A030000
(1655551528.512752) can0 381#79020C000700
(1655551528.517725) can0 080#061A00A4
(1655551528.518008) can0 1838F380#00031903181A0006
(1655551528.518304) can0 1839F380#00181A1804000695
(1655551528.519909) can0 201#06000000400D0300
(1655551528.520116) can0 001#000004320000
(1655551528.520234) can0 080#00
(1655551528.520444) can0 181#A10000000000
(1655551528.520656) can0 281#001A7A030000
(1655551528.520851) can0 381#79020D000700
(1655551528.521091) can0 6D0#0500000432000013
(1655551528.527407) can0 201#06000000400D0300
(1655551528.527579) can0 080#00
(1655551528.527809) can0 181#A10000000000
(1655551528.528012) can0 281#001A7A030000
(1655551528.528229) can0 001#000004320000
(1655551528.528425) can0 381#79020C000700
(1655551528.528670) can0 6D0#0600000432003044
(1655551528.531940) can0 601#406C600000000000
(1655551528.532331) can0 581#436C600000000000
(1655551528.535212) can0 201#06000000400D0300
(1655551528.535390) can0 080#00
(1655551528.535620) can0 181#A10000000000
(1655551528.535824) can0 281#001A7A030000
(1655551528.536039) can0 001#000004320000
(1655551528.536234) can0 381#79020D000700
(1655551528.536476) can0 6D0#0700000432001C31
(1655551528.543029) can0 201#06000000400D0300
(1655551528.543205) can0 080#00
(1655551528.543472) can0 181#A10000000000
(1655551528.543669) can0 281#001A7A030000
(1655551528.543879) can0 381#79020D000700
(1655551528.544079) can0 001#000004320000
(1655551528.550842) can0 201#06000000400D0300
(1655551528.551014) can0 080#00
(1655551528.551277) can0 181#A10000000000
(1655551528.551479) can0 281#001A7A030000
(1655551528.551689) can0 381#79020D000700
(1655551528.551946) can0 001#000004320000
(1655551528.552184) can0 6D0#080000043200AFC5
(1655551528.558654) can0 201#06000000400D0300
(1655551528.558825) can0 080#00
(1655551528.559054) can0 181#A10000000000
(1655551528.559256) can0 281#001A7A030000
(1655551528.559465) can0 381#79020D000700
(1655551528.559948) can0 001#000004320000
(1655551528.566462) can0 201#06000000400D0300
(1655551528.566635) can0 080#00
(1655551528.566863) can0 181#A10000000000
(1655551528.567070) can0 281#001A7A030000
(1655551528.567271) can0 381#79020D000700
(1655551528.568023) can0 001#000004320000
(1655551528.574272) can0 201#06000000400D0300
(1655551528.574444) can0 080#00
(1655551528.574673) can0 181#A10000000000
(1655551528.574887) can0 281#001A7A030000
(1655551528.575082) can0 381#79020C000700
(1655551528.575944) can0 001#000004320000
(1655551528.576188) can0 6D0#0900000432000017
(1655551528.579839) can0 601#406C600000000000
(1655551528.581606) can0 581#436C600000000000
(1655551528.582322) can0 201#06000000400D0300
(1655551528.582492) can0 080#00
(1655551528.582724) can0 181#A10000000000
(1655551528.582929) can0 281#001A7A030000
(1655551528.583129) can0 381#79020D000700
(1655551528.584014) can0 001#000004320000
(1655551528.584255) can0 6D0#0A00000432007890
(1655551528.589902) can0 201#06000000400D0300
(1655551528.590067) can0 080#00
(1655551528.590336) can0 181#A10000000000
(1655551528.590540) can0 281#001A7A030000
(1655551528.590750) can0 381#79020D000700
(1655551528.591944) can0 001#000004320000
(1655551528.592182) can0 6D0#0B0000043202445F
(1655551528.597709) can0 201#06000000400D0300
(1655551528.597881) can0 080#00
(1655551528.598107) can0 181#A10000000000
(1655551528.598312) can0 281#001A7A030000
(1655551528.598517) can0 381#79020C000700
(1655551528.600015) can0 001#000004320000
(1655551528.605501) can0 201#06000000400D0300
(1655551528.605674) can0 080#00
(1655551528.605900) can0 181#A10000000000
(1655551528.606105) can0 281#001A7A030000
(1655551528.606307) can0 381#79020D000700
(1655551528.607945) can0 001#000004320000
(1655551528.608186) can0 6D0#0C0000043200001A
(1655551528.613320) can0 201#06000000400D0300
(1655551528.613492) can0 080#00
(1655551528.613720) can0 181#A10000000000
(1655551528.613931) can0 281#001A7A030000
(1655551528.614127) can0 381#79020C000700
(1655551528.616017) can0 001#000004320000
(1655551528.616251) can0 6D0#0D00000432043251
(1655551528.617723) can0 080#051800A1
(1655551528.618008) can0 1838F380#00061806181A0006
(1655551528.618292) can0 1839F380#00181A1804000695
(1655551528.619939) can0 18EEFF80#F30080F300401E90
(1655551528.621207) can0 201#06000000400D0300
(1655551528.621388) can0 080#00
(1655551528.621646) can0 181#A10000000000
(1655551528.621848) can0 281#001A7A030000
(1655551528.622057) can0 381#79020D000700
(1655551528.623941) can0 001#000004320000
(1655551528.624178) can0 6D0#0E00000432043252
(1655551528.625429) can0 601#406C600000000000
(1655551528.625815) can0 581#436C600000000000
(1655551528.628942) can0 201#06000000400D0300
(1655551528.629115) can0 080#00
(1655551528.629349) can0 181#A10000000000
(1655551528.629553) can0 281#001A7A030000
(1655551528.629764) can0 381#79020C000700
(1655551528.631945) can0 001#000004320000
(1655551528.636746) can0 201#06000000400D0300
(1655551528.636916) can0 080#00
(1655551528.637144) can0 181#A10000000000
(1655551528.637356) can0 281#001A7A030000
(1655551528.637552) can0 381#79020D000700
(1655551528.640016) can0 001#000004320000
(1655551528.644557) can0 201#06000000400D0300
(1655551528.644730) can0 080#00
(1655551528.644957) can0 181#A10000000000
(1655551528.645166) can0 281#001A7A030000
(1655551528.645365) can0 381#79020D000700
(1655551528.647942) can0 001#000004320000
(1655551528.648178) can0 6D0#0F00000432007693
(1655551528.652372) can0 201#06000000400D0300
(1655551528.652543) can0 080#00
(1655551528.652771) can0 181#A10000000000
(1655551528.652982) can0 281#001A7A030000
(1655551528.653176) can0 381#79020D000700
(1655551528.656013) can0 001#000004320000
(1655551528.656251) can0 6D0#100000043201BAD9
(1655551528.660184) can0 201#06000000400D0300
(1655551528.660363) can0 080#00
(1655551528.660589) can0 181#A10000000000
(1655551528.660796) can0 281#001A7A030000
(1655551528.660997) can0 381#79020D000700
(1655551528.663938) can0 001#000004320000
(1655551528.664179) can0 6D0#1100000432003554
(1655551528.667994) can0 201#06000000400D0300
(1655551528.668165) can0 080#00
(1655551528.668397) can0 181#A10000000000
(1655551528.668600) can0 281#001A7A030000
(1655551528.668810) can0 381#79020D000700
(1655551528.672011) can0 001#000004320000
(1655551528.672248) can0 6D0#1200000432003D5D
(1655551528.673196) can0 601#406C600000000000
(1655551528.673562) can0 581#436C600000000000
(1655551528.675810) can0 201#06000000400D0300
(1655551528.675981) can0 080#00
(1655551528.676209) can0 181#A10000000000
(1655551528.676413) can0 281#001A7A030000
(1655551528.676626) can0 381#79020C000700
(1655551528.679939) can0 001#000004320000
(1655551528.680179) can0 6D0#1300000432006485
(1655551528.683616) can0 201#06000000400D0300
(1655551528.683783) can0 080#00
(1655551528.684036) can0 181#A10000000000
(1655551528.684219) can0 281#001A7A030000
(1655551528.684424) can0 381#79020D000700
(1655551528.688009) can0 001#000004320000
(1655551528.691427) can0 201#06000000400D0300
(1655551528.691598) can0 080#00
(1655551528.691828) can0 181#A10000000000
(1655551528.692033) can0 281#001A7A030000
(1655551528.692234) can0 381#79020D000700
(1655551528.695946) can0 001#000004320000
(1655551528.696178) can0 6D0#140000043229F43F
(1655551528.699211) can0 201#06000000400D0300
(1655551528.699406) can0 080#00
(1655551528.699636) can0 181#A10000000000
(1655551528.699840) can0 281#001A7A030000
(1655551528.700042) can0 381#79020D000700
(1655551528.703940) can0 001#000004320000
(1655551528.707051) can0 201#06000000400D0300
(1655551528.707224) can0 080#00
(1655551528.707453) can0 181#A10000000000
(1655551528.707658) can0 281#001A7A030000
(1655551528.707861) can0 381#79020C000700
(1655551528.712016) can0 001#000004320000
(1655551528.714858) can0 201#06000000400D0300
(1655551528.715031) can0 080#00
(1655551528.715266) can0 181#A10000000000
(1655551528.715469) can0 281#001A7A030000
(1655551528.715673) can0 381#79020D000700
(1655551528.717716) can0 080#061A00A4
(1655551528.718000) can0 1838F380#000B180B181A0006
(1655551528.718286) can0 1839F380#00181A1804000695
(1655551528.719838) can0 601#406C600000000000
(1655551528.720045) can0 001#000004320000
(1655551528.720286) can0 581#436C600000000000
(1655551528.720527) can0 6D0#15000004327FFFA1
(1655551528.722755) can0 201#06000000400D0300
(1655551528.722926) can0 080#00
(1655551528.723185) can0 181#A10000000000
(1655551528.723388) can0 281#001A7A030000
(1655551528.723591) can0 381#79020D000700
(1655551528.728016) can0 001#000004320000
(1655551528.730488) can0 201#06000000400D0300
(1655551528.730652) can0 080#00
(1655551528.730881) can0 181#A10000000000
(1655551528.731086) can0 281#001A7A030000
(1655551528.731287) can0 381#79020D000700
(1655551528.735942) can0 001#000004320000
(1655551528.736176) can0 6D0#16000004320498C0
(1655551528.738370) can0 201#06000000400D0300
(1655551528.738542) can0 080#00
(1655551528.738770) can0 181#A10000000000
(1655551528.738974) can0 281#001A7A030000
(1655551528.739177) can0 381#79020D000700
(1655551528.744011) can0 001#000004320000
(1655551528.746177) can0 201#06000000400D0300
(1655551528.746352) can0 080#00
(1655551528.746582) can0 181#A10000000000
(1655551528.746784) can0 281#001A7A030000
(1655551528.746988) can0 381#79020D000700
(1655551528.751938) can0 001#000004320000
(1655551528.752174) can0 6D0#170000043202BCE3
(1655551528.754058) can0 201#06000000400D0300
(1655551528.754233) can0 080#00
(1655551528.754492) can0 181#A10000000000
(1655551528.754696) can0 281#001A7A030000
(1655551528.754904) can0 381#79020C000700
(1655551528.760004) can0 001#000004320000
(1655551528.760249) can0 6D0#1800000432000329
(1655551528.761868) can0 201#06000000400D0300
(1655551528.762038) can0 080#00
(1655551528.762301) can0 181#A10000000000
(1655551528.762504) can0 281#001A7A030000
(1655551528.762709) can0 381#79020C000700
(1655551528.767939) can0 001#000004320000
(1655551528.768176) can0 6D0#190000043200062D
(1655551528.769676) can0 201#06000000400D0300
(1655551528.769849) can0 080#00
(1655551528.770105) can0 181#A10000000000
(1655551528.770310) can0 281#001A7A030000
(1655551528.770515) can0 381#79020C000700
(1655551528.775936) can0 001#000004320000
(1655551528.777490) can0 201#06000000400D0300
(1655551528.777662) can0 080#00
(1655551528.777922) can0 181#A10000000000
(1655551528.778125) can0 281#001A7A030000
(1655551528.778330) can0 381#79020C000700
(1655551528.779941) can0 601#406C600000000000
(1655551528.780338) can0 581#436C600000000000
(1655551528.784006) can0 001#000004320000
(1655551528.785279) can0 201#06000000400D0300
(1655551528.785452) can0 080#00
(1655551528.785679) can0 181#A10000000000
(1655551528.785881) can0 281#001A7A030000
(1655551528.786099) can0 381#79020C000700
(1655551528.791939) can0 001#000004320000
(1655551528.792171) can0 6D0#1A000004320089B1
(1655551528.793108) can0 201#06000000400D0300
(1655551528.793286) can0 080#00
(1655551528.793546) can0 181#A10000000000
(1655551528.793749) can0 281#001A7A030000
(1655551528.793952) can0 381#79020D000700
(1655551528.800005) can0 001#000004320000
(1655551528.800861) can0 201#06000000400D0300
(1655551528.801030) can0 080#00
(1655551528.801296) can0 181#A10000000000
(1655551528.801499) can0 281#001A7A030000
(1655551528.801705) can0 381#79020C000700
(1655551528.807935) can0 001#000004320000
(1655551528.808171) can0 6D0#1B00000432019BC5
(1655551528.808726) can0 201#06000000400D0300
(1655551528.808898) can0 080#00
(1655551528.809127) can0 181#A10000000000
(1655551528.809330) can0 281#001A7A030000
(1655551528.809539) can0 381#79020C000700
(1655551528.816007) can0 001#000004320000
(1655551528.816246) can0 6D0#1C00000432032A57
(1655551528.816492) can0 201#06000000400D0300
(1655551528.816606) can0 080#00
(1655551528.816819) can0 181#A10000000000
(1655551528.817024) can0 281#001A7A030000
(1655551528.817225) can0 381#79020D000700
(1655551528.817768) can0 080#051800A1
(1655551528.818064) can0 1838F380#00001A00181A0006
(1655551528.818338) can0 18EEFF80#F30080F300401E90
(1655551528.818622) can0 1839F380#00181A1804000695
(1655551528.823934) can0 001#000004320000
(1655551528.824175) can0 6D0#1D000004320078A3
(1655551528.824419) can0 201#06000000400D0300
(1655551528.824583) can0 080#00
(1655551528.824813) can0 181#A10000000000
(1655551528.825016) can0 281#001A7A030000
(1655551528.825219) can0 381#79020D000700
(1655551528.827820) can0 601#406C600000000000
(1655551528.828190) can0 581#436C600000000000
(1655551528.832033) can0 201#06000000400D0300
(1655551528.832241) can0 001#000004320000
(1655551528.832356) can0 080#00
(1655551528.832576) can0 181#A10000000000
(1655551528.832772) can0 281#001A7A030000
(1655551528.832975) can0 381#79020D000700
(1655551528.833217) can0 6D0#1E0000043200002C
(1655551528.839852) can0 201#06000000400D0300
(1655551528.840059) can0 001#000004320000
(1655551528.840174) can0 080#00
(1655551528.840387) can0 181#A10000000000
(1655551528.840590) can0 281#001A7A030000
(1655551528.840794) can0 381#79020C000700
(1655551528.841038) can0 6D0#1F00000432001441
(1655551528.847662) can0 201#06000000400D0300
(1655551528.847835) can0 080#00
(1655551528.848047) can0 001#000004320000
(1655551528.848253) can0 181#A10000000000
(1655551528.848459) can0 281#001A7A030000
(1655551528.848660) can0 381#79020D000700
(1655551528.855456) can0 201#06000000400D0300
(1655551528.855627) can0 080#00
(1655551528.855856) can0 181#A10000000000
(1655551528.856073) can0 001#000004320000
(1655551528.856269) can0 281#001A7A030000
(1655551528.856474) can0 381#79020C000700
(1655551528.863278) can0 201#06000000400D0300
(1655551528.863439) can0 080#00
(1655551528.863672) can0 181#A10000000000
(1655551528.863874) can0 281#001A7A030000
(1655551528.864083) can0 001#000004320000
(1655551528.864284) can0 381#79020D000700
(1655551528.864529) can0 6D0#2000000432000836
(1655551528.871099) can0 201#06000000400D0300
(1655551528.871274) can0 080#00
(1655551528.871530) can0 181#A10000000000
(1655551528.871736) can0 281#001A7A030000
(1655551528.871940) can0 381#79020D000700
(1655551528.872147) can0 001#000004320000
(1655551528.872390) can0 6D0#210000043200002F
(1655551528.873856) can0 601#406C600000000000
(1655551528.874250) can0 581#436C600000000000
(1655551528.878898) can0 201#06000000400D0300
(1655551528.879070) can0 080#00
(1655551528.879303) can0 181#A10000000000
(1655551528.879508) can0 281#001A7A030000
(1655551528.879709) can0 381#79020D000700
(1655551528.879937) can0 001#000004320000
(1655551528.880170) can0 6D0#2200000432000030
(1655551528.886717) can0 201#06000000400D0300
(1655551528.886888) can0 080#00
(1655551528.887116) can0 181#A10000000000
(1655551528.887321) can0 281#001A7A030000
(1655551528.887525) can0 381#79020C000700
(1655551528.888020) can0 001#000004320000
(1655551528.888250) can0 6D0#2300000432043267
(1655551528.894534) can0 201#06000000400D0300
(1655551528.894699) can0 080#00
(1655551528.894925) can0 181#A10000000000
(1655551528.895132) can0 281#001A7A030000
(1655551528.895336) can0 381#79020C000700
(1655551528.895931) can0 001#000004320000
(1655551528.896170) can0 6D0#2400000432002052
(1655551528.902343) can0 201#06000000400D0300
(1655551528.902511) can0 080#00
(1655551528.902746) can0 181#A10000000000
(1655551528.902946) can0 281#001A7A030000
(1655551528.903149) can0 381#79020D000700
(1655551528.904008) can0 001#000004320000
(1655551528.910156) can0 201#06000000400D0300
(1655551528.910336) can0 080#00
(1655551528.910590) can0 181#A10000000000
(1655551528.910793) can0 281#001A7A030000
(1655551528.910998) can0 381#79020C000700
(1655551528.911929) can0 001#000004320000
(1655551528.912173) can0 6D0#2500000432000538
(1655551528.917719) can0 080#061A00A4
(1655551528.917966) can0 201#06000000400D0300
(1655551528.918249) can0 1838F380#00031903181A0006
(1655551528.918366) can0 080#00
(1655551528.918650) can0 1839F380#00181A1804000695
(1655551528.918864) can0 181#A10000000000
(1655551528.919067) can0 281#001A7A030000
(1655551528.919268) can0 381#79020D000700
(1655551528.919931) can0 001#000004320000
(1655551528.920632) can0 601#406C600000000000
(1655551528.920998) can0 581#436C600000000000
(1655551528.925783) can0 201#06000000400D0300
(1655551528.925952) can0 080#00
(1655551528.926215) can0 181#A10000000000
(1655551528.926420) can0 281#001A7A030000
(1655551528.926620) can0 381#79020D000700
(1655551528.928004) can0 001#000004320000
(1655551528.933569) can0 201#06000000400D0300
(1655551528.933741) can0 080#00
(1655551528.933971) can0 181#A10000000000
(1655551528.934176) can0 281#001A7A030000
(1655551528.934379) can0 381#79020C000700
(1655551528.935928) can0 001#000004320000
(1655551528.936175) can0 6D0#2600000432A803DF
(1655551528.941381) can0 201#06000000400D0300
(1655551528.941554) can0 080#00
(1655551528.941782) can0 181#A10000000000
(1655551528.941986) can0 281#001A7A030000
(1655551528.942191) can0 381#79020D000700
(1655551528.944006) can0 001#000004320000
(1655551528.949194) can0 201#06000000400D0300
(1655551528.949370) can0 080#00
(1655551528.949599) can0 181#A10000000000
(1655551528.949804) can0 281#001A7A030000
(1655551528.950007) can0 381#79020C000700
(1655551528.951928) can0 001#000004320000
(1655551528.952168) can0 6D0#2700000432000035
(1655551528.956999) can0 201#06000000400D0300
(1655551528.957173) can0 080#00
(1655551528.957405) can0 181#A10000000000
(1655551528.957606) can0 281#001A7A030000
(1655551528.957809) can0 381#79020D000700
(1655551528.960003) can0 001#000004320000
(1655551528.960251) can0 6D0#2800000432001A50
(1655551528.964814) can0 201#06000000400D0300
(1655551528.964985) can0 080#00
(1655551528.965226) can0 181#A10000000000
(1655551528.965423) can0 281#001A7A030000
(1655551528.965628) can0 381#79020C000700
(1655551528.967105) can0 601#406C600000000000
(1655551528.967495) can0 581#436C600000000000
(1655551528.967926) can0 001#000004320000
(1655551528.968165) can0 6D0#290000043200184F
(1655551528.972624) can0 201#06000000400D0300
(1655551528.972796) can0 080#00
(1655551528.973026) can0 181#A10000000000
(1655551528.973230) can0 281#001A7A030000
(1655551528.973431) can0 381#79020D000700
(1655551528.976006) can0 001#000004320000
(1655551528.976251) can0 6D0#2A00000432001951
(1655551528.980442) can0 201#06000000400D0300
(1655551528.980606) can0 080#00
(1655551528.980836) can0 181#A10000000000
(1655551528.981041) can0 281#001A7A030000
(1655551528.981243) can0 381#79020D000700
(1655551528.983927) can0 001#000004320000
(1655551528.984173) can0 6D0#2B00000432000039
(1655551528.988250) can0 201#06000000400D0300
(1655551528.988416) can0 080#00
(1655551528.988648) can0 181#A10000000000
(1655551528.988851) can0 281#001A7A030000
(1655551528.989056) can0 381#79020C000700
(1655551528.991936) can0 001#000004320000
(1655551528.996062) can0 201#06000000400D0300
(1655551528.996237) can0 080#00
(1655551528.996468) can0 181#A10000000000
(1655551528.996671) can0 281#001A7A030000
(1655551528.996874) can0 381#79020D000700
(1655551528.999994) can0 001#000004320000
(1655551529.003871) can0 201#06000000400D0300
(1655551529.004040) can0 080#00
(1655551529.004277) can0 181#A10000000000
(1655551529.004477) can0 281#001A7A030000
(1655551529.004681) can0 381#79020D000700
(1655551529.007926) can0 001#000004320000
(1655551529.008165) can0 6D0#2C0000043200003A
(1655551529.011684) can0 201#06000000400D0300
(1655551529.011855) can0 080#00
(1655551529.012085) can0 181#A10000000000
(1655551529.012290) can0 281#001A7A030000
(1655551529.012493) can0 381#79020C000700
(1655551529.015996) can0 001#000004320000
(1655551529.016242) can0 6D0#2D00000432001B56
(1655551529.017765) can0 080#051800A1
(1655551529.018049) can0 1838F380#00061806181A0006
(1655551529.018333) can0 1839F380#00181A1804000695
(1655551529.018613) can0 18EEFF80#F30080F300401E90
(1655551529.019913) can0 201#06000000400D0300
(1655551529.020053) can0 080#00
(1655551529.020320) can0 181#A10000000000
(1655551529.020524) can0 281#001A7A030000
(1655551529.020732) can0 381#79020D000700
(1655551529.023925) can0 001#000004320000
(1655551529.024170) can0 6D0#2E000004320065A1
(1655551529.027303) can0 201#06000000400D0300
(1655551529.027475) can0 080#00
(1655551529.027703) can0 181#A10000000000
(1655551529.027907) can0 281#001A7A030000
(1655551529.028112) can0 381#7A020C000700
(1655551529.030149) can0 601#406C600000000000
(1655551529.030532) can0 581#436C600000000000
(1655551529.032003) can0 001#000004320000
(1655551529.032241) can0 6D0#2F00000432006BA8
(1655551529.035114) can0 201#06000000400D0300
(1655551529.035294) can0 080#00
(1655551529.035522) can0 181#A10000000000
(1655551529.035725) can0 281#001A7A030000
(1655551529.035931) can0 381#79020C000700
(1655551529.039926) can0 001#000004320000
(1655551529.040168) can0 6D0#300000043200013F
(1655551529.042921) can0 201#06000000400D0300
(1655551529.043061) can0 080#00
(1655551529.043327) can0 181#A10000000000
(1655551529.043530) can0 281#001A7A030000
(1655551529.043733) can0 381#79020D000700
(1655551529.048004) can0 001#000004320000
(1655551529.048246) can0 6D0#310000043200003F
(1655551529.050738) can0 201#06000000400D0300
(1655551529.050907) can0 080#00
(1655551529.051139) can0 181#A10000000000
(1655551529.051341) can0 281#001A7A030000
(1655551529.051545) can0 381#79020D000700
(1655551529.055923) can0 001#000004320000
(1655551529.056157) can0 6D0#3200000432956439
(1655551529.058546) can0 201#06000000400D0300
(1655551529.058718) can0 080#00
(1655551529.058954) can0 181#A10000000000
(1655551529.059150) can0 281#001A7A030000
(1655551529.059354) can0 381#79020C000700
(1655551529.063922) can0 001#000004320000
(1655551529.066358) can0 201#06000000400D0300
(1655551529.066531) can0 080#00
(1655551529.066758) can0 181#A10000000000
(1655551529.066963) can0 281#001A7A030000
(1655551529.067166) can0 381#79020C000700
(1655551529.071997) can0 001#000004320000
(1655551529.074243) can0 201#06000000400D0300
(1655551529.074414) can0 080#00
(1655551529.074646) can0 181#A10000000000
(1655551529.074848) can0 281#001A7A030000
(1655551529.075054) can0 381#79020C000700
(1655551529.076577) can0 601#406C600000000000
(1655551529.076978) can0 581#436C600000000000
(1655551529.079933) can0 001#000004320000
(1655551529.080160) can0 6D0#33000004329627FE
(1655551529.082126) can0 201#06000000400D0300
(1655551529.082299) can0 080#00
(1655551529.082558) can0 181#A10000000000
(1655551529.082762) can0 281#001A7A030000
(1655551529.082967) can0 381#79020C000700
(1655551529.087995) can0 001#000004320000
(1655551529.088227) can0 6D0#340000043295D7AE
(1655551529.089934) can0 201#06000000400D0300
(1655551529.090127) can0 080#00
(1655551529.090367) can0 181#A10000000000
(1655551529.090572) can0 281#001A7A030000
(1655551529.090775) can0 381#79020D000700
(1655551529.095920) can0 001#000004320000
(1655551529.096158) can0 6D0#350000043295633B
(1655551529.097745) can0 201#06000000400D0300
(1655551529.097914) can0 080#00
(1655551529.098174) can0 181#A10000000000
(1655551529.098377) can0 281#001A7A030000
(1655551529.098580) can0 381#79020D000700
(1655551529.103922) can0 001#000004320000
(1655551529.105496) can0 201#06000000400D0300
(1655551529.105659) can0 080#00
(1655551529.105887) can0 181#A10000000000
(1655551529.106091) can0 281#001A7A030000
(1655551529.106295) can0 381#79020D000700
(1655551529.111919) can0 001#000004320000
(1655551529.112165) can0 6D0#3600000432962600
(1655551529.113366) can0 201#06000000400D0300
(1655551529.113537) can0 080#00
(1655551529.113799) can0 181#A10000000000
(1655551529.113997) can0 281#001A7A030000
(1655551529.114200) can0 381#79020D000700
(1655551529.117712) can0 080#061A00A4
(1655551529.117995) can0 1838F380#000B180B181A0006
(1655551529.118278) can0 1839F380#00181A1804000695
(1655551529.119990) can0 001#000004320000
(1655551529.121107) can0 201#06000000400D0300
(1655551529.121286) can0 080#00
(1655551529.121548) can0 181#A10000000000
(1655551529.121747) can0 281#001A7A030000
(1655551529.121951) can0 381#79020D000700
(1655551529.124005) can0 601#406C600000000000
(1655551529.124385) can0 581#436C600000000000
(1655551529.127921) can0 001#000004320000
(1655551529.128155) can0 6D0#370000043295D7B1
(1655551529.129034) can0 201#06000000400D0300
(1655551529.129213) can0 080#00
(1655551529.129450) can0 181#A10000000000
(1655551529.129644) can0 281#001A7A030000
(1655551529.129849) can0 381#79020C000700
(1655551529.135923) can0 001#000004320000
(1655551529.136732) can0 201#06000000400D0300
(1655551529.136904) can0 080#00
(1655551529.137140) can0 181#A10000000000
(1655551529.137336) can0 281#001A7A030000
(1655551529.137542) can0 381#79020C000700
(1655551529.143992) can0 001#000004320000
(1655551529.144536) can0 201#06000000400D0300
(1655551529.144707) can0 080#00
(1655551529.144935) can0 181#A10000000000
(1655551529.145141) can0 281#001A7A030000
(1655551529.145341) can0 381#79020D000700
(1655551529.151919) can0 001#000004320000
(1655551529.152160) can0 6D0#380000043200BE04
(1655551529.152406) can0 201#06000000400D0300
(1655551529.152598) can0 080#00
(1655551529.152854) can0 181#A10000000000
(1655551529.153060) can0 281#001A7A030000
(1655551529.153265) can0 381#79020C000700
(1655551529.159994) can0 001#000004320000
(1655551529.160238) can0 201#06000000400D0300
(1655551529.160354) can0 080#00
(1655551529.160593) can0 6D0#390000043200BE05
(1655551529.160806) can0 181#A10000000000
(1655551529.161011) can0 281#001A7A030000
(1655551529.161215) can0 381#79020C000700
(1655551529.167902) can0 201#06000000400D0300
(1655551529.168106) can0 001#000004320000
(1655551529.168223) can0 080#00
(1655551529.168436) can0 181#A10000000000
(1655551529.168640) can0 281#001A7A030000
(1655551529.168841) can0 381#79020D000700
(1655551529.169080) can0 6D0#3A0000043200BE06
(1655551529.170915) can0 601#406C600000000000
(1655551529.171314) can0 581#436C600000000000
(1655551529.175718) can0 201#06000000400D0300
(1655551529.175892) can0 080#00
(1655551529.176098) can0 001#000004320000
(1655551529.176310) can0 181#A10000000000
(1655551529.176514) can0 281#001A7A030000
(1655551529.176716) can0 381#79020D000700
(1655551529.176954) can0 6D0#3B00000432A410FD
(1655551529.183540) can0 201#06000000400D0300
(1655551529.183710) can0 080#00
(1655551529.183921) can0 001#000004320000
(1655551529.184131) can0 181#A10000000000
(1655551529.184333) can0 281#001A7A030000
(1655551529.184536) can0 381#79020D000700
(1655551529.184772) can0 6D0#3C0000043261A853
(1655551529.191337) can0 201#06000000400D0300
(1655551529.191506) can0 080#00
(1655551529.191737) can0 181#A10000000000
(1655551529.191941) can0 281#001A7A030000
(1655551529.192151) can0 001#000004320000
(1655551529.192352) can0 381#79020D000700
(1655551529.192596) can0 6D0#3D00000432002A75
(1655551529.199162) can0 201#06000000400D0300
(1655551529.199341) can0 080#00
(1655551529.199594) can0 181#A10000000000
(1655551529.199800) can0 281#001A7A030000
(1655551529.200006) can0 001#000004320000
(1655551529.200209) can0 381#79020D000700
(1655551529.200448) can0 6D0#3E00000432000450
(1655551529.206974) can0 201#06000000400D0300
(1655551529.207146) can0 080#00
(1655551529.207407) can0 181#A10000000000
(1655551529.207609) can0 281#001A7A030000
(1655551529.207814) can0 381#79020C000700
(1655551529.208021) can0 001#000004320000
(1655551529.208263) can0 6D0#3F00000432002A77
(1655551529.214788) can0 201#06000000400D0300
(1655551529.214960) can0 080#00
(1655551529.215222) can0 181#A10000000000
(1655551529.215426) can0 281#001A7A030000
(1655551529.215631) can0 381#79020C000700
(1655551529.215925) can0 001#000004320000
(1655551529.217770) can0 080#051800A1
(1655551529.218051) can0 1838F380#00001A00181A0006
(1655551529.218332) can0 18EEFF80#F30080F300401E90
(1655551529.218616) can0 1839F380#00181A1804000695
(1655551529.218860) can0 601#406C600000000000
(1655551529.219231) can0 581#436C600000000000
(1655551529.222591) can0 201#06000000400D0300
(1655551529.222756) can0 080#00
(1655551529.222987) can0 181#A10000000000
(1655551529.223191) can0 281#001A7A030000
(1655551529.223394) can0 381#79020D000700
(1655551529.223986) can0 001#000004320000
(1655551529.224223) can0 6D0#4000000432000452
(1655551529.230404) can0 201#06000000400D0300
(1655551529.230579) can0 080#00
(1655551529.230804) can0 181#A10000000000
(1655551529.231011) can0 281#001A7A030000
(1655551529.231211) can0 381#79020C000700
(1655551529.231915) can0 001#000004320000
(1655551529.232157) can0 6D0#4100000432000150
(1655551529.238224) can0 201#06000000400D0300
(1655551529.238394) can0 080#00
(1655551529.238653) can0 181#A10000000000
(1655551529.238856) can0 281#001A7A030000
(1655551529.239060) can0 381#79020D000700
(1655551529.239986) can0 001#000004320000
(1655551529.246029) can0 201#06000000400D0300
(1655551529.246204) can0 080#00
(1655551529.246461) can0 181#A10000000000
(1655551529.246665) can0 281#001A7A030000
(1655551529.246868) can0 381#79020D000700
(1655551529.247915) can0 001#000004320000
(1655551529.248154) can0 6D0#4200000432000151
(1655551529.253839) can0 201#06000000400D0300
(1655551529.254009) can0 080#00
(1655551529.254272) can0 181#A10000000000
(1655551529.254478) can0 281#001A7A030000
(1655551529.254681) can0 381#79020D000700
(1655551529.255993) can0 001#000004320000
(1655551529.256231) can0 6D0#4300000432014193
(1655551529.261655) can0 201#06000000400D0300
(1655551529.261820) can0 080#00
(1655551529.262055) can0 181#A10000000000
(1655551529.262253) can0 281#001A7A030000
(1655551529.262458) can0 381#79020C000700
(1655551529.263913) can0 001#000004320000
(1655551529.264156) can0 6D0#4400000432023387
(1655551529.269445) can0 201#06000000400D0300
(1655551529.269615) can0 080#00
(1655551529.269847) can0 181#A10000000000
(1655551529.270050) can0 281#001A7A030000
(1655551529.270252) can0 381#79020D000700
(1655551529.271993) can0 001#000004320000
(1655551529.272229) can0 6D0#45000004320072C5
(1655551529.277256) can0 201#06000000400D0300
(1655551529.277430) can0 080#00
(1655551529.277656) can0 181#A10000000000
(1655551529.277862) can0 281#001A7A030000
(1655551529.278063) can0 381#79020D000700
(1655551529.279914) can0 001#000004320000
(1655551529.280153) can0 6D0#46000004320078CC
(1655551529.280757) can0 601#406C600000000000
(1655551529.281121) can0 581#436C600000000000
(1655551529.285077) can0 201#06000000400D0300
(1655551529.285253) can0 080#00
(1655551529.285483) can0 181#A10000000000
(1655551529.285719) can0 200#05009B009B000000
(1655551529.285931) can0 281#001A7A030000
(1655551529.286136) can0 381#79020C000700
(1655551529.287924) can0 001#000004320000
(1655551529.292878) can0 201#06000000400D0300
(1655551529.293050) can0 080#00
(1655551529.293287) can0 181#A10000000000
(1655551529.293487) can0 281#001A7A030000
(1655551529.293691) can0 381#79020C000700
(1655551529.295986) can0 001#000004320000
(1655551529.300692) can0 201#06000000400D0300
(1655551529.300862) can0 080#00
(1655551529.301093) can0 181#A10000000000
(1655551529.301296) can0 281#001A7A030000
(1655551529.301501) can0 381#79020C000700
(1655551529.303912) can0 001#000004320000
(1655551529.304158) can0 6D0#470000043208005D
(1655551529.308502) can0 201#06000000400D0300
(1655551529.308673) can0 080#00
(1655551529.308902) can0 181#A10000000000
(1655551529.309107) can0 281#001A7A030000
(1655551529.309308) can0 381#79020D000700
(1655551529.311981) can0 001#000004320000
(1655551529.312220) can0 6D0#480000043208005E
(1655551529.316311) can0 201#06000000400D0300
(1655551529.316483) can0 080#00
(1655551529.316718) can0 181#A10000000000
(1655551529.316917) can0 281#001A7A030000
(1655551529.317121) can0 381#79020D000700
(1655551529.317712) can0 080#061A00A4
(1655551529.317998) can0 1838F380#00031903181A0006
(1655551529.318280) can0 1839F380#00181A1804000695
(1655551529.319909) can0 001#000004320000
(1655551529.320149) can0 6D0#4900000432000057
(1655551529.324125) can0 201#06000000400D0300
(1655551529.324300) can0 080#00
(1655551529.324532) can0 181#A10000000000
(1655551529.324734) can0 281#001A7A030000
(1655551529.324940) can0 381#79020C000700
(1655551529.327985) can0 001#000004320000
(1655551529.328230) can0 601#406C600000000000
(1655551529.328469) can0 6D0#4A0000043207FE5D
(1655551529.328715) can0 581#436C600000000000
(1655551529.331942) can0 201#06000000400D0300
(1655551529.332120) can0 080#00
(1655551529.332348) can0 181#A10000000000
(1655551529.332551) can0 281#001A7A030000
(1655551529.332756) can0 381#79020D000700
(1655551529.335910) can0 001#000004320000
(1655551529.336154) can0 6D0#4B00000432080263
(1655551529.339746) can0 201#06000000400D0300
(1655551529.339916) can0 080#00
(1655551529.340145) can0 181#A10000000000
(1655551529.340351) can0 281#001A7A030000
(1655551529.340552) can0 381#79020D000700
(1655551529.343986) can0 001#000004320000
(1655551529.344223) can0 6D0#4C000004320898FA
(1655551529.347558) can0 201#06000000400D0300
(1655551529.347727) can0 080#00
(1655551529.347958) can0 181#A10000000000
(1655551529.348161) can0 281#001A7A030000
(1655551529.348366) can0 381#79020E000700
(1655551529.351910) can0 001#000004320000
(1655551529.352148) can0 6D0#4D00000432076CCE
(1655551529.355362) can0 201#06000000400D0300
(1655551529.355536) can0 080#00
(1655551529.355771) can0 181#A10000000000
(1655551529.355970) can0 281#001A7A030000
(1655551529.356175) can0 381#79020E000700
(1655551529.359919) can0 001#000004320000
(1655551529.363183) can0 201#06000000400D0300
(1655551529.363358) can0 080#00
(1655551529.363587) can0 181#A10000000000
(1655551529.363792) can0 281#001A7A030000
(1655551529.363994) can0 381#79020C000700
(1655551529.367986) can0 001#000004320000
(1655551529.371000) can0 201#06000000400D0300
(1655551529.371167) can0 080#00
(1655551529.371398) can0 181#A10000000000
(1655551529.371601) can0 281#001A7A030000
(1655551529.371806) can0 381#79020C000700
(1655551529.374151) can0 601#406C600000000000
(1655551529.374522) can0 581#436C600000000000
(1655551529.375908) can0 001#000004320000
(1655551529.376147) can0 6D0#4E0000043200015D
(1655551529.378800) can0 201#06000000400D0300
(1655551529.378973) can0 080#00
(1655551529.379206) can0 181#A10000000000
(1655551529.379411) can0 281#001A7A030000
(1655551529.379612) can0 381#79020D000700
(1655551529.383977) can0 001#000004320000
(1655551529.386609) can0 201#06000000400D0300
(1655551529.386781) can0 080#00
(1655551529.387017) can0 181#A10000000000
(1655551529.387216) can0 281#001A7A030000
(1655551529.387418) can0 381#79020C000700
(1655551529.391908) can0 001#000004320000
(1655551529.392141) can0 6D0#4F0000043290E0CD
(1655551529.394438) can0 201#06000000400D0300
(1655551529.394610) can0 080#00
(1655551529.394839) can0 181#A10000000000
(1655551529.395044) can0 281#001A7A030000
(1655551529.395245) can0 381#79020D000700
(1655551529.399977) can0 001#000004320000
(1655551529.402259) can0 201#06000000400D0300
(1655551529.402431) can0 080#00
(1655551529.402687) can0 181#A10000000000
(1655551529.402893) can0 281#001A7A030000
(1655551529.403095) can0 381#79020D000700
(1655551529.407910) can0 001#000004320000
(1655551529.408140) can0 6D0#50000004324F31DE
(1655551529.410187) can0 201#06000000400D0300
(1655551529.410365) can0 080#00
(1655551529.410628) can0 181#A10000000000
(1655551529.410827) can0 281#001A7A030000
(1655551529.411030) can0 381#79020D000700
(1655551529.415988) can0 001#000004320000
(1655551529.416222) can0 6D0#51000004322131B1
(1655551529.417757) can0 080#051800A1
(1655551529.418004) can0 201#06000000400D0300
(1655551529.418284) can0 18EEFF80#F30080F300401E90
(1655551529.418400) can0 080#00
(1655551529.418687) can0 1838F380#00061806181A0006
(1655551529.418895) can0 181#A10000000000
(1655551529.419100) can0 281#001A7A030000
(1655551529.419304) can0 381#79020C000700
(1655551529.419587) can0 1839F380#00181A1804000695
(1655551529.420383) can0 601#406C600000000000
(1655551529.420775) can0 581#436C600000000000
(1655551529.423907) can0 001#000004320000
(1655551529.424150) can0 6D0#5200000432000060
(1655551529.425812) can0 201#06000000400D0300
(1655551529.425985) can0 080#00
(1655551529.426247) can0 181#A10000000000
(1655551529.426450) can0 281#001A7A030000
(1655551529.426654) can0 381#79020D000700
(1655551529.431911) can0 001#000004320000
(1655551529.433554) can0 201#06000000400D0300
(1655551529.433724) can0 080#00
(1655551529.433961) can0 181#A10000000000
(1655551529.434159) can0 281#001A7A030000
(1655551529.434364) can0 381#79020C000700
(1655551529.439973) can0 001#000004320000
(1655551529.441368) can0 201#06000000400D0300
(1655551529.441542) can0 080#00
(1655551529.441768) can0 181#A10000000000
(1655551529.441973) can0 281#001A7A030000
(1655551529.442175) can0 381#79020C000700
(1655551529.447906) can0 001#000004320000
(1655551529.448156) can0 6D0#5300000432000061
(1655551529.449253) can0 201#06000000400D0300
(1655551529.449418) can0 080#00
(1655551529.449677) can0 181#A10000000000
(1655551529.449880) can0 281#001A7A030000
(1655551529.450085) can0 381#79020C000700
(1655551529.455978) can0 001#000004320000
(1655551529.456987) can0 201#06000000400D0300
(1655551529.457163) can0 080#00
(1655551529.457423) can0 181#A10000000000
(1655551529.457625) can0 281#001A7A030000
(1655551529.457831) can0 381#79020C000700
(1655551529.463903) can0 001#000004320000
(1655551529.464145) can0 6D0#540000043202369A
(1655551529.464908) can0 201#06000000400D0300
(1655551529.465084) can0 080#00
(1655551529.465312) can0 181#A10000000000
(1655551529.465515) can0 281#001A7A030000
(1655551529.465719) can0 381#79020D000700
(1655551529.471979) can0 001#000004320000
(1655551529.472221) can0 6D0#5500000432000063
(1655551529.472665) can0 201#06000000400D0300
(1655551529.472838) can0 080#00
(1655551529.473069) can0 181#A10000000000
(1655551529.473273) can0 281#001A7A030000
(1655551529.473477) can0 381#79020C000700
(1655551529.479906) can0 001#000004320000
(1655551529.480144) can0 6D0#5600000432000064
(1655551529.480489) can0 201#06000000400D0300
(1655551529.480664) can0 080#00
(1655551529.480918) can0 181#A10000000000
(1655551529.481121) can0 281#001A7A030000
(1655551529.481326) can0 381#79020D000700
(1655551529.481809) can0 601#406C600000000000
(1655551529.482178) can0 581#436C600000000000
(1655551529.487978) can0 001#000004320000
(1655551529.488223) can0 201#06000000400D0300
(1655551529.488337) can0 080#00
(1655551529.488576) can0 6D0#5700000432000065
(1655551529.488789) can0 181#A10000000000
(1655551529.489001) can0 281#001A7A030000
(1655551529.489195) can0 381#79020D000700
(1655551529.495903) can0 001#000004320000
(1655551529.496157) can0 201#06000000400D0300
(1655551529.496388) can0 6D0#5800000432FFD83D
(1655551529.496508) can0 080#00
(1655551529.496718) can0 181#A10000000000
(1655551529.496921) can0 281#001A7A030000
(1655551529.497124) can0 381#79020D000700
(1655551529.503778) can0 201#06000000400D0300
(1655551529.503986) can0 001#000004320000
(1655551529.504101) can0 080#00
(1655551529.504313) can0 181#A10000000000
(1655551529.504519) can0 281#001A7A030000
(1655551529.504722) can0 381#79020C000700
(1655551529.511598) can0 201#06000000400D0300
(1655551529.511760) can0 080#00
(1655551529.511971) can0 001#000004320000
(1655551529.512190) can0 181#A10000000000
(1655551529.512386) can0 281#001A7A030000
(1655551529.512590) can0 381#79020D000700
(1655551529.517699) can0 080#061A00A4
(1655551529.517981) can0 1838F380#000B180B181A0006
(1655551529.518267) can0 1839F380#00181A1804000695
(1655551529.519726) can0 201#06000000400D0300
(1655551529.519934) can0 001#000004320000
(1655551529.520050) can0 080#00
(1655551529.520264) can0 181#A10000000000
(1655551529.520474) can0 281#001A7A030000
(1655551529.520668) can0 381#79020D000700
(1655551529.520907) can0 6D0#5900000432000067
(1655551529.527227) can0 201#06000000400D0300
(1655551529.527396) can0 080#00
(1655551529.527626) can0 181#A10000000000
(1655551529.527830) can0 281#001A7A030000
(1655551529.528038) can0 001#000004320000
(1655551529.528242) can0 381#79020C000700
(1655551529.528481) can0 6D0#5A00000432000068
(1655551529.529574) can0 601#406C600000000000
(1655551529.529947) can0 581#436C600000000000
(1655551529.535046) can0 201#06000000400D0300
(1655551529.535252) can0 080#00
(1655551529.535488) can0 181#A10000000000
(1655551529.535685) can0 281#001A7A030000
(1655551529.535889) can0 381#79020C000700
(1655551529.536097) can0 001#000004320000
(1655551529.536333) can0 6D0#5B00000432000069
(1655551529.542847) can0 201#06000000400D0300
(1655551529.543017) can0 080#00
(1655551529.543284) can0 181#A10000000000
(1655551529.543487) can0 281#001A7A030000
(1655551529.543691) can0 381#79020C000700
(1655551529.543976) can0 001#000004320000
(1655551529.544217) can0 6D0#5C0000043200006A
(1655551529.550659) can0 201#06000000400D0300
(1655551529.550833) can0 080#00
(1655551529.551058) can0 181#A10000000000
(1655551529.551262) can0 281#001A7A030000
(1655551529.551465) can0 381#79020D000700
(1655551529.551899) can0 001#000004320000
(1655551529.552137) can0 6D0#5D0000043200006B
(1655551529.558468) can0 201#06000000400D0300
(1655551529.558641) can0 080#00
(1655551529.558867) can0 181#A10000000000
(1655551529.559076) can0 281#001A7A030000
(1655551529.559277) can0 381#79020C000700
(1655551529.559974) can0 001#000004320000
(1655551529.560212) can0 6D0#5E0000043200006C
(1655551529.566282) can0 201#06000000400D0300
(1655551529.566452) can0 080#00
(1655551529.566681) can0 181#A10000000000
(1655551529.566886) can0 281#001A7A030000
(1655551529.567088) can0 381#79020D000700
(1655551529.567898) can0 001#000004320000
(1655551529.568137) can0 6D0#5F0000043200006D
(1655551529.574092) can0 201#06000000400D0300
(1655551529.574270) can0 080#00
(1655551529.574526) can0 181#A10000000000
(1655551529.574744) can0 281#001A7A030000
(1655551529.574938) can0 381#79020C000700
(1655551529.575186) can0 601#406C600000000000
(1655551529.575554) can0 581#436C600000000000
(1655551529.575907) can0 001#000004320000
(1655551529.581904) can0 201#06000000400D0300
(1655551529.582083) can0 080#00
(1655551529.582341) can0 181#A10000000000
(1655551529.582543) can0 281#001A7A030000
(1655551529.582746) can0 381#79020C000700
(1655551529.583969) can0 001#000004320000
(1655551529.589718) can0 201#06000000400D0300
(1655551529.589887) can0 080#00
(1655551529.590118) can0 181#A10000000000
(1655551529.590324) can0 281#001A7A030000
(1655551529.590524) can0 381#79020D000700
(1655551529.591905) can0 001#000004320000
(1655551529.592140) can0 6D0#600000043200006E
(1655551529.597513) can0 201#06000000400D0300
(1655551529.597682) can0 080#00
(1655551529.597921) can0 181#A10000000000
(1655551529.598117) can0 281#001A7A030000
(1655551529.598321) can0 381#79020C000700
(1655551529.599968) can0 001#000004320000
(1655551529.605320) can0 201#06000000400D0300
(1655551529.605491) can0 080#00
(1655551529.605722) can0 181#A10000000000
(1655551529.605926) can0 281#001A7A030000
(1655551529.606129) can0 381#79020C000700
(1655551529.607898) can0 001#000004320000
(1655551529.608139) can0 6D0#610000043200006F
(1655551529.613143) can0 201#06000000400D0300
(1655551529.613317) can0 080#00
(1655551529.613556) can0 181#A10000000000
(1655551529.613752) can0 281#001A7A030000
(1655551529.613953) can0 381#79020D000700
(1655551529.615970) can0 001#000004320000
(1655551529.616209) can0 6D0#6200000432000070
(1655551529.617694) can0 080#051800A1
(1655551529.617980) can0 1838F380#00001A00181A0006
(1655551529.618268) can0 1839F380#00181A1804000695
(1655551529.618545) can0 18EEFF80#F30080F300401E90
(1655551529.620946) can0 201#06000000400D0300
(1655551529.621122) can0 080#00
(1655551529.621361) can0 181#A10000000000
(1655551529.621557) can0 281#001A7A030000
(1655551529.621759) can0 381#79020D000700
(1655551529.623089) can0 601#406C600000000000
(1655551529.623458) can0 581#436C600000000000
(1655551529.623899) can0 001#000004320000
(1655551529.624136) can0 6D0#6300000432000071
(1655551529.628759) can0 201#06000000400D0300
(1655551529.628928) can0 080#00
(1655551529.629161) can0 181#A10000000000
(1655551529.629368) can0 281#001A7A030000
(1655551529.629571) can0 381#79020D000700
(1655551529.631977) can0 001#000004320000
(1655551529.632209) can0 6D0#6400000432000072
(1655551529.636566) can0 201#06000000400D0300
(1655551529.636736) can0 080#00
(1655551529.636965) can0 181#A10000000000
(1655551529.637170) can0 281#001A7A030000
(1655551529.637371) can0 381#79020D000700
(1655551529.639898) can0 001#000004320000
(1655551529.640148) can0 6D0#6500000432000073
(1655551529.644378) can0 201#06000000400D0300
(1655551529.644550) can0 080#00
(1655551529.644779) can0 181#A10000000000
(1655551529.644983) can0 281#001A7A030000
(1655551529.645187) can0 381#79020D000700
(1655551529.647971) can0 001#000004320000
(1655551529.648209) can0 6D0#6600000432000074
(1655551529.652185) can0 201#06000000400D0300
(1655551529.652361) can0 080#00
(1655551529.652592) can0 181#A10000000000
(1655551529.652796) can0 281#001A7A030000
(1655551529.652999) can0 381#79020C000700
(1655551529.655896) can0 001#000004320000
(1655551529.656134) can0 6D0#6700000432FFFF73
(1655551529.659996) can0 201#06000000400D0300
(1655551529.660173) can0 080#00
(1655551529.660404) can0 181#A10000000000
(1655551529.660609) can0 281#001A7A030000
(1655551529.660812) can0 381#79020D000700
(1655551529.663967) can0 001#000004320000
(1655551529.664208) can0 6D0#6E000004320040BC
(1655551529.667809) can0 201#06000000400D0300
(1655551529.667980) can0 080#00
