(1655542637.705477) can0 281#001B38040000
(1655542637.705663) can0 381#79020C000700
(1655542637.710236) can0 001#000004600000
(1655542637.710475) can0 6D0#4F0000046090E1FC
(1655542637.712595) can0 201#06000000400D0300
(1655542637.712763) can0 080#00
(1655542637.712991) can0 181#A10000000000
(1655542637.713196) can0 281#001B38040000
(1655542637.713400) can0 381#79020A000700
(1655542637.718240) can0 001#000004600000
(1655542637.718476) can0 6D0#50000004604F310C
(1655542637.720421) can0 201#06000000400D0300
(1655542637.720648) can0 601#406C600000000000
(1655542637.720773) can0 080#00
(1655542637.720998) can0 181#A10000000000
(1655542637.721204) can0 281#001B38040000
(1655542637.721409) can0 381#79020C000700
(1655542637.721650) can0 581#436C600000000000
(1655542637.726312) can0 001#000004600000
(1655542637.726545) can0 6D0#51000004602131DF
(1655542637.728227) can0 201#06000000400D0300
(1655542637.728397) can0 080#00
(1655542637.728625) can0 181#A10000000000
(1655542637.728834) can0 281#001B38040000
(1655542637.729038) can0 381#79020C000700
(1655542637.733140) can0 601#4070200100000000
(1655542637.733514) can0 581#4B70200179020000
(1655542637.734233) can0 001#000004600000
(1655542637.734475) can0 6D0#520000046000008E
(1655542637.736037) can0 201#06000000400D0300
(1655542637.736215) can0 080#00
(1655542637.736446) can0 181#A10000000000
(1655542637.736661) can0 281#001B38040000
(1655542637.736878) can0 381#79020D000700
(1655542637.740303) can0 080#061A00A4
(1655542637.740591) can0 1838F380#00031903181A0006
(1655542637.740819) can0 601#406C600000000000
(1655542637.741120) can0 1839F380#00181A1804000695
(1655542637.741363) can0 581#436C600000000000
(1655542637.742313) can0 001#000004600000
(1655542637.742560) can0 6D0#530000046000008F
(1655542637.743868) can0 201#06000000400D0300
(1655542637.744016) can0 080#00
(1655542637.744267) can0 181#A10000000000
(1655542637.744466) can0 281#001B38040000
(1655542637.744667) can0 381#79020C000700
(1655542637.750233) can0 001#000004600000
(1655542637.750471) can0 6D0#54000004600236C8
(1655542637.751652) can0 201#06000000400D0300
(1655542637.751824) can0 080#00
(1655542637.752055) can0 181#A10000000000
(1655542637.752261) can0 281#001B38040000
(1655542637.752465) can0 381#79020A000700
(1655542637.758244) can0 001#000004600000
(1655542637.759400) can0 201#06000000400D0300
(1655542637.759571) can0 080#00
(1655542637.759804) can0 181#A10000000000
(1655542637.760010) can0 281#001B38040000
(1655542637.760210) can0 381#79020C000700
(1655542637.760513) can0 601#406C600000000000
(1655542637.760935) can0 581#436C600000000000
(1655542637.764447) can0 601#4027200000000000
(1655542637.764826) can0 581#4B27200000000000
(1655542637.766300) can0 001#000004600000
(1655542637.767225) can0 201#06000000400D0300
(1655542637.767395) can0 080#00
(1655542637.767625) can0 181#A10000000000
(1655542637.767831) can0 281#001B38040000
(1655542637.768036) can0 381#79020C000700
(1655542637.774231) can0 001#000004600000
(1655542637.774473) can0 6D0#5500000460000091
(1655542637.775089) can0 201#06000000400D0300
(1655542637.775269) can0 080#00
(1655542637.775496) can0 181#A10000000000
(1655542637.775702) can0 281#001B38040000
(1655542637.775909) can0 381#79020C000700
(1655542637.780049) can0 601#406C600000000000
(1655542637.780455) can0 581#436C600000000000
(1655542637.782303) can0 001#000004600000
(1655542637.782549) can0 6D0#5600000460000092
(1655542637.782905) can0 201#06000000400D0300
(1655542637.783095) can0 080#00
(1655542637.783312) can0 181#A10000000000
(1655542637.783525) can0 281#001B38040000
(1655542637.783726) can0 381#79020D000700
(1655542637.790232) can0 001#000004600000
(1655542637.790474) can0 6D0#5700000460000093
(1655542637.790718) can0 201#06000000400D0300
(1655542637.790876) can0 080#00
(1655542637.791104) can0 181#A10000000000
(1655542637.791311) can0 281#001B38040000
(1655542637.791515) can0 381#79020C000700
(1655542637.795029) can0 200#05009B009B000000
(1655542637.795475) can0 601#403F600000000000
(1655542637.795840) can0 581#4B3F600000000000
(1655542637.798312) can0 001#000004600000
(1655542637.798555) can0 201#06000000400D0300
(1655542637.798761) can0 080#00
(1655542637.798982) can0 181#A10000000000
(1655542637.799179) can0 281#001B38040000
(1655542637.799384) can0 381#79020C000700
(1655542637.799620) can0 601#406C600000000000
(1655542637.800000) can0 581#436C600000000000
(1655542637.806164) can0 201#06000000400D0300
(1655542637.806373) can0 001#000004600000
(1655542637.806487) can0 080#00
(1655542637.806705) can0 181#A10000000000
(1655542637.806905) can0 281#001B38040000
(1655542637.807111) can0 381#79020C000700
(1655542637.807349) can0 6D0#5800000460FFD86B
(1655542637.814015) can0 201#06000000400D0300
(1655542637.814191) can0 080#00
(1655542637.814401) can0 001#000004600000
(1655542637.814616) can0 181#A10000000000
(1655542637.814826) can0 281#001B38040000
(1655542637.815027) can0 381#79020C000700
(1655542637.819004) can0 601#406C600000000000
(1655542637.819386) can0 581#436C600000000000
(1655542637.821825) can0 201#06000000400D0300
(1655542637.821961) can0 080#00
(1655542637.822225) can0 181#A10000000000
(1655542637.822445) can0 001#000004600000
(1655542637.822647) can0 281#001B38040000
(1655542637.822853) can0 381#79020C000700
(1655542637.823110) can0 6D0#5900000460000095
(1655542637.826622) can0 601#4025200000000000
(1655542637.827010) can0 581#4F25200000000000
(1655542637.829695) can0 201#06000000400D0300
(1655542637.829869) can0 080#00
(1655542637.830099) can0 181#A10000000000
(1655542637.830310) can0 001#000004600000
(1655542637.830514) can0 281#001B38040000
(1655542637.830720) can0 381#79020C000700
(1655542637.837418) can0 201#06000000400D0300
(1655542637.837580) can0 080#00
(1655542637.837808) can0 181#A10000000000
(1655542637.838027) can0 281#001B38040000
(1655542637.838216) can0 381#79020C000700
(1655542637.838431) can0 001#000004600000
(1655542637.838667) can0 601#406C600000000000
(1655542637.839041) can0 581#436C600000000000
(1655542637.840290) can0 080#051800A1
(1655542637.840574) can0 1838F380#00061806181A0006
(1655542637.840855) can0 18EEFF80#F30080F300401E90
(1655542637.841138) can0 1839F380#00181A1804000695
(1655542637.845216) can0 201#06000000400D0300
(1655542637.845388) can0 080#00
(1655542637.845614) can0 181#A10000000000
(1655542637.845830) can0 281#001B38040000
(1655542637.846027) can0 381#79020C000700
(1655542637.846245) can0 001#000004600000
(1655542637.846487) can0 6D0#5A00000460000096
(1655542637.853073) can0 201#06000000400D0300
(1655542637.853263) can0 080#00
(1655542637.853482) can0 181#A10000000000
(1655542637.853691) can0 281#001B38040000
(1655542637.853889) can0 381#79020C000700
(1655542637.854301) can0 001#000004600000
(1655542637.854567) can0 6D0#5B00000460000097
(1655542637.857722) can0 601#406C600000000000
(1655542637.858102) can0 581#436C600000000000
(1655542637.858345) can0 601#4026200600000000
(1655542637.858578) can0 601#8026200630000906
(1655542637.858820) can0 581#4F26200600000000
(1655542637.860886) can0 201#06000000400D0300
(1655542637.861062) can0 080#00
(1655542637.861290) can0 181#A10000000000
(1655542637.861500) can0 281#001B38040000
(1655542637.861708) can0 381#79020C000700
(1655542637.862231) can0 001#000004600000
(1655542637.862476) can0 6D0#5C00000460000098
(1655542637.868699) can0 201#06000000400D0300
(1655542637.868863) can0 080#00
(1655542637.869092) can0 181#A10000000000
(1655542637.869298) can0 281#001B38040000
(1655542637.869500) can0 381#79020C000700
(1655542637.870294) can0 001#000004600000
(1655542637.876509) can0 201#06000000400D0300
(1655542637.876672) can0 080#00
(1655542637.876904) can0 181#A10000000000
(1655542637.877111) can0 281#001B38040000
(1655542637.877314) can0 381#79020C000700
(1655542637.878000) can0 601#406C600000000000
(1655542637.878229) can0 001#000004600000
(1655542637.878471) can0 581#436C600000000000
(1655542637.878712) can0 6D0#5D00000460000099
(1655542637.884319) can0 201#06000000400D0300
(1655542637.884489) can0 080#00
(1655542637.884717) can0 181#A10000000000
(1655542637.884931) can0 281#001B38040000
(1655542637.885127) can0 381#79020C000700
(1655542637.886294) can0 001#000004600000
(1655542637.890286) can0 601#4026200100000000
(1655542637.891643) can0 581#4F2620011B000000
(1655542637.892370) can0 201#06000000400D0300
(1655542637.892543) can0 080#00
(1655542637.892771) can0 181#A10000000000
(1655542637.892975) can0 281#001B38040000
(1655542637.893179) can0 381#79020C000700
(1655542637.894230) can0 001#000004600000
(1655542637.894471) can0 6D0#5E0000046000009A
(1655542637.897707) can0 601#406C600000000000
(1655542637.899451) can0 581#436C600000000000
(1655542637.900137) can0 201#06000000400D0300
(1655542637.900317) can0 080#00
(1655542637.900572) can0 181#A10000000000
(1655542637.900778) can0 281#001B38040000
(1655542637.900999) can0 381#79020C000700
(1655542637.902230) can0 001#000004600000
(1655542637.907747) can0 201#06000000400D0300
(1655542637.907917) can0 080#00
(1655542637.908152) can0 181#A10000000000
(1655542637.908359) can0 281#001B38040000
(1655542637.908565) can0 381#7A020C000700
(1655542637.910293) can0 001#000004600000
(1655542637.915520) can0 201#06000000400D0300
(1655542637.915713) can0 080#00
(1655542637.915942) can0 181#A10000000000
(1655542637.916129) can0 281#001B38040000
(1655542637.916325) can0 381#79020C000700
(1655542637.916668) can0 601#406C600000000000
(1655542637.917048) can0 581#436C600000000000
(1655542637.918229) can0 001#000004600000
(1655542637.918472) can0 6D0#5F0000046000009B
(1655542637.922346) can0 601#4026200300000000
(1655542637.922884) can0 581#4B26200300000000
(1655542637.923605) can0 201#06000000400D0300
(1655542637.923749) can0 080#00
(1655542637.924005) can0 181#A10000000000
(1655542637.924213) can0 281#001B38040000
(1655542637.924413) can0 381#79020C000700
(1655542637.926295) can0 001#000004600000
(1655542637.931136) can0 201#06000000400D0300
(1655542637.931312) can0 080#00
(1655542637.931575) can0 181#A10000000000
(1655542637.931783) can0 281#001B38040000
(1655542637.931986) can0 381#79020C000700
(1655542637.934233) can0 001#000004600000
(1655542637.934484) can0 6D0#600000046000009C
(1655542637.935957) can0 601#406C600000000000
(1655542637.936374) can0 581#436C600000000000
(1655542637.938950) can0 201#06000000400D0300
(1655542637.939141) can0 080#00
(1655542637.939383) can0 181#A10000000000
(1655542637.939598) can0 281#001B38040000
(1655542637.939807) can0 381#79020C000700
(1655542637.940313) can0 080#061A00A4
(1655542637.940592) can0 1838F380#000B180B181A0006
(1655542637.940874) can0 1839F380#00181A1804000695
(1655542637.942300) can0 001#000004600000
(1655542637.946760) can0 201#06000000400D0300
(1655542637.946928) can0 080#00
(1655542637.947188) can0 181#A10000000000
(1655542637.947396) can0 281#001B38040000
(1655542637.947599) can0 381#79020D000700
(1655542637.950222) can0 001#000004600000
(1655542637.950468) can0 6D0#610000046000009D
(1655542637.954351) can0 601#4026200700000000
(1655542637.954589) can0 201#06000000400D0300
(1655542637.954854) can0 581#4F26200700000000
(1655542637.954994) can0 080#00
(1655542637.955226) can0 601#406C600000000000
(1655542637.955449) can0 181#A10000000000
(1655542637.955660) can0 281#001B38040000
(1655542637.955878) can0 381#79020C000700
(1655542637.956101) can0 581#436C600000000000
(1655542637.958293) can0 001#000004600000
(1655542637.962386) can0 201#06000000400D0300
(1655542637.962562) can0 080#00
(1655542637.962783) can0 181#A10000000000
(1655542637.962990) can0 281#001B38040000
(1655542637.963191) can0 381#79020C000700
(1655542637.966221) can0 001#000004600000
(1655542637.966464) can0 6D0#620000046000009E
(1655542637.970192) can0 201#06000000400D0300
(1655542637.970376) can0 080#00
(1655542637.970605) can0 181#A10000000000
(1655542637.970802) can0 281#001B38040000
(1655542637.971011) can0 381#79020D000700
(1655542637.974072) can0 601#406C600000000000
(1655542637.974300) can0 001#000004600000
(1655542637.974570) can0 581#436C600000000000
(1655542637.978052) can0 201#06000000400D0300
(1655542637.978220) can0 080#00
(1655542637.978447) can0 181#A10000000000
(1655542637.978652) can0 281#001B38040000
(1655542637.978856) can0 381#79020C000700
(1655542637.982299) can0 001#000004600000
(1655542637.985818) can0 201#06000000400D0300
(1655542637.986062) can0 601#4054200000000000
(1655542637.986175) can0 080#00
(1655542637.986427) can0 181#A10000000000
(1655542637.986635) can0 281#001B38040000
(1655542637.986839) can0 381#79020C000700
(1655542637.987084) can0 581#4B54200078000000
(1655542637.990238) can0 001#000004600000
(1655542637.990464) can0 6D0#630000046000009F
(1655542637.992055) can0 601#406C600000000000
(1655542637.993205) can0 581#436C600000000000
(1655542637.993890) can0 201#06000000400D0300
(1655542637.994055) can0 080#00
(1655542637.994311) can0 181#A10000000000
(1655542637.994517) can0 281#001B38040000
(1655542637.994722) can0 381#79020C000700
(1655542637.998295) can0 001#000004600000
(1655542637.998538) can0 6D0#64000004600000A0
(1655542638.001441) can0 201#06000000400D0300
(1655542638.001609) can0 080#00
(1655542638.001867) can0 181#A10000000000
(1655542638.002073) can0 281#001B38040000
(1655542638.002275) can0 381#79020C000700
(1655542638.006221) can0 001#000004600000
(1655542638.006463) can0 6D0#65000004600000A1
(1655542638.009264) can0 201#06000000400D0300
(1655542638.009420) can0 080#00
(1655542638.009647) can0 181#A10000000000
(1655542638.009854) can0 281#001B38040000
(1655542638.010062) can0 381#79020C000700
(1655542638.010299) can0 601#406C600000000000
(1655542638.010696) can0 581#436C600000000000
(1655542638.014291) can0 001#000004600000
(1655542638.016357) can0 601#4026200200000000
(1655542638.016723) can0 581#4F26200222000000
(1655542638.017353) can0 201#06000000400D0300
(1655542638.017515) can0 080#00
(1655542638.017746) can0 181#A10000000000
(1655542638.017952) can0 281#001B38040000
(1655542638.018155) can0 381#79020C000700
(1655542638.022220) can0 001#000004600000
(1655542638.022474) can0 6D0#66000004600000A2
(1655542638.024880) can0 201#06000000400D0300
(1655542638.025049) can0 080#00
(1655542638.025304) can0 181#A10000000000
(1655542638.025512) can0 281#001B38040000
(1655542638.025720) can0 381#7A020A000700
(1655542638.027686) can0 601#406C600000000000
(1655542638.028091) can0 581#436C600000000000
(1655542638.030297) can0 001#000004600000
(1655542638.030534) can0 6D0#6700000460FFFFA1
(1655542638.032790) can0 201#06000000400D0300
(1655542638.032956) can0 080#00
(1655542638.033189) can0 181#A10000000000
(1655542638.033397) can0 281#001B38040000
(1655542638.033601) can0 381#79020C000700
(1655542638.038220) can0 001#000004600000
(1655542638.038459) can0 6D0#6E000004600040EA
(1655542638.040284) can0 080#051800A1
(1655542638.040578) can0 1838F380#00001A00181A0006
(1655542638.040825) can0 201#06000000400D0300
(1655542638.041099) can0 18EEFF80#F30080F300401E90
(1655542638.041214) can0 080#00
(1655542638.041428) can0 181#A10000000000
(1655542638.041634) can0 281#001B38040000
(1655542638.041837) can0 381#79020C000700
(1655542638.042124) can0 1839F380#00181A1804000695
(1655542638.045805) can0 601#406C600000000000
(1655542638.046214) can0 581#436C600000000000
(1655542638.046429) can0 001#000004600000
(1655542638.048354) can0 601#4026200400000000
(1655542638.048591) can0 201#06000000400D0300
(1655542638.048707) can0 080#00
(1655542638.048928) can0 181#A10000000000
(1655542638.049171) can0 581#4B26200400000000
(1655542638.049384) can0 281#001B38040000
(1655542638.049586) can0 381#79020C000700
(1655542638.054288) can0 001#000004600000
(1655542638.056230) can0 201#06000000400D0300
(1655542638.056400) can0 080#00
(1655542638.056628) can0 181#A10000000000
(1655542638.056833) can0 281#001B38040000
(1655542638.057038) can0 381#79020C000700
(1655542638.062222) can0 001#000004600000
(1655542638.062460) can0 6D0#73000004600801B8
(1655542638.064109) can0 201#06000000400D0300
(1655542638.064272) can0 080#00
(1655542638.064502) can0 181#A10000000000
(1655542638.064706) can0 281#001B38040000
(1655542638.064915) can0 381#79020C000700
(1655542638.065146) can0 601#406C600000000000
(1655542638.065555) can0 581#436C600000000000
(1655542638.070292) can0 001#000004600000
(1655542638.070527) can0 6D0#74000004600800B8
(1655542638.071923) can0 201#06000000400D0300
(1655542638.072099) can0 080#00
(1655542638.072356) can0 181#A10000000000
(1655542638.072563) can0 281#001B38040000
(1655542638.072773) can0 381#7A020C000700
(1655542638.078217) can0 001#000004600000
(1655542638.078469) can0 6D0#75000004600000B1
(1655542638.079709) can0 601#4026200500000000
(1655542638.079947) can0 201#06000000400D0300
(1655542638.080065) can0 080#00
(1655542638.080372) can0 181#A10000000000
(1655542638.080572) can0 281#001B38040000
(1655542638.080811) can0 581#4B26200500000000
(1655542638.081016) can0 381#79020C000700
(1655542638.083281) can0 601#406C600000000000
(1655542638.083692) can0 581#436C600000000000
(1655542638.086304) can0 001#000004600000
(1655542638.086533) can0 6D0#76000004600000B2
(1655542638.087538) can0 201#06000000400D0300
(1655542638.087706) can0 080#00
(1655542638.087942) can0 181#A10000000000
(1655542638.088140) can0 281#001B38040000
(1655542638.088344) can0 381#7A020C000700
(1655542638.094216) can0 001#000004600000
(1655542638.094458) can0 6D0#77000004600000B3
(1655542638.095354) can0 201#06000000400D0300
(1655542638.095520) can0 080#00
(1655542638.095753) can0 181#A10000000000
(1655542638.095955) can0 281#001B38040000
(1655542638.096161) can0 381#79020C000700
(1655542638.101137) can0 601#406C600000000000
(1655542638.102297) can0 001#000004600000
(1655542638.102591) can0 581#436C600000000000
(1655542638.103338) can0 201#06000000400D0300
(1655542638.103505) can0 080#00
(1655542638.103733) can0 181#A10000000000
(1655542638.103943) can0 281#001B38040000
(1655542638.104143) can0 381#79020C000700
(1655542638.109973) can0 601#4025200000000000
(1655542638.110216) can0 001#000004600000
(1655542638.110463) can0 581#4F25200000000000
(1655542638.110700) can0 6D0#78000004600000B4
(1655542638.111217) can0 201#06000000400D0300
(1655542638.111386) can0 080#00
(1655542638.111617) can0 181#A10000000000
(1655542638.111824) can0 281#001B38040000
(1655542638.112029) can0 381#79020C000700
(1655542638.118228) can0 001#000004600000
(1655542638.118465) can0 6D0#79000004600000B5
(1655542638.118714) can0 201#06000000400D0300
(1655542638.118821) can0 080#00
(1655542638.119053) can0 181#A10000000000
(1655542638.119278) can0 281#001B38040000
(1655542638.119463) can0 381#79020C000700
(1655542638.120382) can0 601#406C600000000000
(1655542638.120789) can0 581#436C600000000000
(1655542638.126226) can0 001#000004600000
(1655542638.126468) can0 201#06000000400D0300
(1655542638.126585) can0 080#00
(1655542638.126809) can0 181#A10000000000
(1655542638.127016) can0 281#001B38040000
(1655542638.127220) can0 381#79020C000700
(1655542638.134230) can0 201#06000000400D0300
(1655542638.134438) can0 001#000004600000
(1655542638.134576) can0 080#00
(1655542638.134769) can0 181#A10000000000
(1655542638.134973) can0 281#001B38040000
(1655542638.135177) can0 381#79020C000700
(1655542638.138247) can0 601#406C600000000000
(1655542638.138627) can0 581#436C600000000000
(1655542638.140300) can0 080#061A00A4
(1655542638.140585) can0 1838F380#00031903181A0006
(1655542638.140868) can0 1839F380#00181A1804000695
(1655542638.142224) can0 001#000004600000
(1655542638.142462) can0 201#06000000400D0300
(1655542638.142683) can0 080#00
(1655542638.142911) can0 181#A10000000000
(1655542638.143120) can0 281#001B38040000
(1655542638.143322) can0 381#7A020A000700
(1655542638.143729) can0 601#4026200100000000
(1655542638.144096) can0 581#4F2620011B000000
(1655542638.149898) can0 201#06000000400D0300
(1655542638.150074) can0 080#00
(1655542638.150291) can0 001#000004600000
(1655542638.150511) can0 181#A10000000000
(1655542638.150710) can0 281#001B38040000
(1655542638.150913) can0 381#79020A000700
(1655542638.151154) can0 6D0#7A000004600000B6
(1655542638.157714) can0 201#06000000400D0300
(1655542638.157840) can0 080#00
(1655542638.158114) can0 181#A10000000000
(1655542638.158311) can0 001#000004600000
(1655542638.158517) can0 281#001B38040000
(1655542638.158721) can0 381#79020C000700
(1655542638.158959) can0 6D0#7B000004600003BA
(1655542638.160855) can0 601#406C600000000000
(1655542638.161241) can0 581#436C600000000000
(1655542638.165507) can0 201#06000000400D0300
(1655542638.165647) can0 080#00
(1655542638.165902) can0 181#A10000000000
(1655542638.166109) can0 281#001B38040000
(1655542638.166321) can0 001#000004600000
(1655542638.166527) can0 381#79020C000700
(1655542638.166767) can0 6D0#7C000004600006BE
(1655542638.173282) can0 201#06000000400D0300
(1655542638.173454) can0 080#00
(1655542638.173696) can0 601#4026200600000000
(1655542638.173908) can0 181#A10000000000
(1655542638.174124) can0 281#001B38040000
(1655542638.174328) can0 001#000004600000
(1655542638.174532) can0 381#79020C000700
(1655542638.174774) can0 581#4F26200600000000
(1655542638.175016) can0 6D0#7D000004600030E9
(1655542638.179163) can0 601#406C600000000000
(1655542638.180664) can0 581#436C600000000000
(1655542638.181393) can0 201#06000000400D0300
(1655542638.181553) can0 080#00
(1655542638.181781) can0 181#A10000000000
(1655542638.181994) can0 281#001B38040000
(1655542638.182190) can0 381#79020C000700
(1655542638.182402) can0 001#000004600000
(1655542638.188948) can0 201#06000000400D0300
(1655542638.189128) can0 080#00
(1655542638.189352) can0 181#A10000000000
(1655542638.189555) can0 281#001B38040000
(1655542638.189762) can0 381#79020C000700
(1655542638.190210) can0 001#000004600000
(1655542638.190454) can0 6D0#7E000004600000BA
(1655542638.196761) can0 201#06000000400D0300
(1655542638.196929) can0 080#00
(1655542638.197163) can0 181#A10000000000
(1655542638.197368) can0 281#001B38040000
(1655542638.197571) can0 381#79020C000700
(1655542638.198219) can0 001#000004600000
(1655542638.199518) can0 601#406C600000000000
(1655542638.199923) can0 581#436C600000000000
(1655542638.204629) can0 201#06000000400D0300
(1655542638.204705) can0 080#00
(1655542638.204964) can0 181#A10000000000
(1655542638.205166) can0 281#001B38040000
(1655542638.205372) can0 381#79020C000700
(1655542638.205616) can0 601#4026200300000000
(1655542638.205982) can0 581#4B26200300000000
(1655542638.206210) can0 001#000004600000
(1655542638.212381) can0 201#06000000400D0300
(1655542638.212554) can0 080#00
(1655542638.212782) can0 181#A10000000000
(1655542638.212989) can0 281#001B38040000
(1655542638.213193) can0 381#79020C000700
(1655542638.214289) can0 001#000004600000
(1655542638.217632) can0 601#406C600000000000
(1655542638.218021) can0 581#436C600000000000
(1655542638.220149) can0 201#06000000400D0300
(1655542638.220326) can0 080#00
(1655542638.220581) can0 181#A10000000000
(1655542638.220798) can0 281#001B38040000
(1655542638.220991) can0 381#79020C000700
(1655542638.222211) can0 001#000004600000
(1655542638.222449) can0 6D0#7F0000046002EEAB
(1655542638.228004) can0 201#06000000400D0300
(1655542638.228181) can0 080#00
(1655542638.228407) can0 181#A10000000000
(1655542638.228613) can0 281#001B38040000
(1655542638.228818) can0 381#79020C000700
(1655542638.230280) can0 001#000004600000
(1655542638.230525) can0 6D0#80000004600000BC
(1655542638.235673) can0 601#4026200700000000
(1655542638.235918) can0 201#06000000400D0300
(1655542638.236031) can0 080#00
(1655542638.236327) can0 181#A10000000000
(1655542638.236574) can0 581#4F26200700000000
(1655542638.236774) can0 281#001B38040000
(1655542638.236979) can0 381#79020C000700
(1655542638.238212) can0 001#000004600000
(1655542638.238447) can0 601#406C600000000000
(1655542638.238702) can0 6D0#0000000460010340
(1655542638.238944) can0 581#436C600000000000
(1655542638.240292) can0 080#051800A1
(1655542638.240575) can0 1838F380#00061806181A0006
(1655542638.240861) can0 1839F380#00181A1804000695
(1655542638.242516) can0 18EEFF80#F30080F300401E90
(1655542638.243688) can0 201#06000000400D0300
(1655542638.243868) can0 080#00
(1655542638.244088) can0 181#A10000000000
(1655542638.244298) can0 281#001B38040000
(1655542638.244496) can0 381#79020C000700
(1655542638.246278) can0 001#000004600000
(1655542638.246522) can0 6D0#0100000460060346
(1655542638.251392) can0 201#06000000400D0300
(1655542638.251564) can0 080#00
(1655542638.251821) can0 181#A10000000000
(1655542638.252026) can0 281#001B38040000
(1655542638.252239) can0 381#79020C000700
(1655542638.254223) can0 001#000004600000
(1655542638.254452) can0 6D0#0200000460057ABD
(1655542638.257313) can0 601#406C600000000000
(1655542638.258761) can0 581#436C600000000000
(1655542638.259455) can0 201#06000000400D0300
(1655542638.259624) can0 080#00
(1655542638.259881) can0 181#A10000000000
(1655542638.260088) can0 281#001B38040000
(1655542638.260299) can0 381#79020C000700
(1655542638.262284) can0 001#000004600000
(1655542638.262527) can0 6D0#0300000460240366
(1655542638.267018) can0 201#06000000400D0300
(1655542638.267195) can0 080#00
(1655542638.267450) can0 181#A10000000000
(1655542638.267657) can0 281#001B38040000
(1655542638.267862) can0 381#79020C000700
(1655542638.268104) can0 601#4054200000000000
(1655542638.268468) can0 581#4B54200078000000
(1655542638.270207) can0 001#000004600000
(1655542638.270446) can0 6D0#04000004600063A3
(1655542638.274832) can0 201#06000000400D0300
(1655542638.274996) can0 080#00
(1655542638.275258) can0 181#A10000000000
(1655542638.275475) can0 281#001B38040000
(1655542638.275670) can0 381#79020C000700
(1655542638.275905) can0 601#406C600000000000
(1655542638.276287) can0 581#436C600000000000
(1655542638.278211) can0 001#000004600000
(1655542638.282637) can0 201#06000000400D0300
(1655542638.282806) can0 080#00
(1655542638.283037) can0 181#A10000000000
(1655542638.283240) can0 281#001B38040000
(1655542638.283454) can0 381#79020C000700
(1655542638.286279) can0 001#000004600000
(1655542638.290458) can0 201#06000000400D0300
(1655542638.290620) can0 080#00
(1655542638.290881) can0 181#A10000000000
(1655542638.291085) can0 281#001B38040000
(1655542638.291300) can0 381#79020C000700
(1655542638.294210) can0 001#000004600000
(1655542638.294449) can0 6D0#0500000460000041
(1655542638.294972) can0 601#406C600000000000
(1655542638.295364) can0 581#436C600000000000
(1655542638.298299) can0 201#06000000400D0300
(1655542638.298433) can0 080#00
(1655542638.298693) can0 181#A10000000000
(1655542638.298898) can0 281#001B38040000
(1655542638.299103) can0 381#79020C000700
(1655542638.299585) can0 601#4070200100000000
(1655542638.299965) can0 581#4B70200179020000
(1655542638.302277) can0 001#000004600000
(1655542638.306071) can0 201#06000000400D0300
(1655542638.306250) can0 080#00
(1655542638.306504) can0 181#A10000000000
(1655542638.306710) can0 281#001B38040000
(1655542638.306922) can0 381#79020C000700
(1655542638.310206) can0 001#000004600000
(1655542638.310447) can0 6D0#0600000460003072
(1655542638.313883) can0 201#06000000400D0300
(1655542638.314057) can0 080#00
(1655542638.314312) can0 181#A10000000000
(1655542638.314520) can0 281#001B38040000
(1655542638.314722) can0 381#79020C000700
(1655542638.315236) can0 601#406C600000000000
(1655542638.315631) can0 581#436C600000000000
(1655542638.318210) can0 001#000004600000
(1655542638.318449) can0 6D0#0700000460001C5F
(1655542638.321694) can0 201#06000000400D0300
(1655542638.321864) can0 080#00
(1655542638.322125) can0 181#A10000000000
(1655542638.322330) can0 281#001B38040000
(1655542638.322537) can0 381#7A020C000700
(1655542638.326280) can0 001#000004600000
(1655542638.326517) can0 6D0#080000046000CB0F
(1655542638.329507) can0 201#06000000400D0300
(1655542638.329676) can0 080#00
(1655542638.329931) can0 181#A10000000000
(1655542638.330139) can0 281#001B38040000
(1655542638.330341) can0 381#79020C000700
(1655542638.331524) can0 601#4027200000000000
(1655542638.331883) can0 581#4B27200000000000
(1655542638.334207) can0 001#000004600000
(1655542638.334449) can0 6D0#0900000460000045
(1655542638.335009) can0 601#406C600000000000
(1655542638.336752) can0 581#436C600000000000
(1655542638.337474) can0 201#06000000400D0300
(1655542638.337616) can0 080#00
(1655542638.337872) can0 181#A10000000000
(1655542638.338077) can0 281#001B38040000
(1655542638.338280) can0 381#79020C000700
(1655542638.340288) can0 080#061A00A4
(1655542638.340568) can0 1838F380#000B180B181A0006
(1655542638.340852) can0 1839F380#00181A1804000695
(1655542638.342277) can0 001#000004600000
(1655542638.342528) can0 6D0#0A000004600078BE
(1655542638.345119) can0 201#06000000400D0300
(1655542638.345292) can0 080#00
(1655542638.345531) can0 181#A10000000000
(1655542638.345731) can0 281#001B38040000
(1655542638.345933) can0 381#79020D000700
(1655542638.350203) can0 001#000004600000
(1655542638.350443) can0 6D0#0B000004600258A1
(1655542638.352952) can0 201#06000000400D0300
(1655542638.353115) can0 080#00
(1655542638.353373) can0 181#A10000000000
(1655542638.353578) can0 281#001B38040000
(1655542638.353779) can0 381#79020C000700
(1655542638.355412) can0 601#406C600000000000
(1655542638.355797) can0 581#436C600000000000
(1655542638.358211) can0 001#000004600000
(1655542638.360749) can0 201#06000000400D0300
(1655542638.360921) can0 080#00
(1655542638.361182) can0 181#A10000000000
(1655542638.361387) can0 281#001B38040000
(1655542638.361600) can0 381#79020C000700
(1655542638.362509) can0 601#403F600000000000
(1655542638.362881) can0 581#4B3F600000000000
(1655542638.366277) can0 001#000004600000
(1655542638.368557) can0 201#06000000400D0300
(1655542638.368730) can0 080#00
(1655542638.368991) can0 181#A10000000000
(1655542638.369192) can0 281#001B38040000
(1655542638.369404) can0 381#79020C000700
(1655542638.373719) can0 601#406C600000000000
(1655542638.374099) can0 581#436C600000000000
(1655542638.374308) can0 001#000004600000
(1655542638.374582) can0 6D0#0C00000460000048
(1655542638.376550) can0 201#06000000400D0300
(1655542638.376715) can0 080#00
(1655542638.376944) can0 181#A10000000000
(1655542638.377149) can0 281#001B38040000
(1655542638.377361) can0 381#79020C000700
(1655542638.382274) can0 001#000004600000
(1655542638.384287) can0 201#06000000400D0300
(1655542638.384460) can0 080#00
(1655542638.384683) can0 181#A10000000000
(1655542638.384889) can0 281#001B38040000
(1655542638.385090) can0 381#79020C000700
(1655542638.390204) can0 001#000004600000
(1655542638.390446) can0 6D0#0D000004600460AD
(1655542638.392176) can0 201#06000000400D0300
(1655542638.392337) can0 080#00
(1655542638.392571) can0 181#A10000000000
(1655542638.392775) can0 281#001B38040000
(1655542638.392977) can0 381#79020D000700
(1655542638.393787) can0 601#406C600000000000
(1655542638.394177) can0 581#436C600000000000
(1655542638.394561) can0 601#4025200000000000
(1655542638.394899) can0 581#4F25200000000000
(1655542638.398286) can0 001#000004600000
(1655542638.399913) can0 201#06000000400D0300
(1655542638.400091) can0 080#00
(1655542638.400321) can0 181#A10000000000
(1655542638.400527) can0 281#001B38040000
(1655542638.400732) can0 381#79020C000700
(1655542638.406199) can0 001#000004600000
(1655542638.406441) can0 6D0#0E000004600460AE
(1655542638.407780) can0 201#06000000400D0300
(1655542638.407953) can0 080#00
(1655542638.408184) can0 181#A10000000000
(1655542638.408394) can0 281#001B38040000
(1655542638.408597) can0 381#79020C000700
(1655542638.412505) can0 601#406C600000000000
(1655542638.412912) can0 581#436C600000000000
(1655542638.414272) can0 001#000004600000
(1655542638.415538) can0 201#06000000400D0300
(1655542638.415707) can0 080#00
(1655542638.415936) can0 181#A10000000000
(1655542638.416149) can0 281#001B38040000
(1655542638.416343) can0 381#79020C000700
(1655542638.422201) can0 001#000004600000
(1655542638.422441) can0 6D0#0F0000046000A9F4
(1655542638.423404) can0 201#06000000400D0300
(1655542638.423578) can0 080#00
(1655542638.423806) can0 181#A10000000000
(1655542638.424010) can0 281#001B38040000
(1655542638.424216) can0 381#79020A000700
(1655542638.426325) can0 601#4026200100000000
(1655542638.426691) can0 581#4F2620011B000000
(1655542638.430202) can0 001#000004600000
(1655542638.431172) can0 201#06000000400D0300
(1655542638.431337) can0 080#00
(1655542638.431572) can0 181#A10000000000
(1655542638.431775) can0 281#001B38040000
(1655542638.431979) can0 381#79020C000700
(1655542638.433275) can0 601#406C600000000000
(1655542638.433656) can0 581#436C600000000000
(1655542638.438277) can0 001#000004600000
(1655542638.438985) can0 201#06000000400D0300
(1655542638.439168) can0 080#00
(1655542638.439415) can0 181#A10000000000
(1655542638.439621) can0 281#001B38040000
(1655542638.439821) can0 381#79020C000700
(1655542638.440338) can0 080#051800A1
(1655542638.440626) can0 1838F380#00001A00181A0006
(1655542638.440906) can0 18EEFF80#F30080F300401E90
(1655542638.441190) can0 1839F380#00181A1804000695
(1655542638.446199) can0 001#000004600000
(1655542638.446456) can0 6D0#1000000460027AC8
(1655542638.446852) can0 201#06000000400D0300
(1655542638.447024) can0 080#00
(1655542638.447282) can0 181#A10000000000
(1655542638.447501) can0 281#001B38040000
(1655542638.447692) can0 381#79020C000700
(1655542638.452207) can0 601#406C600000000000
(1655542638.453970) can0 581#436C600000000000
(1655542638.454279) can0 001#000004600000
(1655542638.454729) can0 201#06000000400D0300
(1655542638.454895) can0 080#00
(1655542638.455168) can0 181#A10000000000
(1655542638.455366) can0 281#001B38040000
(1655542638.455570) can0 381#79020C000700
(1655542638.457807) can0 601#4026200200000000
(1655542638.458184) can0 581#4F26200222000000
(1655542638.462197) can0 001#000004600000
(1655542638.462442) can0 201#06000000400D0300
(1655542638.462686) can0 6D0#1100000460001562
(1655542638.462800) can0 080#00
(1655542638.463011) can0 181#A10000000000
(1655542638.463216) can0 281#001B38040000
(1655542638.463425) can0 381#79020C000700
(1655542638.470098) can0 201#06000000400D0300
(1655542638.470313) can0 001#000004600000
(1655542638.470422) can0 080#00
(1655542638.470634) can0 181#A10000000000
(1655542638.470843) can0 281#001B38040000
(1655542638.471054) can0 381#79020C000700
(1655542638.471287) can0 6D0#1200000460001765
(1655542638.473876) can0 601#406C600000000000
(1655542638.474296) can0 581#436C600000000000
(1655542638.477957) can0 201#06000000400D0300
(1655542638.478199) can0 001#000004600000
(1655542638.478319) can0 080#00
(1655542638.478527) can0 181#A10000000000
(1655542638.478732) can0 281#001B38040000
(1655542638.478936) can0 381#79020C000700
(1655542638.479174) can0 6D0#13000004600064B3
(1655542638.485770) can0 201#06000000400D0300
(1655542638.485938) can0 080#00
(1655542638.486172) can0 181#A10000000000
(1655542638.486385) can0 001#000004600000
(1655542638.486591) can0 281#001B38040000
(1655542638.486794) can0 381#79020C000700
(1655542638.487044) can0 6D0#14000004602BC33E
(1655542638.488795) can0 601#4026200600000000
(1655542638.489182) can0 581#4F26200600000000
(1655542638.493586) can0 201#06000000400D0300
(1655542638.493715) can0 080#00
(1655542638.493972) can0 181#A10000000000
(1655542638.494176) can0 281#001B38040000
(1655542638.494400) can0 001#000004600000
(1655542638.494593) can0 381#79020C000700
(1655542638.494840) can0 6D0#15000004607FFFCF
(1655542638.495075) can0 601#406C600000000000
(1655542638.495465) can0 581#436C600000000000
(1655542638.501405) can0 201#06000000400D0300
(1655542638.501573) can0 080#00
(1655542638.501797) can0 181#A10000000000
(1655542638.502002) can0 281#001B38040000
(1655542638.502217) can0 381#7A020C000700
(1655542638.502418) can0 001#000004600000
(1655542638.509157) can0 201#06000000400D0300
(1655542638.509328) can0 080#00
(1655542638.509554) can0 181#A10000000000
(1655542638.509767) can0 281#001B38040000
(1655542638.509965) can0 381#79020C000700
(1655542638.510265) can0 001#000004600000
(1655542638.514654) can0 601#406C600000000000
(1655542638.516417) can0 581#436C600000000000
(1655542638.517140) can0 201#06000000400D0300
(1655542638.517305) can0 080#00
(1655542638.517535) can0 181#A10000000000
(1655542638.517740) can0 281#001B38040000
(1655542638.517957) can0 381#79020C000700
(1655542638.518201) can0 001#000004600000
(1655542638.518435) can0 6D0#16000004600498EE
(1655542638.520235) can0 601#4026200300000000
(1655542638.520605) can0 581#4B26200300000000
(1655542638.524815) can0 201#06000000400D0300
(1655542638.524957) can0 080#00
(1655542638.525220) can0 181#A10000000000
(1655542638.525425) can0 281#001B38040000
(1655542638.525628) can0 381#79020C000700
(1655542638.526264) can0 001#000004600000
(1655542638.532647) can0 201#06000000400D0300
(1655542638.532805) can0 080#00
(1655542638.533034) can0 181#A10000000000
(1655542638.533239) can0 281#001B38040000
(1655542638.533444) can0 381#79020C000700
(1655542638.534195) can0 001#000004600000
(1655542638.534437) can0 6D0#170000046002BC11
(1655542638.536891) can0 601#406C600000000000
(1655542638.537286) can0 581#436C600000000000
(1655542638.540284) can0 080#061A00A4
(1655542638.540529) can0 201#06000000400D0300
(1655542638.540812) can0 1838F380#00031903181A0006
(1655542638.540926) can0 080#00
(1655542638.541140) can0 181#A10000000000
(1655542638.541346) can0 281#001B38040000
(1655542638.541549) can0 381#79020C000700
(1655542638.541833) can0 1839F380#00181A1804000695
(1655542638.542266) can0 001#000004600000
(1655542638.542506) can0 6D0#1800000460000357
(1655542638.548259) can0 201#06000000400D0300
(1655542638.548428) can0 080#00
(1655542638.548668) can0 181#A10000000000
(1655542638.548862) can0 281#001B38040000
(1655542638.549064) can0 381#79020C000700
(1655542638.550194) can0 001#000004600000
(1655542638.550433) can0 6D0#1900000460000459
(1655542638.551798) can0 601#4026200400000000
(1655542638.552176) can0 581#4B26200400000000
(1655542638.556063) can0 201#06000000400D0300
(1655542638.556237) can0 080#00
(1655542638.556467) can0 181#A10000000000
(1655542638.556672) can0 281#001B38040000
(1655542638.556881) can0 381#79020C000700
(1655542638.558274) can0 001#000004600000
(1655542638.558512) can0 6D0#1A00000460008AE0
(1655542638.559018) can0 601#406C600000000000
(1655542638.559418) can0 581#436C600000000000
(1655542638.563842) can0 201#06000000400D0300
(1655542638.564015) can0 080#00
(1655542638.564273) can0 181#A10000000000
(1655542638.564487) can0 281#001B38040000
(1655542638.564680) can0 381#79020C000700
(1655542638.566192) can0 001#000004600000
(1655542638.566431) can0 6D0#1B0000046002469F
(1655542638.571693) can0 201#06000000400D0300
(1655542638.571862) can0 080#00
(1655542638.572091) can0 181#A10000000000
(1655542638.572298) can0 281#001B38040000
(1655542638.572501) can0 381#79020C000700
(1655542638.574209) can0 001#000004600000
(1655542638.577712) can0 601#406C600000000000
(1655542638.579026) can0 581#436C600000000000
(1655542638.579708) can0 201#06000000400D0300
(1655542638.579883) can0 080#00
(1655542638.580147) can0 181#A10000000000
(1655542638.580356) can0 281#001B38040000
(1655542638.580554) can0 381#79020C000700
(1655542638.582269) can0 001#000004600000
(1655542638.582993) can0 601#4026200500000000
(1655542638.583355) can0 581#4B26200500000000
(1655542638.587303) can0 201#06000000400D0300
(1655542638.587445) can0 080#00
(1655542638.587702) can0 181#A10000000000
(1655542638.587910) can0 281#001B38040000
(1655542638.588113) can0 381#79020C000700
(1655542638.590191) can0 001#000004600000
(1655542638.590432) can0 6D0#1C00000460032A85
(1655542638.595095) can0 201#06000000400D0300
(1655542638.595260) can0 080#00
(1655542638.595517) can0 181#A10000000000
(1655542638.595728) can0 281#001B38040000
(1655542638.595929) can0 381#79020C000700
(1655542638.596163) can0 601#406C600000000000
(1655542638.596551) can0 581#436C600000000000
(1655542638.598262) can0 001#000004600000
(1655542638.602894) can0 201#06000000400D0300
(1655542638.603069) can0 080#00
(1655542638.603325) can0 181#A10000000000
(1655542638.603531) can0 281#001B38040000
(1655542638.603734) can0 381#79020C000700
(1655542638.606192) can0 001#000004600000
(1655542638.606431) can0 6D0#1D000004600078D1
(1655542638.610712) can0 201#06000000400D0300
(1655542638.610876) can0 080#00
(1655542638.611142) can0 181#A10000000000
(1655542638.611349) can0 281#001B38040000
(1655542638.611554) can0 381#79020C000700
(1655542638.614263) can0 001#000004600000
(1655542638.614501) can0 601#4026200700000000
(1655542638.614882) can0 581#4F26200700000000
(1655542638.615590) can0 601#406C600000000000
(1655542638.615985) can0 581#436C600000000000
(1655542638.618555) can0 201#06000000400D0300
(1655542638.618688) can0 080#00
(1655542638.618945) can0 181#A10000000000
(1655542638.619152) can0 281#001B38040000
(1655542638.619355) can0 381#79020D000700
(1655542638.622191) can0 001#000004600000
(1655542638.622435) can0 6D0#1E0000046000005A
(1655542638.626321) can0 201#06000000400D0300
(1655542638.626493) can0 080#00
(1655542638.626725) can0 181#A10000000000
(1655542638.626928) can0 281#001B38040000
(1655542638.627129) can0 381#79020C000700
(1655542638.630265) can0 001#000004600000
(1655542638.630511) can0 6D0#1F0000046000146F
(1655542638.634135) can0 201#06000000400D0300
(1655542638.634303) can0 080#00
(1655542638.634571) can0 181#A10000000000
(1655542638.634742) can0 281#001B38040000
(1655542638.634944) can0 381#79020C000700
(1655542638.636839) can0 601#406C600000000000
(1655542638.637239) can0 581#436C600000000000
(1655542638.638217) can0 001#000004600000
(1655542638.638442) can0 6D0#2000000460000864
(1655542638.640344) can0 080#051800A1
(1655542638.640626) can0 1838F380#00061806181A0006
(1655542638.640904) can0 18EEFF80#F30080F300401E90
(1655542638.641183) can0 1839F380#00181A1804000695
(1655542638.642378) can0 201#06000000400D0300
(1655542638.642549) can0 080#00
(1655542638.642807) can0 181#A10000000000
(1655542638.643014) can0 281#001B38040000
(1655542638.643215) can0 381#7A020C000700
(1655542638.646090) can0 601#4080200B00000000
(1655542638.646302) can0 001#000004600000
(1655542638.646550) can0 581#4F80200B00000000
(1655542638.649796) can0 201#06000000400D0300
(1655542638.649944) can0 080#00
(1655542638.650201) can0 181#A10000000000
(1655542638.650406) can0 281#001B38040000
(1655542638.650608) can0 381#79020C000700
(1655542638.654270) can0 001#000004600000
(1655542638.655407) can0 601#406C600000000000
(1655542638.657129) can0 581#436C600000000000
(1655542638.657824) can0 201#06000000400D0300
(1655542638.657988) can0 080#00
(1655542638.658251) can0 181#A10000000000
(1655542638.658456) can0 281#001B38040000
(1655542638.658661) can0 381#79020C000700
(1655542638.662188) can0 001#000004600000
(1655542638.662433) can0 6D0#210000046000005D
(1655542638.665379) can0 201#06000000400D0300
(1655542638.665552) can0 080#00
(1655542638.665779) can0 181#A10000000000
(1655542638.665983) can0 281#001B38040000
(1655542638.666189) can0 381#79020C000700
(1655542638.670256) can0 001#000004600000
(1655542638.673197) can0 201#06000000400D0300
(1655542638.673359) can0 080#00
(1655542638.673590) can0 181#A10000000000
(1655542638.673795) can0 281#001B38040000
(1655542638.674001) can0 381#79020C000700
(1655542638.675310) can0 601#406C600000000000
(1655542638.675693) can0 581#436C600000000000
(1655542638.677441) can0 601#4025200000000000
(1655542638.677807) can0 581#4F25200000000000
(1655542638.678194) can0 001#000004600000
(1655542638.678432) can0 6D0#220000046000005E
(1655542638.681007) can0 201#06000000400D0300
(1655542638.681183) can0 080#00
(1655542638.681439) can0 181#A10000000000
(1655542638.681646) can0 281#001B38040000
(1655542638.681847) can0 381#79020C000700
(1655542638.686255) can0 001#000004600000
(1655542638.688812) can0 201#06000000400D0300
(1655542638.688981) can0 080#00
(1655542638.689241) can0 181#A10000000000
(1655542638.689456) can0 281#001B38040000
(1655542638.689654) can0 381#79020A000700
(1655542638.694191) can0 001#000004600000
(1655542638.694426) can0 601#406C600000000000
(1655542638.694674) can0 6D0#23000004600460C3
(1655542638.696193) can0 581#436C600000000000
(1655542638.696933) can0 201#06000000400D0300
(1655542638.697103) can0 080#00
(1655542638.697363) can0 181#A10000000000
(1655542638.697569) can0 281#001B38040000
(1655542638.697774) can0 381#7A020C000700
(1655542638.702265) can0 001#000004600000
(1655542638.702502) can0 6D0#240000046000B111
(1655542638.704624) can0 201#06000000400D0300
(1655542638.704769) can0 080#00
(1655542638.704999) can0 181#A10000000000
(1655542638.705204) can0 281#001B38040000
(1655542638.705406) can0 381#79020C000700
(1655542638.709171) can0 601#4054200000000000
(1655542638.709534) can0 581#4B54200078000000
(1655542638.710186) can0 001#000004600000
(1655542638.710457) can0 6D0#2500000460000566
(1655542638.712429) can0 201#06000000400D0300
(1655542638.712594) can0 080#00
(1655542638.712822) can0 181#A10000000000
(1655542638.713032) can0 281#001B38040000
(1655542638.713236) can0 381#79020C000700
(1655542638.714534) can0 601#406C600000000000
(1655542638.714916) can0 581#436C600000000000
(1655542638.718190) can0 001#000004600000
(1655542638.718427) can0 6D0#26000004608A00EC
(1655542638.720247) can0 201#06000000400D0300
(1655542638.720416) can0 080#00
(1655542638.720636) can0 181#A10000000000
(1655542638.720842) can0 281#001B38040000
(1655542638.721048) can0 381#79020C000700
(1655542638.726183) can0 001#000004600000
(1655542638.727975) can0 201#06000000400D0300
(1655542638.728149) can0 080#00
(1655542638.728375) can0 181#A10000000000
(1655542638.728581) can0 281#001B38040000
(1655542638.728785) can0 381#79020A000700
(1655542638.732945) can0 601#406C600000000000
(1655542638.733338) can0 581#436C600000000000
(1655542638.734272) can0 001#000004600000
(1655542638.734512) can0 6D0#2700000460000063
(1655542638.735856) can0 201#06000000400D0300
(1655542638.736032) can0 080#00
(1655542638.736261) can0 181#A10000000000
(1655542638.736467) can0 281#001B38040000
(1655542638.736670) can0 381#79020C000700
(1655542638.740110) can0 601#4070200100000000
(1655542638.740278) can0 080#061A00A4
(1655542638.740520) can0 581#4B70200179020000
(1655542638.740803) can0 1838F380#000B180B181A0006
(1655542638.741088) can0 1839F380#00181A1804000695
(1655542638.742181) can0 001#000004600000
(1655542638.742426) can0 6D0#2800000460001A7E
(1655542638.743657) can0 201#06000000400D0300
(1655542638.743829) can0 080#00
(1655542638.744058) can0 181#A10000000000
(1655542638.744266) can0 281#001B38040000
(1655542638.744466) can0 381#79020C000700
(1655542638.750264) can0 001#000004600000
(1655542638.750501) can0 6D0#290000046000187D
(1655542638.751475) can0 201#06000000400D0300
(1655542638.751644) can0 080#00
(1655542638.751869) can0 181#A10000000000
(1655542638.752077) can0 281#001B38040000
(1655542638.752282) can0 381#7A020C000700
(1655542638.753121) can0 601#406C600000000000
(1655542638.753499) can0 581#436C600000000000
(1655542638.758186) can0 001#000004600000
(1655542638.758429) can0 6D0#2A0000046000187E
(1655542638.759341) can0 201#06000000400D0300
(1655542638.759508) can0 080#00
(1655542638.759737) can0 181#A10000000000
(1655542638.759941) can0 281#001B38040000
(1655542638.760145) can0 381#79020C000700
(1655542638.766251) can0 001#000004600000
(1655542638.767030) can0 201#06000000400D0300
(1655542638.767208) can0 080#00
(1655542638.767434) can0 181#A10000000000
(1655542638.767638) can0 281#001B38040000
(1655542638.767846) can0 381#79020C000700
(1655542638.771176) can0 601#4027200000000000
(1655542638.771541) can0 581#4B27200000000000
(1655542638.772948) can0 601#406C600000000000
(1655542638.774187) can0 001#000004600000
(1655542638.774427) can0 581#436C600000000000
(1655542638.774675) can0 6D0#2B00000460000067
(1655542638.775174) can0 201#06000000400D0300
(1655542638.775335) can0 080#00
(1655542638.775593) can0 181#A10000000000
(1655542638.775814) can0 281#001B38040000
(1655542638.776007) can0 381#79020C000700
(1655542638.782255) can0 001#000004600000
(1655542638.782648) can0 201#06000000400D0300
(1655542638.782817) can0 080#00
(1655542638.783049) can0 181#A10000000000
(1655542638.783254) can0 281#001B38040000
(1655542638.783459) can0 381#79020C000700
(1655542638.790186) can0 001#000004600000
(1655542638.790428) can0 201#06000000400D0300
(1655542638.790671) can0 6D0#2C00000460000068
(1655542638.790788) can0 080#00
(1655542638.791001) can0 181#A10000000000
(1655542638.791204) can0 281#001B38040000
(1655542638.791410) can0 381#79020C000700
(1655542638.793395) can0 601#406C600000000000
(1655542638.793771) can0 581#436C600000000000
(1655542638.795858) can0 200#05009B009B000000
(1655542638.798169) can0 201#06000000400D0300
(1655542638.798381) can0 001#000004600000
(1655542638.798496) can0 080#00
(1655542638.798709) can0 181#A10000000000
(1655542638.798916) can0 281#001B38040000
(1655542638.799119) can0 381#79020C000700
(1655542638.801880) can0 601#403F600000000000
(1655542638.802256) can0 581#4B3F600000000000
(1655542638.806018) can0 201#06000000400D0300
(1655542638.806249) can0 001#000004600000
(1655542638.806364) can0 080#00
(1655542638.806587) can0 181#A10000000000
(1655542638.806784) can0 281#001B38040000
(1655542638.806988) can0 381#79020C000700
(1655542638.812879) can0 601#406C600000000000
(1655542638.813361) can0 581#436C600000000000
(1655542638.814041) can0 201#06000000400D0300
(1655542638.814250) can0 001#000004600000
(1655542638.814366) can0 080#00
(1655542638.814581) can0 181#A10000000000
(1655542638.814784) can0 281#001B38040000
(1655542638.814988) can0 381#79020C000700
(1655542638.815232) can0 6D0#2D00000460001982
(1655542638.821648) can0 201#06000000400D0300
(1655542638.821818) can0 080#00
(1655542638.822045) can0 181#A10000000000
(1655542638.822256) can0 001#000004600000
(1655542638.822466) can0 281#001B38040000
(1655542638.822669) can0 381#79020C000700
(1655542638.829512) can0 201#06000000400D0300
(1655542638.829652) can0 080#00
(1655542638.829910) can0 181#A10000000000
(1655542638.830114) can0 281#001B38040000
(1655542638.830328) can0 001#000004600000
(1655542638.830529) can0 381#79020C000700
(1655542638.830777) can0 6D0#2E000004600065CF
(1655542638.831689) can0 601#406C600000000000
(1655542638.832077) can0 581#436C600000000000
(1655542638.832321) can0 601#4026200100000000
(1655542638.832552) can0 601#8026200130000906
(1655542638.832792) can0 581#4F2620011B000000
(1655542638.837232) can0 201#06000000400D0300
(1655542638.837399) can0 080#00
(1655542638.837659) can0 181#A10000000000
(1655542638.837862) can0 281#001B38040000
(1655542638.838066) can0 381#79020C000700
(1655542638.838281) can0 001#000004600000
(1655542638.840277) can0 080#051800A1
(1655542638.840565) can0 1838F380#00001A00181A0006
(1655542638.840846) can0 1839F380#00181A1804000695
(1655542638.842485) can0 18EEFF80#F30080F300401E90
(1655542638.845034) can0 201#06000000400D0300
(1655542638.845210) can0 080#00
(1655542638.845464) can0 181#A10000000000
(1655542638.845673) can0 281#001B38040000
(1655542638.845877) can0 381#79020C000700
(1655542638.846188) can0 001#000004600000
(1655542638.846427) can0 6D0#2F00000460006BD6
(1655542638.849769) can0 601#406C600000000000
(1655542638.850157) can0 581#436C600000000000
(1655542638.852850) can0 201#06000000400D0300
(1655542638.853020) can0 080#00
(1655542638.853280) can0 181#A10000000000
(1655542638.853484) can0 281#001B38040000
(1655542638.853689) can0 381#79020C000700
(1655542638.854250) can0 001#000004600000
(1655542638.854493) can0 6D0#300000046000016D
(1655542638.860703) can0 201#06000000400D0300
(1655542638.860870) can0 080#00
(1655542638.861104) can0 181#A10000000000
(1655542638.861308) can0 281#001B38040000
(1655542638.861514) can0 381#79020C000700
(1655542638.862177) can0 001#000004600000
(1655542638.862421) can0 6D0#310000046000006D
(1655542638.864414) can0 601#4026200200000000
(1655542638.864777) can0 581#4F26200222000000
(1655542638.868505) can0 201#06000000400D0300
(1655542638.868647) can0 080#00
(1655542638.868903) can0 181#A10000000000
(1655542638.869112) can0 281#001B38040000
(1655542638.869312) can0 381#79020C000700
(1655542638.870188) can0 001#000004600000
(1655542638.870761) can0 601#406C600000000000
(1655542638.871141) can0 581#436C600000000000
(1655542638.876285) can0 201#06000000400D0300
(1655542638.876448) can0 080#00
(1655542638.876705) can0 181#A10000000000
(1655542638.876912) can0 281#001B38040000
(1655542638.877118) can0 381#79020C000700
(1655542638.878254) can0 001#000004600000
(1655542638.884131) can0 201#06000000400D0300
(1655542638.884303) can0 080#00
(1655542638.884529) can0 181#A10000000000
(1655542638.884739) can0 281#001B38040000
(1655542638.884941) can0 381#79020A000700
(1655542638.886180) can0 001#000004600000
(1655542638.886427) can0 6D0#32000004609B9EA7
(1655542638.890367) can0 601#406C600000000000
(1655542638.891470) can0 581#436C600000000000
(1655542638.892188) can0 201#06000000400D0300
(1655542638.892359) can0 080#00
(1655542638.892586) can0 181#A10000000000
(1655542638.892791) can0 281#001B38040000
(1655542638.892997) can0 381#79020C000700
(1655542638.894256) can0 001#000004600000
(1655542638.894496) can0 6D0#33000004609CF500
(1655542638.896288) can0 601#4026200600000000
(1655542638.896653) can0 581#4F26200600000000
(1655542638.899743) can0 201#06000000400D0300
(1655542638.899886) can0 080#00
(1655542638.900152) can0 181#A10000000000
(1655542638.900359) can0 281#001B38040000
(1655542638.900564) can0 381#79020C000700
(1655542638.902175) can0 001#000004600000
(1655542638.902418) can0 6D0#34000004609C4C58
(1655542638.907579) can0 201#06000000400D0300
(1655542638.907738) can0 080#00
(1655542638.907964) can0 181#A10000000000
(1655542638.908168) can0 281#001B38040000
(1655542638.908373) can0 381#79020C000700
(1655542638.910247) can0 001#000004600000
(1655542638.910798) can0 601#406C600000000000
(1655542638.911179) can0 581#436C600000000000
(1655542638.915373) can0 201#06000000400D0300
(1655542638.915511) can0 080#00
(1655542638.915768) can0 181#A10000000000
(1655542638.915971) can0 281#001B38040000
(1655542638.916174) can0 381#79020C000700
(1655542638.918177) can0 001#000004600000
(1655542638.918410) can0 6D0#35000004609B9DA9
(1655542638.923145) can0 201#06000000400D0300
(1655542638.923327) can0 080#00
(1655542638.923580) can0 181#A10000000000
(1655542638.923780) can0 281#001B38040000
(1655542638.923985) can0 381#79020C000700
(1655542638.926261) can0 001#000004600000
(1655542638.926498) can0 6D0#36000004609CF503
(1655542638.927526) can0 601#4026200300000000
(1655542638.927882) can0 581#4B26200300000000
(1655542638.930536) can0 601#406C600000000000
(1655542638.931068) can0 201#06000000400D0300
(1655542638.931384) can0 581#436C600000000000
(1655542638.931550) can0 080#00
(1655542638.931761) can0 181#A10000000000
(1655542638.931963) can0 281#001B38040000
(1655542638.932175) can0 381#79020C000700
(1655542638.934180) can0 001#000004600000
(1655542638.934414) can0 6D0#37000004609C4C5B
(1655542638.938767) can0 201#06000000400D0300
(1655542638.938935) can0 080#00
(1655542638.939196) can0 181#A10000000000
(1655542638.939412) can0 281#001B38040000
(1655542638.939609) can0 381#79020C000700
(1655542638.940266) can0 080#061A00A4
(1655542638.940551) can0 1838F380#00031903181A0006
(1655542638.940835) can0 1839F380#00181A1804000695
(1655542638.942172) can0 001#000004600000
(1655542638.946583) can0 201#06000000400D0300
(1655542638.946752) can0 080#00
(1655542638.946976) can0 181#A10000000000
(1655542638.947183) can0 281#001B38040000
(1655542638.947397) can0 381#79020C000700
(1655542638.950249) can0 001#000004600000
(1655542638.950976) can0 601#406C600000000000
(1655542638.951379) can0 581#436C600000000000
(1655542638.954428) can0 201#06000000400D0300
(1655542638.954580) can0 080#00
(1655542638.954824) can0 181#A10000000000
(1655542638.955031) can0 281#001B38040000
(1655542638.955233) can0 381#79020C000700
(1655542638.958179) can0 001#000004600000
(1655542638.958416) can0 601#4026200400000000
(1655542638.958654) can0 6D0#380000046000289C
(1655542638.958896) can0 581#4B26200400000000
(1655542638.962236) can0 201#06000000400D0300
(1655542638.962374) can0 080#00
(1655542638.962631) can0 181#A10000000000
(1655542638.962838) can0 281#001B38040000
(1655542638.963042) can0 381#79020C000700
(1655542638.966240) can0 001#000004600000
(1655542638.966479) can0 6D0#39000004600071E6
(1655542638.970016) can0 201#06000000400D0300
(1655542638.970192) can0 080#00
(1655542638.970448) can0 181#A10000000000
(1655542638.970653) can0 281#001B38040000
(1655542638.970858) can0 381#79020C000700
(1655542638.971701) can0 601#406C600000000000
(1655542638.972080) can0 581#436C600000000000
(1655542638.974174) can0 001#000004600000
(1655542638.974414) can0 6D0#3A00000460004EC4
(1655542638.977826) can0 201#06000000400D0300
(1655542638.978007) can0 080#00
(1655542638.978254) can0 181#A10000000000
(1655542638.978461) can0 281#001B38040000
(1655542638.978665) can0 381#79020C000700
(1655542638.982240) can0 001#000004600000
(1655542638.985632) can0 201#06000000400D0300
(1655542638.985805) can0 080#00
(1655542638.986030) can0 181#A10000000000
(1655542638.986238) can0 281#001B38040000
(1655542638.986443) can0 381#79020C000700
(1655542638.989894) can0 601#4026200500000000
(1655542638.990176) can0 001#000004600000
(1655542638.990418) can0 581#4B26200500000000
(1655542638.990652) can0 6D0#3B00000460A4102B
(1655542638.992622) can0 601#406C600000000000
(1655542638.993005) can0 581#436C600000000000
(1655542638.993727) can0 201#06000000400D0300
(1655542638.993866) can0 080#00
(1655542638.994137) can0 181#A10000000000
(1655542638.994336) can0 281#001B38040000
(1655542638.994570) can0 381#79020C000700
(1655542638.998252) can0 001#000004600000
(1655542638.998489) can0 6D0#3C0000046061A881
(1655542639.001254) can0 201#06000000400D0300
(1655542639.001426) can0 080#00
(1655542639.001653) can0 181#A10000000000
(1655542639.001857) can0 281#001B38040000
(1655542639.002071) can0 381#79020C000700
(1655542639.006170) can0 001#000004600000
(1655542639.006417) can0 6D0#3D00000460002AA3
(1655542639.009063) can0 201#06000000400D0300
(1655542639.009237) can0 080#00
(1655542639.009475) can0 181#A10000000000
(1655542639.009672) can0 281#001B38040000
(1655542639.009887) can0 381#79020C000700
(1655542639.011861) can0 601#406C600000000000
(1655542639.012248) can0 581#436C600000000000
(1655542639.014182) can0 001#000004600000
(1655542639.016876) can0 201#06000000400D0300
(1655542639.017052) can0 080#00
(1655542639.017309) can0 181#A10000000000
(1655542639.017514) can0 281#001B38040000
(1655542639.017717) can0 381#79020C000700
(1655542639.021094) can0 601#4025200000000000
(1655542639.021498) can0 581#4F25200000000000
(1655542639.022239) can0 001#000004600000
(1655542639.024687) can0 201#06000000400D0300
(1655542639.024866) can0 080#00
(1655542639.025122) can0 181#A10000000000
(1655542639.025327) can0 281#001B38040000
(1655542639.025532) can0 381#79020C000700
(1655542639.030174) can0 001#000004600000
(1655542639.030418) can0 6D0#3E0000046000047E
(1655542639.032014) can0 601#406C600000000000
(1655542639.032680) can0 201#06000000400D0300
(1655542639.032993) can0 581#436C600000000000
(1655542639.033159) can0 080#00
(1655542639.033369) can0 181#A10000000000
(1655542639.033586) can0 281#001B38040000
(1655542639.033779) can0 381#79020C000700
(1655542639.038250) can0 001#000004600000
(1655542639.040325) can0 080#051800A1
(1655542639.040573) can0 201#06000000400D0300
(1655542639.040693) can0 080#00
(1655542639.040967) can0 18EEFF80#F30080F300401E90
(1655542639.041182) can0 181#A10000000000
(1655542639.041387) can0 281#001B38040000
(1655542639.041591) can0 381#79020C000700
(1655542639.041874) can0 1838F380#00061806181A0006
(1655542639.042158) can0 1839F380#00181A1804000695
(1655542639.046168) can0 001#000004600000
(1655542639.046416) can0 6D0#3F00000460002AA5
(1655542639.048305) can0 201#06000000400D0300
(1655542639.048462) can0 080#00
(1655542639.048714) can0 181#A10000000000
(1655542639.048904) can0 281#001B38040000
(1655542639.049100) can0 381#79020C000700
(1655542639.051485) can0 601#4026200700000000
(1655542639.051714) can0 601#406C600000000000
(1655542639.051962) can0 581#4F26200700000000
(1655542639.052206) can0 581#436C600000000000
(1655542639.054242) can0 001#000004600000
(1655542639.056051) can0 201#06000000400D0300
(1655542639.056225) can0 080#00
(1655542639.056451) can0 181#A10000000000
(1655542639.056657) can0 281#001B38040000
(1655542639.056862) can0 381#79020C000700
(1655542639.062168) can0 001#000004600000
(1655542639.062419) can0 6D0#4000000460000480
(1655542639.063911) can0 201#06000000400D0300
(1655542639.064088) can0 080#00
(1655542639.064317) can0 181#A10000000000
(1655542639.064522) can0 281#001B38040000
(1655542639.064729) can0 381#79020C000700
(1655542639.070251) can0 001#000004600000
(1655542639.070490) can0 6D0#4100000460000784
(1655542639.071729) can0 201#06000000400D0300
(1655542639.071900) can0 080#00
(1655542639.072129) can0 181#A10000000000
(1655542639.072335) can0 281#001B38040000
(1655542639.072540) can0 381#79020C000700
(1655542639.073672) can0 601#406C600000000000
(1655542639.074057) can0 581#436C600000000000
(1655542639.078181) can0 001#000004600000
(1655542639.078409) can0 6D0#4200000460000F8D
(1655542639.079542) can0 201#06000000400D0300
(1655542639.079712) can0 080#00
(1655542639.079943) can0 181#A10000000000
(1655542639.080150) can0 281#001B38040000
(1655542639.080351) can0 381#79020A000700
(1655542639.083081) can0 601#4054200000000000
(1655542639.083445) can0 581#4B54200078000000
(1655542639.086164) can0 001#000004600000
(1655542639.087291) can0 201#06000000400D0300
(1655542639.087461) can0 080#00
(1655542639.087690) can0 181#A10000000000
(1655542639.087895) can0 281#001B38040000
(1655542639.088098) can0 381#79020C000700
(1655542639.093413) can0 601#406C600000000000
(1655542639.094250) can0 001#000004600000
(1655542639.094606) can0 581#436C600000000000
(1655542639.095340) can0 201#06000000400D0300
(1655542639.095514) can0 080#00
(1655542639.095737) can0 181#A10000000000
(1655542639.095946) can0 281#001B38040000
(1655542639.096147) can0 381#79020C000700
(1655542639.102165) can0 001#000004600000
(1655542639.102405) can0 6D0#430000046001D454
(1655542639.102973) can0 201#06000000400D0300
(1655542639.103149) can0 080#00
(1655542639.103375) can0 181#A10000000000
(1655542639.103585) can0 281#001B38040000
(1655542639.103788) can0 381#79020C000700
(1655542639.110237) can0 001#000004600000
(1655542639.110708) can0 201#06000000400D0300
(1655542639.110852) can0 080#00
(1655542639.111115) can0 181#A10000000000
(1655542639.111325) can0 281#001B38040000
(1655542639.111524) can0 381#79020C000700
(1655542639.114157) can0 601#406C600000000000
(1655542639.114506) can0 601#4070200100000000
(1655542639.114748) can0 581#436C600000000000
(1655542639.114992) can0 581#4B70200179020000
(1655542639.115247) can0 601#8070200130000906
(1655542639.118178) can0 001#000004600000
(1655542639.118527) can0 201#06000000400D0300
(1655542639.118699) can0 080#00
(1655542639.118927) can0 181#A10000000000
(1655542639.119133) can0 281#001B38040000
(1655542639.119334) can0 381#79020C000700
(1655542639.126163) can0 001#000004600000
(1655542639.126411) can0 201#06000000400D0300
(1655542639.126647) can0 6D0#44000004600233B5
(1655542639.126761) can0 080#00
(1655542639.126974) can0 181#A10000000000
(1655542639.127181) can0 281#001B38040000
(1655542639.127386) can0 381#79020A000700
(1655542639.131080) can0 601#4027200000000000
(1655542639.131454) can0 581#4B27200000000000
(1655542639.133724) can0 601#406C600000000000
(1655542639.134155) can0 201#06000000400D0300
(1655542639.134369) can0 001#000004600000
(1655542639.134613) can0 581#436C600000000000
(1655542639.134725) can0 080#00
(1655542639.134933) can0 181#A10000000000
(1655542639.135142) can0 281#001B38040000
(1655542639.135351) can0 381#79020C000700
(1655542639.140275) can0 080#061A00A4
(1655542639.140560) can0 1838F380#000B180B181A0006
(1655542639.140844) can0 1839F380#00181A1804000695
(1655542639.142164) can0 001#000004600000
(1655542639.142418) can0 201#06000000400D0300
(1655542639.142648) can0 6D0#450000046000A627
(1655542639.142763) can0 080#00
(1655542639.142973) can0 181#A10000000000
(1655542639.143181) can0 281#001B38040000
(1655542639.143385) can0 381#79020C000700
(1655542639.149679) can0 201#06000000400D0300
(1655542639.149839) can0 080#00
(1655542639.150107) can0 181#A10000000000
(1655542639.150311) can0 001#000004600000
(1655542639.150518) can0 281#001B38040000
(1655542639.150724) can0 381#79020C000700
(1655542639.153422) can0 601#406C600000000000
(1655542639.153808) can0 581#436C600000000000
(1655542639.157492) can0 201#06000000400D0300
(1655542639.157653) can0 080#00
(1655542639.157911) can0 181#A10000000000
(1655542639.158114) can0 281#001B38040000
(1655542639.158327) can0 001#000004600000
(1655542639.158531) can0 381#79020C000700
(1655542639.158774) can0 6D0#4600000460007AFC
(1655542639.161490) can0 601#403F600000000000
(1655542639.161858) can0 581#4B3F600000000000
(1655542639.165324) can0 201#06000000400D0300
(1655542639.165462) can0 080#00
(1655542639.165720) can0 181#A10000000000
(1655542639.165926) can0 281#001B38040000
(1655542639.166131) can0 381#79020C000700
(1655542639.166340) can0 001#000004600000
(1655542639.173101) can0 201#06000000400D0300
(1655542639.173272) can0 080#00
(1655542639.173530) can0 181#A10000000000
(1655542639.173735) can0 281#001B38040000
(1655542639.173939) can0 381#79020C000700
(1655542639.174236) can0 001#000004600000
(1655542639.175079) can0 601#406C600000000000
(1655542639.175452) can0 581#436C600000000000
(1655542639.180968) can0 201#06000000400D0300
(1655542639.181140) can0 080#00
(1655542639.181369) can0 181#A10000000000
(1655542639.181572) can0 281#001B38040000
(1655542639.181779) can0 381#79020C000700
(1655542639.182161) can0 001#000004600000
(1655542639.182398) can0 6D0#470000046008008B
(1655542639.188762) can0 201#06000000400D0300
(1655542639.188934) can0 080#00
(1655542639.189170) can0 181#A10000000000
(1655542639.189373) can0 281#001B38040000
(1655542639.189575) can0 381#79020C000700
(1655542639.190239) can0 001#000004600000
(1655542639.190479) can0 6D0#480000046008008C
(1655542639.193423) can0 601#4026200100000000
(1655542639.193790) can0 581#4F2620011B000000
(1655542639.194876) can0 601#406C600000000000
(1655542639.196091) can0 581#436C600000000000
(1655542639.196817) can0 201#06000000400D0300
(1655542639.196952) can0 080#00
(1655542639.197222) can0 181#A10000000000
(1655542639.197421) can0 281#001B38040000
(1655542639.197623) can0 381#79020C000700
(1655542639.198169) can0 001#000004600000
(1655542639.198409) can0 6D0#4900000460000085
(1655542639.204388) can0 201#06000000400D0300
(1655542639.204586) can0 080#00
(1655542639.204790) can0 181#A10000000000
(1655542639.204995) can0 281#001B38040000
(1655542639.205197) can0 381#79020C000700
(1655542639.206228) can0 001#000004600000
(1655542639.206468) can0 6D0#4A00000460081DAB
(1655542639.212206) can0 201#06000000400D0300
(1655542639.212370) can0 080#00
(1655542639.212597) can0 181#A10000000000
(1655542639.212803) can0 281#001B38040000
(1655542639.213006) can0 381#79020C000700
(1655542639.214165) can0 001#000004600000
(1655542639.214402) can0 6D0#4B0000046010039A
(1655542639.215335) can0 601#406C600000000000
(1655542639.215729) can0 581#436C600000000000
(1655542639.220006) can0 201#06000000400D0300
(1655542639.220178) can0 080#00
(1655542639.220408) can0 181#A10000000000
(1655542639.220615) can0 281#001B38040000
(1655542639.220817) can0 381#79020C000700
(1655542639.222238) can0 001#000004600000
(1655542639.222478) can0 6D0#4C00000460089828
(1655542639.224401) can0 601#4026200200000000
(1655542639.224765) can0 581#4F26200222000000
(1655542639.227811) can0 201#06000000400D0300
(1655542639.227956) can0 080#00
(1655542639.228216) can0 181#A10000000000
(1655542639.228423) can0 281#001B38040000
(1655542639.228628) can0 381#79020C000700
(1655542639.230157) can0 001#000004600000
(1655542639.230398) can0 6D0#4D00000460076CFC
(1655542639.235637) can0 201#06000000400D0300
(1655542639.235874) can0 601#406C600000000000
(1655542639.235997) can0 080#00
(1655542639.236220) can0 181#A10000000000
(1655542639.236427) can0 281#001B38040000
(1655542639.236630) can0 381#79020C000700
(1655542639.236873) can0 581#436C600000000000
(1655542639.238176) can0 001#000004600000
(1655542639.240277) can0 080#051800A1
(1655542639.240575) can0 1838F380#00001A00181A0006
(1655542639.240853) can0 1839F380#00181A1804000695
(1655542639.242476) can0 18EEFF80#F30080F300401E90
(1655542639.243506) can0 201#06000000400D0300
(1655542639.243676) can0 080#00
(1655542639.243906) can0 181#A10000000000
(1655542639.244111) can0 281#001B38040000
(1655542639.244313) can0 381#7A020C000700
(1655542639.246229) can0 001#000004600000
(1655542639.251210) can0 201#06000000400D0300
(1655542639.251387) can0 080#00
(1655542639.251643) can0 181#A10000000000
(1655542639.251857) can0 281#001B38040000
(1655542639.252055) can0 381#79020C000700
(1655542639.254161) can0 001#000004600000
(1655542639.254401) can0 6D0#4E0000046000018B
(1655542639.255289) can0 601#4026200600000000
(1655542639.255653) can0 581#4F26200600000000
(1655542639.256859) can0 601#406C600000000000
(1655542639.258584) can0 581#436C600000000000
(1655542639.259302) can0 201#06000000400D0300
(1655542639.259445) can0 080#00
(1655542639.259702) can0 181#A10000000000
(1655542639.259909) can0 281#001B38040000
(1655542639.260110) can0 381#79020C000700
(1655542639.262242) can0 001#000004600000
(1655542639.262474) can0 6D0#4F0000046090E1FC
(1655542639.266833) can0 201#06000000400D0300
(1655542639.267006) can0 080#00
(1655542639.267271) can0 181#A10000000000
(1655542639.267473) can0 281#001B38040000
(1655542639.267676) can0 381#79020C000700
(1655542639.270157) can0 001#000004600000
(1655542639.270395) can0 6D0#50000004604F310C
(1655542639.274644) can0 201#06000000400D0300
(1655542639.274813) can0 080#00
(1655542639.275052) can0 181#A10000000000
(1655542639.275249) can0 281#001B38040000
(1655542639.275464) can0 381#79020C000700
(1655542639.278232) can0 001#000004600000
(1655542639.278463) can0 601#406C600000000000
(1655542639.278855) can0 581#436C600000000000
(1655542639.282494) can0 201#06000000400D0300
(1655542639.282633) can0 080#00
(1655542639.282891) can0 181#A10000000000
(1655542639.283096) can0 281#001B38040000
(1655542639.283298) can0 381#79020C000700
(1655542639.286157) can0 001#000004600000
(1655542639.286394) can0 6D0#51000004602131DF
(1655542639.287341) can0 601#4025200000000000
(1655542639.287736) can0 581#4F25200000000000
(1655542639.290302) can0 201#06000000400D0300
(1655542639.290443) can0 080#00
(1655542639.290707) can0 181#A10000000000
(1655542639.290909) can0 281#001B38040000
(1655542639.291110) can0 381#79020C000700
(1655542639.294240) can0 001#000004600000
(1655542639.298089) can0 201#06000000400D0300
(1655542639.298253) can0 080#00
(1655542639.298519) can0 181#A10000000000
(1655542639.298710) can0 281#001B38040000
(1655542639.298921) can0 381#79020C000700
(1655542639.299155) can0 601#406C600000000000
(1655542639.299561) can0 581#436C600000000000
(1655542639.302165) can0 001#000004600000
(1655542639.302399) can0 6D0#520000046000008E
(1655542639.305894) can0 201#06000000400D0300
(1655542639.306065) can0 080#00
(1655542639.306321) can0 181#A10000000000
(1655542639.306534) can0 281#001B38040000
(1655542639.306736) can0 381#79020C000700
(1655542639.310166) can0 001#000004600000
(1655542639.313705) can0 201#06000000400D0300
(1655542639.313876) can0 080#00
(1655542639.314129) can0 181#A10000000000
(1655542639.314335) can0 281#001B38040000
(1655542639.314564) can0 381#79020C000700
(1655542639.317436) can0 601#406C600000000000
(1655542639.317824) can0 581#436C600000000000
(1655542639.318227) can0 001#000004600000
(1655542639.318477) can0 601#4026200100000000
(1655542639.318853) can0 581#4F2620011B000000
(1655542639.321549) can0 201#06000000400D0300
(1655542639.321694) can0 080#00
(1655542639.321943) can0 181#A10000000000
(1655542639.322151) can0 281#001B38040000
(1655542639.322356) can0 381#79020C000700
(1655542639.326164) can0 001#000004600000
(1655542639.326400) can0 6D0#530000046000008F
(1655542639.329326) can0 201#06000000400D0300
(1655542639.329490) can0 080#00
(1655542639.329720) can0 181#A10000000000
(1655542639.329925) can0 281#001B38040000
(1655542639.330129) can0 381#79020C000700
(1655542639.334234) can0 001#000004600000
(1655542639.335319) can0 601#406C600000000000
(1655542639.336692) can0 581#436C600000000000
(1655542639.337383) can0 201#06000000400D0300
(1655542639.337551) can0 080#00
(1655542639.337808) can0 181#A10000000000
(1655542639.338013) can0 281#001B38040000
(1655542639.338218) can0 381#79020C000700
(1655542639.340272) can0 080#061A00A4
(1655542639.340555) can0 1838F380#00031903181A0006
(1655542639.340836) can0 1839F380#00181A1804000695
(1655542639.342156) can0 001#000004600000
(1655542639.342390) can0 6D0#54000004600236C8
(1655542639.344945) can0 201#06000000400D0300
(1655542639.345118) can0 080#00
(1655542639.345376) can0 181#A10000000000
(1655542639.345583) can0 281#001B38040000
(1655542639.345789) can0 381#79020C000700
(1655542639.350235) can0 001#000004600000
(1655542639.350478) can0 601#4026200300000000
(1655542639.352215) can0 581#4B26200300000000
(1655542639.352919) can0 201#06000000400D0300
(1655542639.353096) can0 080#00
(1655542639.353325) can0 181#A10000000000
(1655542639.353531) can0 281#001B38040000
(1655542639.353733) can0 381#79020C000700
(1655542639.354971) can0 601#406C600000000000
(1655542639.355357) can0 581#436C600000000000
(1655542639.358165) can0 001#000004600000
(1655542639.358398) can0 6D0#5500000460000091
(1655542639.360670) can0 201#06000000400D0300
(1655542639.360804) can0 080#00
(1655542639.361072) can0 181#A10000000000
(1655542639.361275) can0 281#001B38040000
(1655542639.361477) can0 381#79020C000700
(1655542639.366220) can0 001#000004600000
(1655542639.366463) can0 6D0#5600000460000092
(1655542639.368548) can0 201#06000000400D0300
(1655542639.368717) can0 080#00
(1655542639.368944) can0 181#A10000000000
(1655542639.369152) can0 281#001B38040000
(1655542639.369354) can0 381#79020C000700
(1655542639.373626) can0 601#406C600000000000
(1655542639.374029) can0 581#436C600000000000
(1655542639.374242) can0 001#000004600000
(1655542639.374488) can0 6D0#5700000460000093
(1655542639.376362) can0 201#06000000400D0300
(1655542639.376531) can0 080#00
(1655542639.376759) can0 181#A10000000000
(1655542639.376965) can0 281#001B38040000
(1655542639.377174) can0 381#79020C000700
(1655542639.381259) can0 601#4026200400000000
(1655542639.381651) can0 581#4B26200400000000
(1655542639.382160) can0 001#000004600000
(1655542639.384116) can0 201#06000000400D0300
(1655542639.384287) can0 080#00
(1655542639.384514) can0 181#A10000000000
(1655542639.384721) can0 281#001B38040000
(1655542639.384927) can0 381#79020C000700
(1655542639.390229) can0 001#000004600000
(1655542639.391918) can0 201#06000000400D0300
(1655542639.392097) can0 080#00
(1655542639.392324) can0 181#A10000000000
(1655542639.392526) can0 281#001B38040000
(1655542639.392727) can0 381#79020C000700
(1655542639.392966) can0 601#406C600000000000
(1655542639.393373) can0 581#436C600000000000
(1655542639.398155) can0 001#000004600000
(1655542639.398393) can0 6D0#5800000460FFD86B
(1655542639.399804) can0 201#06000000400D0300
(1655542639.399980) can0 080#00
(1655542639.400247) can0 181#A10000000000
(1655542639.400449) can0 281#001B38040000
(1655542639.400648) can0 381#79020C000700
(1655542639.406220) can0 001#000004600000
(1655542639.406463) can0 6D0#5900000460000095
(1655542639.407603) can0 201#06000000400D0300
(1655542639.407771) can0 080#00
(1655542639.407997) can0 181#A10000000000
(1655542639.408204) can0 281#001B38040000
(1655542639.408409) can0 381#79020C000700
(1655542639.412262) can0 601#406C600000000000
(1655542639.412516) can0 601#4026200500000000
(1655542639.412756) can0 581#436C600000000000
(1655542639.412995) can0 581#4B26200500000000
(1655542639.413232) can0 601#8026200530000906
(1655542639.414161) can0 001#000004600000
(1655542639.414394) can0 6D0#5A00000460000096
(1655542639.415494) can0 201#06000000400D0300
(1655542639.415658) can0 080#00
(1655542639.415899) can0 181#A10000000000
(1655542639.416098) can0 281#001B38040000
(1655542639.416295) can0 381#79020C000700
(1655542639.422232) can0 001#000004600000
(1655542639.422462) can0 6D0#5B00000460000097
(1655542639.423235) can0 201#06000000400D0300
(1655542639.423406) can0 080#00
(1655542639.423634) can0 181#A10000000000
(1655542639.423841) can0 281#001B38040000
(1655542639.424051) can0 381#79020C000700
(1655542639.430168) can0 001#000004600000
(1655542639.430398) can0 6D0#5C00000460000098
(1655542639.431047) can0 201#06000000400D0300
(1655542639.431219) can0 080#00
(1655542639.431478) can0 181#A10000000000
(1655542639.431683) can0 281#001B38040000
(1655542639.431893) can0 381#79020C000700
(1655542639.432966) can0 601#406C600000000000
(1655542639.433350) can0 581#436C600000000000
(1655542639.438227) can0 001#000004600000
(1655542639.438462) can0 6D0#5D00000460000099
(1655542639.438856) can0 201#06000000400D0300
(1655542639.439045) can0 080#00
(1655542639.439291) can0 181#A10000000000
(1655542639.439496) can0 281#001B38040000
(1655542639.439701) can0 381#79020C000700
(1655542639.440315) can0 080#051800A1
(1655542639.440608) can0 1838F380#00061806181A0006
(1655542639.440886) can0 1839F380#00181A1804000695
(1655542639.441164) can0 18EEFF80#F30080F300401E90
(1655542639.443458) can0 601#4026200700000000
(1655542639.443831) can0 581#4F26200700000000
(1655542639.446151) can0 001#000004600000
(1655542639.446396) can0 6D0#5E0000046000009A
(1655542639.446648) can0 201#06000000400D0300
(1655542639.446836) can0 080#00
(1655542639.447101) can0 181#A10000000000
(1655542639.447305) can0 281#001B38040000
(1655542639.447512) can0 381#79020C000700
(1655542639.452093) can0 601#406C600000000000
(1655542639.453852) can0 581#436C600000000000
(1655542639.454155) can0 001#000004600000
(1655542639.454609) can0 201#06000000400D0300
(1655542639.454782) can0 080#00
(1655542639.455036) can0 181#A10000000000
(1655542639.455253) can0 281#001B38040000
(1655542639.455445) can0 381#79020C000700
(1655542639.462111) can0 201#06000000400D0300
(1655542639.462322) can0 001#000004600000
(1655542639.462437) can0 080#00
(1655542639.462650) can0 181#A10000000000
(1655542639.462855) can0 281#001B38040000
(1655542639.463059) can0 381#79020C000700
(1655542639.469933) can0 201#06000000400D0300
(1655542639.470167) can0 001#000004600000
(1655542639.470280) can0 080#00
(1655542639.470480) can0 181#A10000000000
(1655542639.470683) can0 281#001B38040000
(1655542639.470889) can0 381#79020C000700
(1655542639.471126) can0 601#406C600000000000
(1655542639.471378) can0 6D0#5F0000046000009B
(1655542639.471619) can0 581#436C600000000000
(1655542639.474401) can0 601#4054200000000000
(1655542639.474776) can0 581#4B54200078000000
(1655542639.477738) can0 201#06000000400D0300
(1655542639.477904) can0 080#00
(1655542639.478167) can0 181#A10000000000
(1655542639.478379) can0 001#000004600000
(1655542639.478598) can0 281#001B38040000
(1655542639.478789) can0 381#79020C000700
(1655542639.479032) can0 6D0#600000046000009C
(1655542639.485621) can0 201#06000000400D0300
(1655542639.485765) can0 080#00
(1655542639.485989) can0 181#A10000000000
(1655542639.486203) can0 001#000004600000
(1655542639.486405) can0 281#001B38040000
(1655542639.486610) can0 381#79020C000700
(1655542639.486852) can0 6D0#610000046000009D
(1655542639.488882) can0 601#406C600000000000
(1655542639.489271) can0 581#436C600000000000
(1655542639.493393) can0 201#06000000400D0300
(1655542639.493531) can0 080#00
(1655542639.493789) can0 181#A10000000000
(1655542639.493992) can0 281#001B38040000
(1655542639.494195) can0 381#79020D000700
(1655542639.494407) can0 001#000004600000
(1655542639.501164) can0 201#06000000400D0300
(1655542639.501332) can0 080#00
(1655542639.501563) can0 181#A10000000000
(1655542639.501768) can0 281#001B38040000
(1655542639.501973) can0 381#79020C000700
(1655542639.502186) can0 001#000004600000
(1655542639.502425) can0 6D0#620000046000009E
(1655542639.505540) can0 601#4070200100000000
(1655542639.505913) can0 581#4B70200179020000
(1655542639.509017) can0 201#06000000400D0300
(1655542639.509195) can0 080#00
(1655542639.509426) can0 601#406C600000000000
(1655542639.509650) can0 181#A10000000000
(1655542639.509852) can0 281#001B38040000
(1655542639.510062) can0 381#79020C000700
(1655542639.510272) can0 001#000004600000
(1655542639.510511) can0 581#436C600000000000
(1655542639.516839) can0 201#06000000400D0300
(1655542639.517010) can0 080#00
(1655542639.517238) can0 181#A10000000000
(1655542639.517449) can0 281#001B38040000
(1655542639.517649) can0 381#79020C000700
(1655542639.518174) can0 001#000004600000
(1655542639.518388) can0 6D0#630000046000009F
(1655542639.524652) can0 201#06000000400D0300
(1655542639.524812) can0 080#00
(1655542639.525038) can0 181#A10000000000
(1655542639.525246) can0 281#001B38040000
(1655542639.525454) can0 381#79020C000700
(1655542639.526151) can0 001#000004600000
(1655542639.527254) can0 601#406C600000000000
(1655542639.527632) can0 581#436C600000000000
(1655542639.532419) can0 201#06000000400D0300
(1655542639.532582) can0 080#00
(1655542639.532838) can0 181#A10000000000
(1655542639.533046) can0 281#001B38040000
(1655542639.533250) can0 381#79020C000700
(1655542639.534215) can0 001#000004600000
(1655542639.536906) can0 601#4027200000000000
(1655542639.537274) can0 581#4B27200000000000
(1655542639.540259) can0 201#06000000400D0300
(1655542639.540540) can0 1838F380#000B180B181A0006
(1655542639.540656) can0 080#00
(1655542639.540868) can0 181#A10000000000
(1655542639.541076) can0 281#001B38040000
(1655542639.541277) can0 381#79020C000700
(1655542639.541564) can0 1839F380#00181A1804000695
(1655542639.541728) can0 080#061A00A4
(1655542639.542149) can0 001#000004600000
(1655542639.542396) can0 6D0#64000004600000A0
(1655542639.546377) can0 601#406C600000000000
(1655542639.547591) can0 581#436C600000000000
(1655542639.548310) can0 201#06000000400D0300
(1655542639.548459) can0 080#00
(1655542639.548711) can0 181#A10000000000
(1655542639.548914) can0 281#001B38040000
(1655542639.549126) can0 381#79020C000700
(1655542639.550225) can0 001#000004600000
(1655542639.555889) can0 201#06000000400D0300
(1655542639.556061) can0 080#00
(1655542639.556289) can0 181#A10000000000
(1655542639.556495) can0 281#001B38040000
(1655542639.556698) can0 381#79020A000700
(1655542639.558144) can0 001#000004600000
(1655542639.558384) can0 6D0#65000004600000A1
(1655542639.563698) can0 201#06000000400D0300
(1655542639.563874) can0 080#00
(1655542639.564098) can0 181#A10000000000
(1655542639.564310) can0 281#001B38040000
(1655542639.564515) can0 381#79020C000700
(1655542639.565288) can0 601#406C600000000000
(1655542639.565670) can0 581#436C600000000000
(1655542639.566221) can0 001#000004600000
(1655542639.567352) can0 601#403F600000000000
(1655542639.567723) can0 581#4B3F600000000000
(1655542639.571503) can0 201#06000000400D0300
(1655542639.571637) can0 080#00
(1655542639.571895) can0 181#A10000000000
(1655542639.572102) can0 281#001B38040000
(1655542639.572304) can0 381#7A020C000700
(1655542639.574143) can0 001#000004600000
(1655542639.574385) can0 6D0#66000004600000A2
(1655542639.579278) can0 201#06000000400D0300
(1655542639.579450) can0 080#00
(1655542639.579710) can0 181#A10000000000
(1655542639.579915) can0 281#001B38040000
(1655542639.580117) can0 381#79020C000700
(1655542639.582227) can0 001#000004600000
(1655542639.582465) can0 6D0#6700000460FFFFA1
(1655542639.582953) can0 601#406C600000000000
(1655542639.583346) can0 581#436C600000000000
(1655542639.587125) can0 201#06000000400D0300
(1655542639.587263) can0 080#00
(1655542639.587520) can0 181#A10000000000
(1655542639.587726) can0 281#001B38040000
(1655542639.587929) can0 381#79020C000700
(1655542639.590143) can0 001#000004600000
(1655542639.590382) can0 6D0#6E000004600040EA
(1655542639.594899) can0 201#06000000400D0300
(1655542639.595074) can0 080#00
(1655542639.595330) can0 181#A10000000000
(1655542639.595537) can0 281#001B38040000
(1655542639.595740) can0 381#79020C000700
(1655542639.598149) can0 001#000004600000
(1655542639.599374) can0 601#4080200B00000000
(1655542639.599759) can0 581#4F80200B00000000
(1655542639.602753) can0 201#06000000400D0300
(1655542639.602981) can0 601#406C600000000000
(1655542639.603107) can0 080#00
(1655542639.603333) can0 181#A10000000000
(1655542639.603547) can0 281#001B38040000
(1655542639.603746) can0 381#79020C000700
(1655542639.603988) can0 581#436C600000000000
(1655542639.606216) can0 001#000004600000
(1655542639.610525) can0 201#06000000400D0300
(1655542639.610687) can0 080#00
(1655542639.610946) can0 181#A10000000000
(1655542639.611152) can0 281#001B38040000
(1655542639.611357) can0 381#79020C000700
(1655542639.614141) can0 001#000004600000
(1655542639.614380) can0 6D0#73000004600801B8
(1655542639.618333) can0 201#06000000400D0300
(1655542639.618501) can0 080#00
(1655542639.618757) can0 181#A10000000000
(1655542639.618963) can0 281#001B38040000
(1655542639.619166) can0 381#79020C000700
(1655542639.622223) can0 001#000004600000
(1655542639.623257) can0 601#406C600000000000
(1655542639.623643) can0 581#436C600000000000
(1655542639.626148) can0 201#06000000400D0300
(1655542639.626316) can0 080#00
(1655542639.626578) can0 181#A10000000000
(1655542639.626779) can0 281#001B38040000
(1655542639.626985) can0 381#79020C000700
(1655542639.630143) can0 001#000004600000
(1655542639.630379) can0 6D0#74000004600800B8
(1655542639.633960) can0 201#06000000400D0300
(1655542639.634129) can0 080#00
(1655542639.634388) can0 181#A10000000000
(1655542639.634592) can0 281#001B38040000
(1655542639.634794) can0 381#79020C000700
(1655542639.638226) can0 001#000004600000
(1655542639.640250) can0 080#051800A1
(1655542639.640537) can0 1838F380#00001A00181A0006
(1655542639.640814) can0 18EEFF80#F30080F300401E90
(1655542639.641100) can0 1839F380#00181A1804000695
(1655542639.642196) can0 201#06000000400D0300
(1655542639.642362) can0 080#00
(1655542639.642620) can0 181#A10000000000
(1655542639.642824) can0 281#001B38040000
(1655542639.643030) can0 381#79020C000700
(1655542639.646151) can0 001#000004600000
(1655542639.646387) can0 6D0#75000004600000B1
(1655542639.649439) can0 601#406C600000000000
(1655542639.649696) can0 201#06000000400D0300
(1655542639.649809) can0 080#00
(1655542639.650095) can0 181#A10000000000
(1655542639.650340) can0 581#436C600000000000
(1655542639.650545) can0 281#001B38040000
(1655542639.650744) can0 381#79020C000700
(1655542639.654216) can0 001#000004600000
(1655542639.654453) can0 6D0#76000004600000B2
(1655542639.657382) can0 201#06000000400D0300
(1655542639.657553) can0 080#00
(1655542639.657781) can0 181#A10000000000
(1655542639.657988) can0 281#001B38040000
(1655542639.658191) can0 381#79020C000700
(1655542639.662136) can0 001#000004600000
(1655542639.662383) can0 6D0#77000004600000B3
(1655542639.665206) can0 201#06000000400D0300
(1655542639.665371) can0 080#00
(1655542639.665595) can0 181#A10000000000
(1655542639.665801) can0 281#001B38040000
(1655542639.666006) can0 381#79020C000700
(1655542639.668099) can0 601#406C600000000000
(1655542639.668483) can0 581#436C600000000000
(1655542639.670150) can0 001#000004600000
(1655542639.673013) can0 201#06000000400D0300
(1655542639.673185) can0 080#00
(1655542639.673438) can0 181#A10000000000
(1655542639.673647) can0 281#001B38040000
(1655542639.673852) can0 381#79020C000700
(1655542639.678212) can0 001#000004600000
(1655542639.680822) can0 201#06000000400D0300
(1655542639.680994) can0 080#00
(1655542639.681256) can0 181#A10000000000
(1655542639.681459) can0 281#001B38040000
(1655542639.681662) can0 381#79020C000700
(1655542639.686167) can0 001#000004600000
(1655542639.686379) can0 6D0#78000004600000B4
(1655542639.687010) can0 601#406C600000000000
(1655542639.688189) can0 581#436C600000000000
(1655542639.688922) can0 201#06000000400D0300
(1655542639.689090) can0 080#00
(1655542639.689320) can0 181#A10000000000
(1655542639.689528) can0 281#001B38040000
(1655542639.689731) can0 381#79020C000700
(1655542639.694209) can0 001#000004600000
(1655542639.694448) can0 6D0#79000004600000B5
(1655542639.696555) can0 201#06000000400D0300
(1655542639.696721) can0 080#00
(1655542639.696950) can0 181#A10000000000
(1655542639.697157) can0 281#001B38040000
(1655542639.697366) can0 381#79020C000700
(1655542639.702137) can0 001#000004600000
(1655542639.702381) can0 6D0#7A000004600000B6
(1655542639.704433) can0 201#06000000400D0300
(1655542639.704596) can0 080#00
(1655542639.704823) can0 181#A10000000000
(1655542639.705030) can0 281#001B38040000
(1655542639.705248) can0 381#79020C000700
(1655542639.707143) can0 601#406C600000000000
(1655542639.707531) can0 581#436C600000000000
(1655542639.710221) can0 001#000004600000
(1655542639.712176) can0 201#06000000400D0300
(1655542639.712344) can0 080#00
(1655542639.712576) can0 181#A10000000000
(1655542639.712778) can0 281#001B38040000
(1655542639.712983) can0 381#79020C000700
(1655542639.718135) can0 001#000004600000
(1655542639.718374) can0 6D0#7B000004600003BA
(1655542639.720046) can0 201#06000000400D0300
(1655542639.720221) can0 080#00
(1655542639.720453) can0 181#A10000000000
(1655542639.720657) can0 281#001B38040000
(1655542639.720868) can0 381#79020C000700
(1655542639.725362) can0 601#406C600000000000
(1655542639.726218) can0 001#000004600000
(1655542639.726454) can0 6D0#7C000004600006BE
(1655542639.727183) can0 581#436C600000000000
(1655542639.727974) can0 201#06000000400D0300
(1655542639.728147) can0 080#00
(1655542639.728382) can0 181#A10000000000
(1655542639.728589) can0 281#001B38040000
(1655542639.728787) can0 381#79020C000700
(1655542639.734136) can0 001#000004600000
(1655542639.734385) can0 6D0#7D000004600030E9
(1655542639.735668) can0 201#06000000400D0300
(1655542639.735835) can0 080#00
(1655542639.736068) can0 181#A10000000000
(1655542639.736276) can0 281#001B38040000
(1655542639.736480) can0 381#79020C000700
(1655542639.740268) can0 080#061A00A4
(1655542639.740553) can0 1838F380#00031903181A0006
(1655542639.740829) can0 1839F380#00181A1804000695
(1655542639.742146) can0 001#000004600000
(1655542639.743099) can0 601#406C600000000000
(1655542639.743495) can0 201#06000000400D0300
(1655542639.743803) can0 581#436C600000000000
(1655542639.743964) can0 080#00
(1655542639.744179) can0 181#A10000000000
(1655542639.744387) can0 281#001B38040000
(1655542639.744589) can0 381#79020A000700
(1655542639.750207) can0 001#000004600000
(1655542639.751225) can0 201#06000000400D0300
(1655542639.751395) can0 080#00
(1655542639.751622) can0 181#A10000000000
(1655542639.751828) can0 281#001B38040000
(1655542639.752032) can0 381#79020C000700
(1655542639.758147) can0 001#000004600000
(1655542639.758379) can0 6D0#7E000004600000BA
(1655542639.759149) can0 201#06000000400D0300
(1655542639.759289) can0 080#00
(1655542639.759553) can0 181#A10000000000
(1655542639.759753) can0 281#001B38040000
(1655542639.759960) can0 381#79020C000700
(1655542639.760836) can0 601#406C600000000000
(1655542639.761229) can0 581#436C600000000000
(1655542639.766205) can0 001#000004600000
(1655542639.766857) can0 201#06000000400D0300
(1655542639.767033) can0 080#00
(1655542639.767287) can0 181#A10000000000
(1655542639.767500) can0 281#001B38040000
(1655542639.767700) can0 381#79020C000700
(1655542639.774133) can0 001#000004600000
(1655542639.774370) can0 6D0#7F0000046002EEAB
(1655542639.774736) can0 201#06000000400D0300
(1655542639.774899) can0 080#00
(1655542639.775139) can0 181#A10000000000
(1655542639.775339) can0 281#001B38040000
(1655542639.775541) can0 381#79020D000700
(1655542639.778964) can0 601#406C600000000000
(1655542639.779365) can0 581#436C600000000000
(1655542639.782208) can0 001#000004600000
(1655542639.782448) can0 201#06000000400D0300
(1655542639.782644) can0 080#00
(1655542639.782873) can0 181#A10000000000
(1655542639.783077) can0 281#001B38040000
(1655542639.783282) can0 381#79020C000700
(1655542639.790131) can0 001#000004600000
(1655542639.790379) can0 201#06000000400D0300
(1655542639.790620) can0 6D0#80000004600000BC
(1655542639.790735) can0 080#00
(1655542639.790948) can0 181#A10000000000
(1655542639.791155) can0 281#001B38040000
(1655542639.791361) can0 381#79020C000700
(1655542639.795901) can0 200#05009B009B000000
(1655542639.797585) can0 601#406C600000000000
(1655542639.798169) can0 201#06000000400D0300
(1655542639.798382) can0 001#000004600000
(1655542639.798624) can0 581#436C600000000000
(1655542639.798734) can0 080#00
(1655542639.798941) can0 181#A10000000000
(1655542639.799144) can0 281#001B38040000
(1655542639.799351) can0 381#79020C000700
(1655542639.799592) can0 6D0#0000000460010340
(1655542639.805836) can0 201#06000000400D0300
(1655542639.806009) can0 080#00
(1655542639.806221) can0 001#000004600000
(1655542639.806432) can0 181#A10000000000
(1655542639.806637) can0 281#001B38040000
(1655542639.806844) can0 381#79020C000700
(1655542639.807085) can0 6D0#0100000460060346
(1655542639.813653) can0 201#06000000400D0300
(1655542639.813821) can0 080#00
(1655542639.814052) can0 181#A10000000000
(1655542639.814267) can0 001#000004600000
(1655542639.814472) can0 281#001B38040000
(1655542639.814677) can0 381#79020C000700
(1655542639.816389) can0 601#406C600000000000
(1655542639.816767) can0 581#436C600000000000
(1655542639.821458) can0 201#06000000400D0300
(1655542639.821594) can0 080#00
(1655542639.821852) can0 181#A10000000000
(1655542639.822057) can0 281#001B38040000
(1655542639.822267) can0 001#000004600000
(1655542639.822474) can0 381#79020C000700
(1655542639.829326) can0 201#06000000400D0300
(1655542639.829467) can0 080#00
(1655542639.829731) can0 181#A10000000000
(1655542639.829929) can0 281#001B38040000
(1655542639.830131) can0 381#79020C000700
(1655542639.830356) can0 001#000004600000
(1655542639.830584) can0 6D0#0200000460057ABD
(1655542639.834539) can0 601#406C600000000000
(1655542639.834946) can0 581#436C600000000000
(1655542639.837046) can0 201#06000000400D0300
(1655542639.837219) can0 080#00
(1655542639.837477) can0 181#A10000000000
(1655542639.837685) can0 281#001B38040000
(1655542639.837891) can0 381#79020C000700
(1655542639.838202) can0 001#000004600000
(1655542639.840244) can0 080#051800A1
(1655542639.840527) can0 1838F380#00061806181A0006
(1655542639.840812) can0 1839F380#00181A1804000695
(1655542639.841093) can0 18EEFF80#F30080F300401E90
(1655542639.844850) can0 201#06000000400D0300
(1655542639.845025) can0 080#00
(1655542639.845283) can0 181#A10000000000
(1655542639.845491) can0 281#001B38040000
(1655542639.845694) can0 381#79020C000700
(1655542639.846130) can0 001#000004600000
(1655542639.846370) can0 6D0#0300000460240366
(1655542639.846612) can0 601#4025200000000000
(1655542639.846981) can0 581#4F25200000000000
(1655542639.852379) can0 601#406C600000000000
(1655542639.852790) can0 201#06000000400D0300
(1655542639.853131) can0 581#436C600000000000
(1655542639.853259) can0 080#00
(1655542639.853480) can0 181#A10000000000
(1655542639.853684) can0 281#001B38040000
(1655542639.853906) can0 381#79020C000700
(1655542639.854200) can0 001#000004600000
(1655542639.854441) can0 6D0#04000004600063A3
(1655542639.860522) can0 201#06000000400D0300
(1655542639.860689) can0 080#00
(1655542639.860918) can0 181#A10000000000
(1655542639.861123) can0 281#001B38040000
(1655542639.861325) can0 381#7A020C000700
(1655542639.862136) can0 001#000004600000
(1655542639.862374) can0 6D0#0500000460000041
(1655542639.868334) can0 201#06000000400D0300
(1655542639.868499) can0 080#00
(1655542639.868730) can0 181#A10000000000
(1655542639.868939) can0 281#001B38040000
(1655542639.869144) can0 381#79020C000700
(1655542639.870211) can0 001#000004600000
(1655542639.870447) can0 6D0#0600000460003072
(1655542639.870789) can0 601#406C600000000000
(1655542639.871185) can0 581#436C600000000000
(1655542639.876103) can0 201#06000000400D0300
(1655542639.876270) can0 080#00
(1655542639.876536) can0 181#A10000000000
(1655542639.876746) can0 281#001B38040000
(1655542639.876942) can0 381#79020C000700
(1655542639.877266) can0 601#4026200100000000
(1655542639.877650) can0 581#4F2620011B000000
(1655542639.878128) can0 001#000004600000
(1655542639.878369) can0 6D0#0700000460001C5F
(1655542639.883959) can0 201#06000000400D0300
(1655542639.884135) can0 080#00
(1655542639.884362) can0 181#A10000000000
(1655542639.884572) can0 281#001B38040000
(1655542639.884769) can0 381#79020C000700
(1655542639.886136) can0 001#000004600000
(1655542639.888772) can0 601#406C600000000000
(1655542639.889168) can0 581#436C600000000000
(1655542639.891769) can0 201#06000000400D0300
(1655542639.891902) can0 080#00
(1655542639.892165) can0 181#A10000000000
(1655542639.892381) can0 281#001B38040000
(1655542639.892575) can0 381#79020C000700
(1655542639.894196) can0 001#000004600000
(1655542639.899573) can0 201#06000000400D0300
(1655542639.899743) can0 080#00
(1655542639.899968) can0 181#A10000000000
(1655542639.900178) can0 281#001B38040000
(1655542639.900381) can0 381#79020C000700
(1655542639.902127) can0 001#000004600000
(1655542639.902367) can0 6D0#080000046000DA1E
(1655542639.906633) can0 601#406C600000000000
(1655542639.907015) can0 581#436C600000000000
(1655542639.907588) can0 201#06000000400D0300
(1655542639.907754) can0 080#00
(1655542639.908016) can0 181#A10000000000
(1655542639.908220) can0 281#001B38040000
(1655542639.908424) can0 381#79020C000700
(1655542639.909116) can0 601#4026200200000000
(1655542639.909510) can0 581#4F26200222000000
(1655542639.910197) can0 001#000004600000
(1655542639.915160) can0 201#06000000400D0300
(1655542639.915321) can0 080#00
(1655542639.915547) can0 181#A10000000000
(1655542639.915758) can0 281#001B38040000
(1655542639.915959) can0 381#79020C000700
(1655542639.918128) can0 001#000004600000
(1655542639.918372) can0 6D0#0900000460000045
(1655542639.922967) can0 201#06000000400D0300
(1655542639.923139) can0 080#00
(1655542639.923401) can0 181#A10000000000
(1655542639.923605) can0 281#001B38040000
(1655542639.923832) can0 381#79020C000700
(1655542639.926205) can0 001#000004600000
(1655542639.926445) can0 6D0#0A000004600078BE
(1655542639.926682) can0 601#406C600000000000
(1655542639.927089) can0 581#436C600000000000
(1655542639.930820) can0 201#06000000400D0300
(1655542639.930985) can0 080#00
(1655542639.931216) can0 181#A10000000000
(1655542639.931429) can0 281#001B38040000
(1655542639.931624) can0 381#79020C000700
(1655542639.934126) can0 001#000004600000
(1655542639.934365) can0 6D0#0B000004600258A1
(1655542639.938587) can0 201#06000000400D0300
(1655542639.938750) can0 080#00
(1655542639.938978) can0 181#A10000000000
(1655542639.939193) can0 281#001B38040000
(1655542639.939391) can0 381#79020C000700
(1655542639.940254) can0 080#061A00A4
(1655542639.940499) can0 601#4026200600000000
(1655542639.940781) can0 1838F380#000B180B181A0006
(1655542639.941023) can0 581#4F26200600000000
(1655542639.941307) can0 1839F380#00181A1804000695
(1655542639.942200) can0 001#000004600000
(1655542639.942447) can0 6D0#0C00000460000048
(1655542639.946399) can0 201#06000000400D0300
(1655542639.946566) can0 080#00
(1655542639.946794) can0 181#A10000000000
(1655542639.947003) can0 281#001B38040000
(1655542639.947206) can0 381#79020C000700
(1655542639.948237) can0 601#406C600000000000
(1655542639.948630) can0 581#436C600000000000
(1655542639.950126) can0 001#000004600000
(1655542639.950374) can0 6D0#0D000004600460AD
(1655542639.954211) can0 201#06000000400D0300
(1655542639.954377) can0 080#00
(1655542639.954633) can0 181#A10000000000
(1655542639.954840) can0 281#001B38040000
(1655542639.955044) can0 381#79020C000700
(1655542639.958128) can0 001#000004600000
(1655542639.962016) can0 201#06000000400D0300
(1655542639.962188) can0 080#00
(1655542639.962448) can0 181#A10000000000
(1655542639.962653) can0 281#001B38040000
(1655542639.962863) can0 381#79020C000700
(1655542639.966055) can0 601#406C600000000000
(1655542639.966280) can0 001#000004600000
(1655542639.966528) can0 581#436C600000000000
(1655542639.969830) can0 201#06000000400D0300
(1655542639.970004) can0 080#00
(1655542639.970260) can0 181#A10000000000
(1655542639.970467) can0 281#001B38040000
(1655542639.970672) can0 381#79020C000700
(1655542639.971317) can0 601#4026200300000000
(1655542639.971694) can0 581#4B26200300000000
(1655542639.974123) can0 001#000004600000
